#  HZ   S   RI   R     50.00 
! Rohde & Schwarz Vector Network Analyzer 
! Rohde-Schwarz,ZNLE6-2Port,1323001256200024,1.71.1.10-23.02.1.238
! Created: UTC 4/8/2025, 6:47:17 AM
! freq[Hz]                re:S11                  im:S11                  re:S21                  im:S21                  re:S12                  im:S12                  re:S22                  im:S22
 1.000000000000000E5     4.308973561508953E-2    6.715582467120691E-2    9.575439806369623E-1   -6.728734469614919E-2    9.564015939861081E-1   -6.899350948537503E-2    4.421899239580365E-2    6.897300441378980E-2
 1.007629862646662E5     4.347253189989175E-2    6.736617598517819E-2    9.571310188921661E-1   -6.751249249589306E-2    9.560074351599125E-1   -6.919797588719433E-2    4.463444369552341E-2    6.918031786166777E-2
 1.015317940097331E5     4.385878323932910E-2    6.757851451353067E-2    9.567504357665405E-1   -6.770780945748038E-2    9.556064168789076E-1   -6.940889519715049E-2    4.503231890204733E-2    6.939626293676728E-2
 1.023064676522963E5     4.422595171110246E-2    6.775382264851509E-2    9.563648475597072E-1   -6.790346116160027E-2    9.552019933443892E-1   -6.961665280175955E-2    4.543033655197749E-2    6.959023180090312E-2
 1.030870519483485E5     4.460348108815693E-2    6.795043560476553E-2    9.559700461920777E-1   -6.808580490896589E-2    9.547869497797520E-1   -6.982423570195642E-2    4.583107709482929E-2    6.978827670795032E-2
 1.038735919953636E5     4.500764607952228E-2    6.814777172361954E-2    9.555833498182283E-1   -6.829698759098665E-2    9.543795671401469E-1   -7.004045709887334E-2    4.622307298075183E-2    6.999939019744345E-2
 1.046661332349037E5     4.538061663515680E-2    6.835786701796565E-2    9.551614102445440E-1   -6.849819499916293E-2    9.539730097729708E-1   -7.024130147120879E-2    4.664009377787572E-2    7.019122457833490E-2
 1.054647214552430E5     4.578891486476440E-2    6.855936568074038E-2    9.547609422752387E-1   -6.870294672942168E-2    9.535914761385449E-1   -7.043559497584864E-2    4.705211238316632E-2    7.039268768016105E-2
 1.062694027940149E5     4.619325638674342E-2    6.875510378085023E-2    9.543608237734487E-1   -6.892583502683056E-2    9.531982202582764E-1   -7.063199893513626E-2    4.746957136710606E-2    7.059339187364518E-2
 1.070802237408760E5     4.658858049220638E-2    6.894190293200647E-2    9.539803345496115E-1   -6.911217542095273E-2    9.527597827540174E-1   -7.083944734606520E-2    4.786199312115136E-2    7.078620510405421E-2
 1.078972311401927E5     4.699042189145938E-2    6.911508622934515E-2    9.536181551796271E-1   -6.927555330564472E-2    9.523687831545056E-1   -7.102661266832176E-2    4.827256465477733E-2    7.098132073808325E-2
 1.087204721937475E5     4.739229661102982E-2    6.930522540796058E-2    9.532038654581386E-1   -6.947667706082712E-2    9.519745584051931E-1   -7.121663841089378E-2    4.869373641355734E-2    7.116369019365021E-2
 1.095499944634658E5     4.779035887655102E-2    6.949967615304066E-2    9.527993842347615E-1   -6.966652461411746E-2    9.515347725117494E-1   -7.141346750758122E-2    4.909618565704854E-2    7.136113322561385E-2
 1.103858458741646E5     4.819800755917122E-2    6.968664020542741E-2    9.523873869390772E-1   -6.987287896796990E-2    9.511483156058692E-1   -7.161319249263265E-2    4.951183273740682E-2    7.155042898028802E-2
 1.112280747163201E5     4.860823765476747E-2    6.989119768143021E-2    9.519843868626109E-1   -7.006266939868970E-2    9.507229335396160E-1   -7.180745555252886E-2    4.993250093280516E-2    7.173560446410132E-2
 1.120767296488583E5     4.902157233213714E-2    7.006913274976653E-2    9.515901325758480E-1   -7.024168048174066E-2    9.503372576364080E-1   -7.198818757678861E-2    5.034874102516715E-2    7.191979530319538E-2
 1.129318597019661E5     4.941517365874816E-2    7.023661176021448E-2    9.511952861822357E-1   -7.041274845614820E-2    9.498953211765555E-1   -7.218664509357146E-2    5.076752644275888E-2    7.210415698584206E-2
 1.137935142799240E5     4.982033944126402E-2    7.040751788111271E-2    9.508100939624182E-1   -7.058862209974097E-2    9.495069646322825E-1   -7.235003556728085E-2    5.119066935790352E-2    7.229290308158184E-2
 1.146617431639607E5     5.022771153017105E-2    7.059510452134223E-2    9.503881567204351E-1   -7.077100622689386E-2    9.490653360958954E-1   -7.253200945261340E-2    5.159687005889837E-2    7.246934408546862E-2
 1.155365965151286E5     5.061919600451747E-2    7.077993222966578E-2    9.499553856369575E-1   -7.095177326211770E-2    9.486504808314716E-1   -7.271491929925571E-2    5.201300031058111E-2    7.264594577877817E-2
 1.164181248772018E5     5.104603432548498E-2    7.096176267841474E-2    9.495745247405369E-1   -7.114049964044782E-2    9.482256186797935E-1   -7.290678035251071E-2    5.244093550548895E-2    7.282085557319447E-2
 1.173063791795965E5     5.145988224604378E-2    7.113510222914550E-2    9.491631364582795E-1   -7.130738600724676E-2    9.478129172937755E-1   -7.307057527283412E-2    5.287538113554641E-2    7.300505339237248E-2
 1.182014107403141E5     5.185912477269057E-2    7.130039446292706E-2    9.487423877583142E-1   -7.148011167674040E-2    9.473970399522550E-1   -7.324645519691407E-2    5.328421968610619E-2    7.318491024769942E-2
 1.191032712689044E5     5.227922367325276E-2    7.146910244992034E-2    9.483495023591582E-1   -7.163298215331833E-2    9.469752825479779E-1   -7.343042864518640E-2    5.372088630172436E-2    7.335539919616152E-2
 1.200120128694542E5     5.268115923232151E-2    7.163248410444274E-2    9.479403561442316E-1   -7.180442471205919E-2    9.465575544478078E-1   -7.360153850923286E-2    5.414072280782598E-2    7.352335173955638E-2
 1.209276880435975E5     5.309809478555098E-2    7.179435507788619E-2    9.475114998923668E-1   -7.197932376170554E-2    9.461247369281389E-1   -7.378454420818621E-2    5.456092167780119E-2    7.369385297220132E-2
 1.218503496935483E5     5.350160642967290E-2    7.197168772691542E-2    9.470761892746539E-1   -7.215489754699994E-2    9.457047955084771E-1   -7.394580432190867E-2    5.498243524726681E-2    7.386478765877112E-2
 1.227800511251578E5     5.394569785512580E-2    7.214242770195377E-2    9.466749043892854E-1   -7.232655779413766E-2    9.452771933865148E-1   -7.411894626454586E-2    5.541002267626716E-2    7.401803763403814E-2
 1.237168460509929E5     5.436245233729706E-2    7.229846552005743E-2    9.462673406231429E-1   -7.248900005456567E-2    9.448281020698784E-1   -7.426814190888423E-2    5.583031647671609E-2    7.419227546981794E-2
 1.246607885934402E5     5.477763864286153E-2    7.245643907254812E-2    9.458693868801922E-1   -7.264520655943212E-2    9.444248680267042E-1   -7.444546083857015E-2    5.626548167534082E-2    7.433618318888376E-2
 1.256119332878327E5     5.517461391718197E-2    7.260482180672150E-2    9.454514955425152E-1   -7.280074143374507E-2    9.440006394572774E-1   -7.460286518071384E-2    5.669219563628985E-2    7.451117718203779E-2
 1.265703350856002E5     5.560048025808904E-2    7.275913363904583E-2    9.450571367822078E-1   -7.295580065754981E-2    9.435746794173223E-1   -7.476659459642312E-2    5.712865578394287E-2    7.467490940551370E-2
 1.275360493574453E5     5.601097503335134E-2    7.291756691549602E-2    9.446322966039666E-1   -7.311443903104917E-2    9.431517811877314E-1   -7.492867228838068E-2    5.755930412026177E-2    7.482632266225478E-2
 1.285091318965405E5     5.644134312680840E-2    7.306822095961311E-2    9.442055826679522E-1   -7.329261730597757E-2    9.427162378895281E-1   -7.507530632633214E-2    5.798839672268961E-2    7.498456971868379E-2
 1.294896389217529E5     5.686750035782302E-2    7.323603149942462E-2    9.437809812143304E-1   -7.344303281340814E-2    9.423049863430366E-1   -7.524658507284239E-2    5.841606416079041E-2    7.514342496433103E-2
 1.304776270808914E5     5.727165265115153E-2    7.337873051111846E-2    9.433770280004653E-1   -7.358386532161749E-2    9.418843557088898E-1   -7.539999230173161E-2    5.884817319547770E-2    7.528622164450449E-2
 1.314731534539810E5     5.767421133905561E-2    7.350360455058362E-2    9.429995104392425E-1   -7.369176567276658E-2    9.414280437168769E-1   -7.556120052500065E-2    5.927879821798022E-2    7.543240912267840E-2
 1.324762755565583E5     5.806725333799549E-2    7.362580954745983E-2    9.425723153462355E-1   -7.384585177070749E-2    9.410096042800585E-1   -7.570092574728453E-2    5.970115955479962E-2    7.558998510680302E-2
 1.334870513429962E5     5.852041143134519E-2    7.377134299951524E-2    9.421709029294394E-1   -7.399924629229943E-2    9.405763231566876E-1   -7.586062867644919E-2    6.012217633740226E-2    7.572615297482596E-2
 1.345055392098512E5     5.892228396933810E-2    7.393061993012012E-2    9.417334935051243E-1   -7.415803420864248E-2    9.401577250153331E-1   -7.599671497489460E-2    6.056573308962919E-2    7.588361495038530E-2
 1.355317979992373E5     5.938519083327469E-2    7.411471638810055E-2    9.412844954256214E-1   -7.432931152700890E-2    9.397248212954441E-1   -7.614928947416551E-2    6.099730167941533E-2    7.601925182906587E-2
 1.365658870022265E5     5.982249828708047E-2    7.425929210798997E-2    9.408486118525040E-1   -7.448802471536811E-2    9.393108607543995E-1   -7.630520968570605E-2    6.143210615128449E-2    7.615617811123669E-2
 1.376078659622731E5     6.023480091103185E-2    7.439833969275132E-2    9.404265284586829E-1   -7.463316754486711E-2    9.388898192707031E-1   -7.644196774814807E-2    6.187148250800403E-2    7.630148701837794E-2
 1.386577950786655E5     6.065542351132624E-2    7.453469992920422E-2    9.399905909190055E-1   -7.477446779642502E-2    9.384507967089146E-1   -7.657559191207648E-2    6.230065134518499E-2    7.645377468322213E-2
 1.397157350100044E5     6.110382839655310E-2    7.467569197777073E-2    9.395832170391352E-1   -7.492257918694120E-2    9.380229874627307E-1   -7.672403532630821E-2    6.274348403764750E-2    7.657895823040785E-2
 1.407817468777081E5     6.152174596237504E-2    7.481874892496000E-2    9.391583182570513E-1   -7.504811557287619E-2    9.376078109675913E-1   -7.686460984786790E-2    6.317189788442971E-2    7.671360212738351E-2
 1.418558922695422E5     6.193640381034137E-2    7.494831682502080E-2    9.387292284408794E-1   -7.519354754063369E-2    9.371669362279696E-1   -7.700680204400444E-2    6.361862022636741E-2    7.685392950660175E-2
 1.429382332431784E5     6.236131871382240E-2    7.509846880901908E-2    9.382941492422385E-1   -7.534044550352985E-2    9.367415503407892E-1   -7.712267823358535E-2    6.405124810499198E-2    7.698665629445994E-2
 1.440288323297804E5     6.280345157558735E-2    7.522466441323741E-2    9.378739489721316E-1   -7.548124853348720E-2    9.363003453821115E-1   -7.726675811173964E-2    6.447956758679493E-2    7.711091548337194E-2
 1.451277525376154E5     6.322993590383887E-2    7.536009681849384E-2    9.374698414113476E-1   -7.561312039529026E-2    9.358635566191887E-1   -7.739706989736497E-2    6.491285311092207E-2    7.724577100967972E-2
 1.462350573556962E5     6.365570060332337E-2    7.548241438756441E-2    9.370534609072726E-1   -7.573215516816448E-2    9.354453248905092E-1   -7.753940678136292E-2    6.534633311806945E-2    7.737728195954793E-2
 1.473508107574468E5     6.408488296478496E-2    7.560723051138060E-2    9.366507654006501E-1   -7.584890495513599E-2    9.350032351444468E-1   -7.765785085707422E-2    6.578650806915945E-2    7.750512839487826E-2
 1.484750772044004E5     6.450433411903680E-2    7.573675176662605E-2    9.362090979033040E-1   -7.599441890888320E-2    9.345431658610196E-1   -7.779020470809876E-2    6.620879055309982E-2    7.762894681158122E-2
 1.496079216499225E5     6.492069103860673E-2    7.587113483344395E-2    9.357834084602000E-1   -7.610391972073705E-2    9.341515747801804E-1   -7.792265915339416E-2    6.664906822802590E-2    7.775250506385380E-2
 1.507494095429637E5     6.535086290803171E-2    7.599644624759327E-2    9.353439684410384E-1   -7.625466363924549E-2    9.337318151579841E-1   -7.805084974948498E-2    6.708303019841401E-2    7.787276828349704E-2
 1.518996068318418E5     6.575556995052048E-2    7.610936753060175E-2    9.348980240538391E-1   -7.638322519827451E-2    9.332609709135340E-1   -7.817243087920231E-2    6.749943308438494E-2    7.799958861067098E-2
 1.530585799680507E5     6.618947468126565E-2    7.621997823019647E-2    9.345218684861988E-1   -7.650185565714453E-2    9.328465807424480E-1   -7.828972881847772E-2    6.793206622004568E-2    7.811972808252135E-2
 1.542263959101001E5     6.662254756407819E-2    7.634254985632785E-2    9.341017107121463E-1   -7.660884263494350E-2    9.324145383017658E-1   -7.841566063337928E-2    6.837070676761525E-2    7.823732813595086E-2
 1.554031221273835E5     6.703879486870951E-2    7.645624105280863E-2    9.336713892896596E-1   -7.673392891616798E-2    9.319978627671320E-1   -7.853680778540742E-2    6.882980066591918E-2    7.836453180983484E-2
 1.565888266040779E5     6.744854515816186E-2    7.658588126213070E-2    9.332439522798710E-1   -7.685699958347543E-2    9.315681365317904E-1   -7.865158769548407E-2    6.925304122878562E-2    7.847233420812268E-2
 1.577835778430689E5     6.787339025001460E-2    7.670066684366081E-2    9.328275990425016E-1   -7.698129318291291E-2    9.311186121952940E-1   -7.878207168374257E-2    6.967438810715511E-2    7.858649773513240E-2
 1.589874448699104E5     6.830365692647469E-2    7.681637952369344E-2    9.324078090946167E-1   -7.709501226560658E-2    9.306869547677933E-1   -7.889628742998178E-2    7.011404032826883E-2    7.870436793043029E-2
 1.602004972368116E5     6.872894122755230E-2    7.692422686163458E-2    9.319838229780135E-1   -7.721148396509619E-2    9.302511349151940E-1   -7.902229458760561E-2    7.055333388343119E-2    7.881976277112948E-2
 1.614228050266550E5     6.915650892566037E-2    7.704371927018883E-2    9.316030238462261E-1   -7.731542894477884E-2    9.298552976517641E-1   -7.913058983494498E-2    7.098582002222817E-2    7.893498374355448E-2
 1.626544388570473E5     6.956404837771518E-2    7.715140479880692E-2    9.311662327372100E-1   -7.742354316433737E-2    9.294003582562099E-1   -7.924458882076736E-2    7.140453058621790E-2    7.904704057474522E-2
 1.638954698843964E5     7.000003826630746E-2    7.725036861482683E-2    9.307686404196377E-1   -7.753819510829053E-2    9.289924744839901E-1   -7.936966834144972E-2    7.185359520401041E-2    7.914439504103957E-2
 1.651459698080244E5     7.043187970957952E-2    7.737094413109902E-2    9.303374129328658E-1   -7.765903091802578E-2    9.285542553876421E-1   -7.947990145033607E-2    7.227481423963811E-2    7.925847219828788E-2
 1.664060108743095E5     7.084358942116550E-2    7.748271158857289E-2    9.298908586046097E-1   -7.777926701434400E-2    9.281514757642896E-1   -7.958267192984279E-2    7.271771529449281E-2    7.936892971568561E-2
 1.676756658808590E5     7.125878960180908E-2    7.758947336360543E-2    9.294757206783222E-1   -7.788615880007355E-2    9.277106524079568E-1   -7.970341432054949E-2    7.314433618455252E-2    7.947674179993565E-2
 1.689550081807175E5     7.168480162304675E-2    7.768875888928953E-2    9.290571165592028E-1   -7.800614459551973E-2    9.272903851461902E-1   -7.980687076909505E-2    7.358133858736102E-2    7.958160478100300E-2
 1.702441116866020E5     7.209835343498738E-2    7.778530820027987E-2    9.286581582733580E-1   -7.809146002060950E-2    9.268689236293658E-1   -7.991677081868755E-2    7.400121577300195E-2    7.967843796352016E-2
 1.715430508751738E5     7.252508384457623E-2    7.789249051579386E-2    9.282526505354186E-1   -7.820364386379866E-2    9.264196776260465E-1   -8.001914927400657E-2    7.442547742549756E-2    7.978427893859079E-2
 1.728519007913403E5     7.294870736899273E-2    7.799876603060760E-2    9.278303292473428E-1   -7.831615155768835E-2    9.260102159297201E-1   -8.011996746256565E-2    7.486337132701332E-2    7.988526619797551E-2
 1.741707370525927E5     7.336305341613375E-2    7.810008643838756E-2    9.274110076228987E-1   -7.842368365264213E-2    9.255666303863236E-1   -8.023009374751988E-2    7.527803551971139E-2    7.999101670915741E-2
 1.754996358533718E5     7.378290746645333E-2    7.820575488401942E-2    9.269887765762080E-1   -7.851512356631007E-2    9.251404444929680E-1   -8.034163746322286E-2    7.571455905554032E-2    8.008987895992842E-2
 1.768386739694722E5     7.421891675733898E-2    7.830734585283708E-2    9.265940267987738E-1   -7.862231588782106E-2    9.247167998168395E-1   -8.043930617922841E-2    7.616104054927261E-2    8.018790576746690E-2
 1.781879287624771E5     7.461324726212362E-2    7.840501552381335E-2    9.261627033567389E-1   -7.872040873734459E-2    9.243151286798487E-1   -8.054211668308482E-2    7.657945414333736E-2    8.028401502729964E-2
 1.795474781842276E5     7.503231851568547E-2    7.850523962155084E-2    9.257597940157566E-1   -7.881438789413767E-2    9.238721217955680E-1   -8.064758410305624E-2    7.700030149798892E-2    8.038619489344692E-2
 1.809174007813277E5     7.545030988985629E-2    7.860175998688226E-2    9.253510856584447E-1   -7.891520790625939E-2    9.234668322898749E-1   -8.075005245074431E-2    7.741871098806874E-2    8.047766374424822E-2
 1.822977756996804E5     7.586743694544153E-2    7.869765681401077E-2    9.249257386854951E-1   -7.903191562760660E-2    9.230525698318709E-1   -8.086079551560064E-2    7.784603442843253E-2    8.057583698141925E-2
 1.836886826890609E5     7.627854369853766E-2    7.879517553943109E-2    9.245079085907848E-1   -7.912847139408627E-2    9.226270718283621E-1   -8.095869662594615E-2    7.828464705193240E-2    8.066672107327778E-2
 1.850902021077247E5     7.670701565742388E-2    7.889801075957618E-2    9.241028408746786E-1   -7.922267006788167E-2    9.222077891469633E-1   -8.104272649525783E-2    7.870487817932867E-2    8.076946704045812E-2
 1.865024149270491E5     7.709574254669641E-2    7.898216222503882E-2    9.236891575127529E-1   -7.932502429307135E-2    9.217719384728948E-1   -8.114955435955665E-2    7.912889902928581E-2    8.086001387910823E-2
 1.879254027362132E5     7.750895287173490E-2    7.906625224489416E-2    9.232817830543697E-1   -7.942599548728457E-2    9.213512388246659E-1   -8.122711960242796E-2    7.954533774635335E-2    8.096705544038477E-2
 1.893592477469092E5     7.796495401921701E-2    7.916247926703666E-2    9.228888377394445E-1   -7.950678964748761E-2    9.209318026441348E-1   -8.132721844390592E-2    7.994863521597530E-2    8.105910809987570E-2
 1.908040327980933E5     7.833673843505583E-2    7.926873100988854E-2    9.224529417207895E-1   -7.960439259073213E-2    9.204611989489552E-1   -8.142161492203563E-2    8.036572338701266E-2    8.114650996284632E-2
 1.922598413607715E5     7.875652587197539E-2    7.935878970203450E-2    9.220538590453478E-1   -7.970573965329476E-2    9.200537429473994E-1   -8.152893764095671E-2    8.079582330015322E-2    8.123452339268561E-2
 1.937267575428232E5     7.916427559838862E-2    7.945159278605891E-2    9.216403098278689E-1   -7.980076887439169E-2    9.196419131022249E-1   -8.162631965092162E-2    8.122066512265057E-2    8.132077028085932E-2
 1.952048660938581E5     7.959320531138607E-2    7.954093510843296E-2    9.212284879395227E-1   -7.990551629897270E-2    9.192242435456978E-1   -8.172568549277609E-2    8.163149744807460E-2    8.141079140286983E-2
 1.966942524101142E5     7.998191483503034E-2    7.963118575200748E-2    9.208267586731156E-1   -7.999579975428409E-2    9.188315936405540E-1   -8.182157957472816E-2    8.206405592214802E-2    8.150090104647867E-2
 1.981950025393913E5     8.042003851827224E-2    7.971410344992240E-2    9.204547604003778E-1   -8.008981088560534E-2    9.184268272744699E-1   -8.191374453776286E-2    8.249600129002030E-2    8.159584702560406E-2
