#  HZ   S   RI   R     50.00 
! Rohde & Schwarz Vector Network Analyzer 
! Rohde-Schwarz,ZNLE6-2Port,1323001256200024,1.71.1.10-23.02.1.238
! Created: UTC 4/8/2025, 6:37:01 AM
! freq[Hz]                re:S11                  im:S11                  re:S21                  im:S21                  re:S12                  im:S12                  re:S22                  im:S22
 1.000000000000000E5     1.867921226260326E-1    2.030039529422963E-1    8.153022001822305E-1   -2.030521777232971E-1    8.101615313891355E-1   -2.068000681897422E-1    1.920143707526105E-1    2.066799620604905E-1
 1.007629862646662E5     1.881538768318308E-1    2.031943012002110E-1    8.139467543698762E-1   -2.032652852883271E-1    8.088052526487511E-1   -2.069645957742419E-1    1.933690908352023E-1    2.068446935935543E-1
 1.015317940097331E5     1.894625545522538E-1    2.033615160292506E-1    8.126447918185012E-1   -2.034261743657331E-1    8.074636390200876E-1   -2.071372444385662E-1    1.947140128041398E-1    2.070077779653627E-1
 1.023064676522963E5     1.907440070464061E-1    2.034971396982071E-1    8.113412576143673E-1   -2.035805823197916E-1    8.061227984151057E-1   -2.072981036144653E-1    1.960607008372765E-1    2.071461334899981E-1
 1.030870519483485E5     1.920287462877334E-1    2.036307149919352E-1    8.100566698968462E-1   -2.037336635509721E-1    8.047763674159499E-1   -2.074519714907120E-1    1.974053043779231E-1    2.072974260129900E-1
 1.038735919953636E5     1.933531621008798E-1    2.037887505514315E-1    8.087306675123298E-1   -2.038972414473345E-1    8.034136327729430E-1   -2.076033781491936E-1    1.987313835093631E-1    2.074383771378928E-1
 1.046661332349037E5     1.946988111450462E-1    2.039558590452719E-1    8.073810235818425E-1   -2.040696962303812E-1    8.020928779355576E-1   -2.077342993894035E-1    2.000921263074306E-1    2.075661171793280E-1
 1.054647214552430E5     1.960511009958292E-1    2.041108998850611E-1    8.060470320183615E-1   -2.042085974774021E-1    8.007676354362752E-1   -2.078697219705025E-1    2.014333635010171E-1    2.076806167640393E-1
 1.062694027940149E5     1.973832947363190E-1    2.042475208879726E-1    8.047105483524766E-1   -2.043810711781009E-1    7.994400755603910E-1   -2.079939060560252E-1    2.027702673861555E-1    2.077963770051840E-1
 1.070802237408760E5     1.986764024426201E-1    2.043683555124340E-1    8.034295144733742E-1   -2.044947414201467E-1    7.980943583733070E-1   -2.080995210149109E-1    2.041044687896773E-1    2.079122747467924E-1
 1.078972311401927E5     1.999525910922314E-1    2.044391638050909E-1    8.021625912033723E-1   -2.045902279866514E-1    7.967462553707295E-1   -2.082064881213229E-1    2.054345310125631E-1    2.080108799180589E-1
 1.087204721937475E5     2.012677206856984E-1    2.045490902286043E-1    8.008489711075556E-1   -2.047086134745956E-1    7.954164096951643E-1   -2.083055131671452E-1    2.067728412707165E-1    2.081049873079066E-1
 1.095499944634658E5     2.026055044473080E-1    2.046719149609246E-1    7.995347356526937E-1   -2.048286560827928E-1    7.940661512609135E-1   -2.084039291089017E-1    2.080948882828689E-1    2.081978116297454E-1
 1.103858458741646E5     2.039233957172136E-1    2.047755212357223E-1    7.982000819559751E-1   -2.049514276994562E-1    7.927501562335706E-1   -2.084953010795291E-1    2.094457113642348E-1    2.082759021880062E-1
 1.112280747163201E5     2.052801533096671E-1    2.048885433570154E-1    7.968391174149100E-1   -2.050659822578428E-1    7.914155167240577E-1   -2.085769702441750E-1    2.107553717396445E-1    2.083468850396580E-1
 1.120767296488583E5     2.065748129237266E-1    2.049649628968634E-1    7.955611905080825E-1   -2.051516879787680E-1    7.900941893632367E-1   -2.086445345965488E-1    2.120788781628336E-1    2.084146833646224E-1
 1.129318597019661E5     2.078427867607364E-1    2.050243085090715E-1    7.942777769868724E-1   -2.052171517087134E-1    7.887560089880965E-1   -2.087250803410298E-1    2.134244340485728E-1    2.084802913956088E-1
 1.137935142799240E5     2.091150511415402E-1    2.050617378459660E-1    7.930104767235205E-1   -2.052882067180233E-1    7.874650102499949E-1   -2.087720197774405E-1    2.147439860426527E-1    2.085465502192346E-1
 1.146617431639607E5     2.104355226918455E-1    2.051350220022322E-1    7.917022672476840E-1   -2.053589268809382E-1    7.861350368778228E-1   -2.088382138193590E-1    2.160726320157116E-1    2.085855182859980E-1
 1.155365965151286E5     2.117264733910005E-1    2.052111985111167E-1    7.903589660391889E-1   -2.054231703970265E-1    7.848170172020972E-1   -2.088856384505437E-1    2.173901063109492E-1    2.086343350420080E-1
 1.164181248772018E5     2.130769235151906E-1    2.052820288515699E-1    7.890460027941916E-1   -2.055086536475187E-1    7.834866422371223E-1   -2.089302138775779E-1    2.187063812985606E-1    2.086691282252325E-1
 1.173063791795965E5     2.143669584360962E-1    2.053267018890234E-1    7.877443202379836E-1   -2.055625664622773E-1    7.821841328675482E-1   -2.089503572600405E-1    2.200332734251260E-1    2.086891194266951E-1
 1.182014107403141E5     2.156544155079188E-1    2.053551115529670E-1    7.864713221992915E-1   -2.056006299934366E-1    7.808626619600766E-1   -2.089839087214097E-1    2.213371952973312E-1    2.087101672591955E-1
 1.191032712689044E5     2.169207053119875E-1    2.053846560411724E-1    7.852138350518171E-1   -2.056123430928225E-1    7.795572894122337E-1   -2.090126511940710E-1    2.226702800425693E-1    2.087516593234737E-1
 1.200120128694542E5     2.181943443770381E-1    2.054031115120650E-1    7.839331275715057E-1   -2.056509496423311E-1    7.782497348389072E-1   -2.090317636919062E-1    2.239705904176509E-1    2.087539060383662E-1
 1.209276880435975E5     2.194949248745328E-1    2.054358715773945E-1    7.826445789508973E-1   -2.056824497164422E-1    7.769282401401312E-1   -2.090441275982033E-1    2.252791585213881E-1    2.087557461842976E-1
 1.218503496935483E5     2.207893109018705E-1    2.054625562979452E-1    7.813368680494637E-1   -2.057007136474684E-1    7.756580752253939E-1   -2.090644932931815E-1    2.266053987863792E-1    2.087566664147791E-1
 1.227800511251578E5     2.220973285778481E-1    2.054877395756017E-1    7.800415348166369E-1   -2.057414495569858E-1    7.743548540566420E-1   -2.090548300179808E-1    2.278899949308469E-1    2.087493454664330E-1
 1.237168460509929E5     2.233732724174050E-1    2.054801629997550E-1    7.787695378257791E-1   -2.057397732926978E-1    7.730482757431298E-1   -2.090252081882988E-1    2.291727342312703E-1    2.087526663142295E-1
 1.246607885934402E5     2.246481996798968E-1    2.054683035677741E-1    7.775279986091628E-1   -2.057473845755351E-1    7.717692549406844E-1   -2.090318602807150E-1    2.304776557437430E-1    2.087141840935923E-1
 1.256119332878327E5     2.258755749375984E-1    2.054534092769994E-1    7.762617115210646E-1   -2.057247721295674E-1    7.704742058112097E-1   -2.090076548439119E-1    2.317592807824254E-1    2.086976105349585E-1
 1.265703350856002E5     2.271492011118531E-1    2.054343003183238E-1    7.750114038545409E-1   -2.057231348527605E-1    7.691870585199246E-1   -2.089891552494108E-1    2.330636471758363E-1    2.086678295210791E-1
 1.275360493574453E5     2.284377415489538E-1    2.054262766691540E-1    7.737240427423896E-1   -2.057210280954520E-1    7.678782939918281E-1   -2.089527920109352E-1    2.343307613044769E-1    2.086276704896714E-1
 1.285091318965405E5     2.297232438044940E-1    2.054110355861031E-1    7.724395619957999E-1   -2.057248216153334E-1    7.666133504888808E-1   -2.089178682460079E-1    2.356209919581294E-1    2.085921878183028E-1
 1.294896389217529E5     2.309924382795102E-1    2.053927916961397E-1    7.711652439829055E-1   -2.056985328389374E-1    7.653316009413795E-1   -2.088891198923502E-1    2.369128441998251E-1    2.085488201707636E-1
 1.304776270808914E5     2.322312179793803E-1    2.053529735809397E-1    7.699394631300378E-1   -2.056486923102504E-1    7.640549424738898E-1   -2.088373172452515E-1    2.381775377139142E-1    2.084962431063202E-1
 1.314731534539810E5     2.334117534164353E-1    2.052625784182843E-1    7.687995424272813E-1   -2.055768337902075E-1    7.627786147668983E-1   -2.087943448208896E-1    2.394576229606312E-1    2.084421775517170E-1
 1.324762755565583E5     2.345693102158510E-1    2.051797344333422E-1    7.675604122891144E-1   -2.055151464220906E-1    7.615321958676101E-1   -2.087325773126718E-1    2.407331362948840E-1    2.083874548845761E-1
 1.334870513429962E5     2.358305308975091E-1    2.051336028881149E-1    7.663266547371653E-1   -2.054686458407680E-1    7.602715987484990E-1   -2.086808808780184E-1    2.419895209340473E-1    2.083187880966989E-1
 1.345055392098512E5     2.371105329187586E-1    2.051120972324593E-1    7.650430840390043E-1   -2.054425418076428E-1    7.590169084309625E-1   -2.086161445471637E-1    2.432497028680705E-1    2.082502270468412E-1
 1.355317979992373E5     2.384683175659580E-1    2.051212391210751E-1    7.636591983785744E-1   -2.054489156238837E-1    7.577451109210031E-1   -2.085359138153304E-1    2.445114922627032E-1    2.081682656604119E-1
 1.365658870022265E5     2.397401137158419E-1    2.050617853884650E-1    7.623960027279367E-1   -2.054085961627825E-1    7.565132105445326E-1   -2.084771842267413E-1    2.457695892171341E-1    2.080821357896770E-1
 1.376078659622731E5     2.409821222562087E-1    2.049944925445414E-1    7.611751660330863E-1   -2.053561419680830E-1    7.552602532399711E-1   -2.083918563293093E-1    2.470122037999319E-1    2.079959270217461E-1
 1.386577950786655E5     2.421818961576040E-1    2.049268064705097E-1    7.599592960807311E-1   -2.052745970383209E-1    7.540164006216350E-1   -2.083099797485666E-1    2.482596122329568E-1    2.079248889406066E-1
 1.397157350100044E5     2.434323576874968E-1    2.048473870770014E-1    7.587344427347992E-1   -2.052132045153009E-1    7.527591370904994E-1   -2.082229250850625E-1    2.494961710329930E-1    2.078173309464083E-1
 1.407817468777081E5     2.446729043038860E-1    2.047725447274718E-1    7.575028285032136E-1   -2.051289050603693E-1    7.515295281719181E-1   -2.081424078329742E-1    2.507245162332679E-1    2.077175641602112E-1
 1.418558922695422E5     2.458936555598510E-1    2.046948856113308E-1    7.562690740490440E-1   -2.050694754266747E-1    7.502903402829425E-1   -2.080418008931091E-1    2.519630531695651E-1    2.076121602957915E-1
 1.429382332431784E5     2.471449131481571E-1    2.046237193857250E-1    7.550113223218493E-1   -2.050008163581236E-1    7.490916719800120E-1   -2.079249940419637E-1    2.531811138236399E-1    2.075209215327393E-1
 1.440288323297804E5     2.483693884904154E-1    2.045346264421811E-1    7.538046946617243E-1   -2.049174202038629E-1    7.478626805691801E-1   -2.078309247939413E-1    2.544334261918456E-1    2.074178916974222E-1
 1.451277525376154E5     2.495842621707836E-1    2.044450498190332E-1    7.525854193010147E-1   -2.048140061286172E-1    7.466237419717808E-1   -2.077199655358123E-1    2.556554862028929E-1    2.073022851503065E-1
 1.462350573556962E5     2.507684967318633E-1    2.043229217699991E-1    7.514127243130646E-1   -2.047231193183233E-1    7.454152292169769E-1   -2.076161755056740E-1    2.568690901425688E-1    2.071949822662781E-1
 1.473508107574468E5     2.519472684750976E-1    2.042065494026961E-1    7.502308108250026E-1   -2.046113658229154E-1    7.441930107801860E-1   -2.074927885661086E-1    2.580806123207913E-1    2.070608378738461E-1
 1.484750772044004E5     2.531632937845020E-1    2.041194658608763E-1    7.489962121553887E-1   -2.045300715651855E-1    7.429854294574609E-1   -2.073640389225855E-1    2.592725614875652E-1    2.069189393806360E-1
 1.496079216499225E5     2.543524052748798E-1    2.040081098859054E-1    7.478182955611217E-1   -2.044071419300171E-1    7.418134910713806E-1   -2.072590747471883E-1    2.604922309314586E-1    2.067997755232785E-1
 1.507494095429637E5     2.555550545864334E-1    2.039033291598871E-1    7.465976285509056E-1   -2.043150360246463E-1    7.406107254799342E-1   -2.071275872992382E-1    2.616930139310739E-1    2.066774416264370E-1
 1.518996068318418E5     2.567316462698137E-1    2.037862865143117E-1    7.454156301016003E-1   -2.042073265810283E-1    7.394115119888495E-1   -2.070086340084730E-1    2.628913278938787E-1    2.065536604842537E-1
 1.530585799680507E5     2.578884914086570E-1    2.036440445090907E-1    7.442681212249015E-1   -2.040845996026148E-1    7.382033481427619E-1   -2.068683186420009E-1    2.640771538964717E-1    2.064114318731348E-1
 1.542263959101001E5     2.590792993722686E-1    2.035341416946487E-1    7.431048497706059E-1   -2.039626863051595E-1    7.370169725154376E-1   -2.067311114542057E-1    2.652482910878707E-1    2.062644848344387E-1
 1.554031221273835E5     2.602513458592862E-1    2.034065510487159E-1    7.419321135860376E-1   -2.038411574091105E-1    7.358416853135549E-1   -2.065977981021846E-1    2.664500372293944E-1    2.061301573139799E-1
 1.565888266040779E5     2.614227710845966E-1    2.032778425094376E-1    7.407514563468875E-1   -2.037245358325714E-1    7.346718707794903E-1   -2.064438107840531E-1    2.676264795248625E-1    2.059805545866824E-1
 1.577835778430689E5     2.626103353411348E-1    2.031612023575792E-1    7.395822417995904E-1   -2.036061448969031E-1    7.334832558809753E-1   -2.063089999048287E-1    2.687921360049103E-1    2.058267143758424E-1
 1.589874448699104E5     2.637652329738434E-1    2.030210263877023E-1    7.384355191817489E-1   -2.034656854981789E-1    7.323323569544810E-1   -2.061678839284061E-1    2.699812823054772E-1    2.056755922509438E-1
 1.602004972368116E5     2.649059016438303E-1    2.028810084812956E-1    7.372968455390301E-1   -2.033363751479604E-1    7.311552287931801E-1   -2.060192062406486E-1    2.711428462658219E-1    2.055177306946021E-1
 1.614228050266550E5     2.660557949665697E-1    2.027377044318832E-1    7.361681881227867E-1   -2.031958046155944E-1    7.300117097458007E-1   -2.058721094662025E-1    2.722911684419265E-1    2.053664842813372E-1
 1.626544388570473E5     2.672227418291238E-1    2.025990875819825E-1    7.350348842517321E-1   -2.030498062545801E-1    7.288491734392525E-1   -2.057110251902619E-1    2.734644839947266E-1    2.052076000592639E-1
 1.638954698843964E5     2.683360670616018E-1    2.024333466934814E-1    7.338763566410312E-1   -2.029084314987045E-1    7.277008444351722E-1   -2.055559705134680E-1    2.746108642190145E-1    2.050495848872111E-1
 1.651459698080244E5     2.695234170024806E-1    2.023041320285847E-1    7.327172162865843E-1   -2.027824106494136E-1    7.265602402337648E-1   -2.054039551728691E-1    2.757695764525963E-1    2.048882661640073E-1
 1.664060108743095E5     2.706425637729346E-1    2.021545135817536E-1    7.315747402505339E-1   -2.026394933678529E-1    7.254243322860990E-1   -2.052410687847092E-1    2.769304434711116E-1    2.047178917411189E-1
 1.676756658808590E5     2.717686567513889E-1    2.020043183744348E-1    7.304572740145313E-1   -2.024910016084536E-1    7.242758361106962E-1   -2.050863851061706E-1    2.780587580414334E-1    2.045559783908902E-1
 1.689550081807175E5     2.728827297909590E-1    2.018534390968654E-1    7.293200410138436E-1   -2.023402967907313E-1    7.231676504643976E-1   -2.049152449415007E-1    2.792022216363844E-1    2.043871609393115E-1
 1.702441116866020E5     2.740000894256629E-1    2.016806416933625E-1    7.282526005057524E-1   -2.021816714522362E-1    7.220330783739130E-1   -2.047619077020170E-1    2.803279947733884E-1    2.042059588748005E-1
 1.715430508751738E5     2.751158163079690E-1    2.015290960550822E-1    7.271316545945578E-1   -2.020277590617275E-1    7.209011953236488E-1   -2.045790949726879E-1    2.814507199829858E-1    2.040235419700509E-1
 1.728519007913403E5     2.762556906550502E-1    2.013762451074662E-1    7.259995155441304E-1   -2.018840247299170E-1    7.197822512742980E-1   -2.044068523302995E-1    2.825624753771673E-1    2.038448334927495E-1
 1.741707370525927E5     2.773519519555269E-1    2.012123589076489E-1    7.248939656487382E-1   -2.017243341054644E-1    7.186612248914971E-1   -2.042354164718258E-1    2.836765294486545E-1    2.036739636213748E-1
 1.754996358533718E5     2.784608735466829E-1    2.010512515926181E-1    7.237874798214520E-1   -2.015673291641913E-1    7.175485812194818E-1   -2.040722218326700E-1    2.847854044373349E-1    2.034962757709477E-1
 1.768386739694722E5     2.795514268817508E-1    2.008797230575357E-1    7.226857270367004E-1   -2.014086001628992E-1    7.164470110438199E-1   -2.038949972318023E-1    2.859080222267019E-1    2.033179295559547E-1
 1.781879287624771E5     2.806379937998149E-1    2.007163720024607E-1    7.216179304164159E-1   -2.012423191423433E-1    7.153628478185733E-1   -2.037165014700132E-1    2.870021582889492E-1    2.031242657416149E-1
 1.795474781842276E5     2.817251839460346E-1    2.005466271289535E-1    7.205510107592685E-1   -2.010745758947199E-1    7.142479632383130E-1   -2.035322576173149E-1    2.881026545557943E-1    2.029492818692285E-1
 1.809174007813277E5     2.828244796902754E-1    2.003834816700351E-1    7.194481010785910E-1   -2.009118856499578E-1    7.131591275825300E-1   -2.033492977827295E-1    2.891953150276722E-1    2.027671816676744E-1
 1.822977756996804E5     2.839174057192315E-1    2.002160587792072E-1    7.183538267149557E-1   -2.007530897889421E-1    7.120966995091028E-1   -2.031785955357043E-1    2.902991014425171E-1    2.025913356334211E-1
 1.836886826890609E5     2.849974510864853E-1    2.000384994241136E-1    7.172701189911375E-1   -2.005781210006506E-1    7.109896188426110E-1   -2.030039968276438E-1    2.913824500041196E-1    2.023964338150943E-1
 1.850902021077247E5     2.860854151494777E-1    1.998827766442589E-1    7.162070066623678E-1   -2.004165605575177E-1    7.099068322104647E-1   -2.028087443358865E-1    2.924718789235903E-1    2.022045261148360E-1
 1.865024149270491E5     2.871315939546507E-1    1.997056751748109E-1    7.151534379486805E-1   -2.002508848368977E-1    7.088417588978949E-1   -2.026335298635081E-1    2.935570370783430E-1    2.020124020779548E-1
 1.879254027362132E5     2.881812807780554E-1    1.995013582522311E-1    7.140704189966192E-1   -2.000802983199733E-1    7.077737950540841E-1   -2.024400722472988E-1    2.946319816347995E-1    2.018327509283628E-1
 1.893592477469092E5     2.892666696749226E-1    1.993503489180915E-1    7.130326104946338E-1   -1.998997251774221E-1    7.066879233291308E-1   -2.022707145939072E-1    2.956887984952103E-1    2.016387124846193E-1
 1.908040327980933E5     2.903009645841358E-1    1.991622068164190E-1    7.119277606767858E-1   -1.997362083261224E-1    7.056197948112365E-1   -2.020637604707829E-1    2.967680592749288E-1    2.014608447052268E-1
 1.922598413607715E5     2.913770987574594E-1    1.989954662235073E-1    7.108851660219386E-1   -1.995624965035919E-1    7.045528815141224E-1   -2.018857391262036E-1    2.978118748965683E-1    2.012581021366567E-1
 1.937267575428232E5     2.924428343228938E-1    1.988247135862218E-1    7.098559571271175E-1   -1.993945581852418E-1    7.034922955593774E-1   -2.016977318648230E-1    2.988759958673610E-1    2.010655660408651E-1
 1.952048660938581E5     2.934743955349201E-1    1.986466786959868E-1    7.088081139378455E-1   -1.992291421764673E-1    7.024459373324342E-1   -2.015174365517669E-1    2.999222923440734E-1    2.008855165752796E-1
 1.966942524101142E5     2.945040383069193E-1    1.984619152225997E-1    7.077865576910817E-1   -1.990460183340437E-1    7.014054030480122E-1   -2.013302815843230E-1    3.009688720964947E-1    2.006739717958251E-1
 1.981950025393913E5     2.955299731240341E-1    1.982805881618866E-1    7.067761811499649E-1   -1.988828929432540E-1    7.003627957099851E-1   -2.011354498548606E-1    3.020260535146049E-1    2.005004259935267E-1
