#  HZ   S   RI   R     50.00 
! Rohde & Schwarz Vector Network Analyzer 
! Rohde-Schwarz,ZNLE6-2Port,1323001256200024,1.71.1.10-23.02.1.238
! Created: UTC 4/8/2025, 6:26:02 AM
! freq[Hz]                re:S11                  im:S11                  re:S21                  im:S21                  re:S12                  im:S12                  re:S22                  im:S22
 1.000000000000000E5     3.995634718554489E-1    2.886610873031873E-1    6.034808103261088E-1   -2.891354089282500E-1    5.947104519430421E-1   -2.909166151945888E-1    4.083135525332096E-1    2.902393881496907E-1
 1.007629862646662E5     4.014298502740430E-1    2.881501390648976E-1    6.015719144243489E-1   -2.886403563675586E-1    5.928637772361323E-1   -2.903803593084856E-1    4.101394344455616E-1    2.896848755983978E-1
 1.015317940097331E5     4.032250910287056E-1    2.876390179280517E-1    5.997832729619547E-1   -2.881193563153295E-1    5.910514654649327E-1   -2.898361312614230E-1    4.119483603259754E-1    2.891461041693507E-1
 1.023064676522963E5     4.049464411224086E-1    2.870860770077225E-1    5.980031408191007E-1   -2.876019374141422E-1    5.892409499758215E-1   -2.892912453038468E-1    4.137549264647216E-1    2.885737408377712E-1
 1.030870519483485E5     4.066951809537370E-1    2.865475919647862E-1    5.962551633165849E-1   -2.870758340059965E-1    5.874334326196919E-1   -2.887321551491495E-1    4.155195005162247E-1    2.880072608768322E-1
 1.038735919953636E5     4.084987502169166E-1    2.860078922575133E-1    5.944501429706690E-1   -2.865458135820706E-1    5.856336843356791E-1   -2.881752292604610E-1    4.173265817182947E-1    2.874412708262765E-1
 1.046661332349037E5     4.103343971979332E-1    2.854761198429898E-1    5.926208351653788E-1   -2.860196244112310E-1    5.838504915048240E-1   -2.876042316167980E-1    4.191058273761700E-1    2.868643918498066E-1
 1.054647214552430E5     4.121392755361625E-1    2.849306570832342E-1    5.908102117149843E-1   -2.854774328413435E-1    5.820903160325143E-1   -2.870381223032460E-1    4.208765307372606E-1    2.862823156283601E-1
 1.062694027940149E5     4.139129561142593E-1    2.843843081850437E-1    5.889928926612674E-1   -2.849507159768463E-1    5.803498359129476E-1   -2.864593126073195E-1    4.226415380293562E-1    2.856964954232132E-1
 1.070802237408760E5     4.156299475017886E-1    2.838141785979615E-1    5.872827074802690E-1   -2.843869354252760E-1    5.785931903817240E-1   -2.858725080915344E-1    4.243695578159658E-1    2.850985458142699E-1
 1.078972311401927E5     4.172954481873951E-1    2.832267131484221E-1    5.856106744955205E-1   -2.838130295090130E-1    5.768230179130213E-1   -2.852615728099738E-1    4.260687252907787E-1    2.845014434249331E-1
 1.087204721937475E5     4.190167886224779E-1    2.826423104742645E-1    5.838645537116647E-1   -2.832462797280041E-1    5.751254115385662E-1   -2.846731733059340E-1    4.278208878212507E-1    2.839032958669974E-1
 1.095499944634658E5     4.207857208845605E-1    2.820705978214555E-1    5.821299747948268E-1   -2.826828335084563E-1    5.733866371428676E-1   -2.840604146683883E-1    4.295378098245886E-1    2.832946220059658E-1
 1.103858458741646E5     4.225214226493823E-1    2.814902876009550E-1    5.803613494202787E-1   -2.821130666328102E-1    5.716578271179161E-1   -2.834486528183392E-1    4.312223892134663E-1    2.826729217356919E-1
 1.112280747163201E5     4.242806311048521E-1    2.809143738026625E-1    5.785798786733648E-1   -2.815265797822367E-1    5.699594608679663E-1   -2.828326837179484E-1    4.329245225190985E-1    2.820521267114807E-1
 1.120767296488583E5     4.259487206533055E-1    2.803158713441422E-1    5.769135497051885E-1   -2.809379541594149E-1    5.682775841848609E-1   -2.822170106197290E-1    4.345981213145433E-1    2.814245046126891E-1
 1.129318597019661E5     4.275776429470575E-1    2.796958509167063E-1    5.752644918306118E-1   -2.803339291890835E-1    5.665729471230417E-1   -2.815928881482161E-1    4.362835789617766E-1    2.807876407727623E-1
 1.137935142799240E5     4.292159409427412E-1    2.790760651748515E-1    5.736493430081238E-1   -2.797409020464685E-1    5.649246900125957E-1   -2.809591015061634E-1    4.379628899220774E-1    2.801568455231369E-1
 1.146617431639607E5     4.308948739540969E-1    2.784699235411443E-1    5.719681446894553E-1   -2.791422394959626E-1    5.632589555119479E-1   -2.803269857596034E-1    4.396018376442687E-1    2.795161765056572E-1
 1.155365965151286E5     4.325775571857556E-1    2.778547533471713E-1    5.702698827148041E-1   -2.785224232385738E-1    5.615992396694994E-1   -2.796868010584400E-1    4.412463660581197E-1    2.788722342640487E-1
 1.164181248772018E5     4.342698227235338E-1    2.772442767562941E-1    5.685787743421361E-1   -2.779266961108101E-1    5.599379052538856E-1   -2.790470658533055E-1    4.428923704977673E-1    2.782114171458466E-1
 1.173063791795965E5     4.359062713721715E-1    2.766010341692144E-1    5.669233213399668E-1   -2.772976681884568E-1    5.583246497485292E-1   -2.783918013783339E-1    4.445217192777338E-1    2.775634452055741E-1
 1.182014107403141E5     4.374966949628737E-1    2.759948008911543E-1    5.653179523452566E-1   -2.766768329874415E-1    5.566890093832971E-1   -2.777334789983667E-1    4.461095013569814E-1    2.769080237458083E-1
 1.191032712689044E5     4.390766937687918E-1    2.753392116839367E-1    5.637550261503151E-1   -2.760429944611215E-1    5.550757459126729E-1   -2.770801895855289E-1    4.477338918866872E-1    2.762524272022304E-1
 1.200120128694542E5     4.406601570734591E-1    2.747041240396087E-1    5.621352665183712E-1   -2.754080420214820E-1    5.534893897000772E-1   -2.764229910074271E-1    4.493484797849500E-1    2.755911055504469E-1
 1.209276880435975E5     4.422524528460668E-1    2.740660405070175E-1    5.605288547942049E-1   -2.747741985412820E-1    5.518753923513123E-1   -2.757617391601619E-1    4.509365950349446E-1    2.749204479323186E-1
 1.218503496935483E5     4.438623403184912E-1    2.734208747902210E-1    5.589065115911502E-1   -2.741315591090355E-1    5.503070747107949E-1   -2.751016278212228E-1    4.525253266392871E-1    2.742449433927920E-1
 1.227800511251578E5     4.454880711105343E-1    2.727758853542240E-1    5.572971991106556E-1   -2.735048762850385E-1    5.487183628861533E-1   -2.744255517321529E-1    4.540846165879127E-1    2.735751820189345E-1
 1.237168460509929E5     4.470498719853550E-1    2.721339419105477E-1    5.557327994922699E-1   -2.728538862350587E-1    5.471617576037475E-1   -2.737347543541975E-1    4.556275658852876E-1    2.729069680030578E-1
 1.246607885934402E5     4.485913103793435E-1    2.714740769231215E-1    5.541966472892150E-1   -2.721956678091170E-1    5.456133534636306E-1   -2.730767125534546E-1    4.571511632857110E-1    2.721983105607352E-1
 1.256119332878327E5     4.500746040331557E-1    2.708154098163231E-1    5.526865835722070E-1   -2.715452505073370E-1    5.440619128563143E-1   -2.723780515534988E-1    4.587032388914588E-1    2.715260496067418E-1
 1.265703350856002E5     4.516304567983802E-1    2.701553809846353E-1    5.511645740408924E-1   -2.708901015582358E-1    5.425327001456044E-1   -2.717057207368182E-1    4.602377873752596E-1    2.708422224701054E-1
 1.275360493574453E5     4.531788278892023E-1    2.694976071504846E-1    5.496004006446360E-1   -2.702375737192400E-1    5.410180011092351E-1   -2.710260675450836E-1    4.617752314265556E-1    2.701492111630233E-1
 1.285091318965405E5     4.547198198231613E-1    2.688274891754645E-1    5.480459232889546E-1   -2.695836028813198E-1    5.395115975365496E-1   -2.703303955050881E-1    4.632802268869422E-1    2.694658674784372E-1
 1.294896389217529E5     4.562626835100482E-1    2.681612497054188E-1    5.465208656636018E-1   -2.689166184120758E-1    5.380048622323210E-1   -2.696495578110383E-1    4.647926246017723E-1    2.687689847077783E-1
 1.304776270808914E5     4.577235214045570E-1    2.674880657495832E-1    5.450500922369365E-1   -2.682545753990819E-1    5.365026830965908E-1   -2.689547129685886E-1    4.662500878602088E-1    2.680765862350317E-1
 1.314731534539810E5     4.590830149594214E-1    2.667945966240403E-1    5.436899199590985E-1   -2.675729725758832E-1    5.350130340236955E-1   -2.682656179615040E-1    4.677358892117470E-1    2.673766094321335E-1
 1.324762755565583E5     4.604515674609234E-1    2.661178388466643E-1    5.422695494393136E-1   -2.668951805027320E-1    5.335362672286180E-1   -2.675633799878813E-1    4.692009309247883E-1    2.666763156812019E-1
 1.334870513429962E5     4.619293775972771E-1    2.654432773925107E-1    5.408095708621456E-1   -2.662248750996441E-1    5.320652952444578E-1   -2.668713848805178E-1    4.706390536122795E-1    2.659623334973279E-1
 1.345055392098512E5     4.634332782890622E-1    2.647774598709827E-1    5.392699620833769E-1   -2.655516282628340E-1    5.306337817985044E-1   -2.661707926045251E-1    4.720962191487975E-1    2.652770423880325E-1
 1.355317979992373E5     4.650758440373174E-1    2.641038095051983E-1    5.376223341526697E-1   -2.648923161405457E-1    5.291869789872528E-1   -2.654715149811139E-1    4.735570161010714E-1    2.645714787675107E-1
 1.365658870022265E5     4.665652508078856E-1    2.634122321158082E-1    5.361373721759425E-1   -2.642151143929496E-1    5.277508892307555E-1   -2.647742512945221E-1    4.749675144534384E-1    2.638610422362693E-1
 1.376078659622731E5     4.679652736846238E-1    2.627345366386077E-1    5.346888523422161E-1   -2.635446708078106E-1    5.263172840413369E-1   -2.640753364814031E-1    4.763977643200755E-1    2.631626372926257E-1
 1.386577950786655E5     4.693886505867385E-1    2.620551454843725E-1    5.333019508910589E-1   -2.628640492405340E-1    5.248999636052031E-1   -2.633618389050799E-1    4.778143608111287E-1    2.624511780055792E-1
 1.397157350100044E5     4.708233177380631E-1    2.613683006151203E-1    5.318813916019509E-1   -2.621854924123341E-1    5.234954369395943E-1   -2.626687219993127E-1    4.792116380772239E-1    2.617472788686548E-1
 1.407817468777081E5     4.722492688485423E-1    2.606829862584615E-1    5.304520888051115E-1   -2.614962298216013E-1    5.220958507332575E-1   -2.619733235720201E-1    4.806199694569496E-1    2.610318803183458E-1
 1.418558922695422E5     4.736539328753311E-1    2.599958290511757E-1    5.290314965733898E-1   -2.608198283123072E-1    5.207128505168145E-1   -2.612660508055532E-1    4.819938158622851E-1    2.603180386333921E-1
 1.429382332431784E5     4.750870348567486E-1    2.593154815620838E-1    5.275897851594604E-1   -2.601344372560334E-1    5.193640251271497E-1   -2.605586199397320E-1    4.833903951510927E-1    2.596174533367051E-1
 1.440288323297804E5     4.764719015812140E-1    2.586280115411831E-1    5.262136799102423E-1   -2.594539617367607E-1    5.179766607941658E-1   -2.598572993381527E-1    4.847578311699666E-1    2.589105878308284E-1
 1.451277525376154E5     4.778403363846165E-1    2.579376605374329E-1    5.248332204726036E-1   -2.587612215615509E-1    5.166085392601976E-1   -2.591388122777095E-1    4.861275701176387E-1    2.582024753457422E-1
 1.462350573556962E5     4.791795906062463E-1    2.572507348382028E-1    5.234982659860411E-1   -2.580842902335355E-1    5.152423633331273E-1   -2.584449531619458E-1    4.874512597096576E-1    2.574902414650678E-1
 1.473508107574468E5     4.805007219956334E-1    2.565496973689989E-1    5.221611103370816E-1   -2.573898830643254E-1    5.139104432868674E-1   -2.577359957118956E-1    4.888001104764070E-1    2.567819787434292E-1
 1.484750772044004E5     4.818782406026714E-1    2.558641775747597E-1    5.207549015632620E-1   -2.567167514020890E-1    5.125741810801944E-1   -2.570276274751598E-1    4.901173147312105E-1    2.560550057399471E-1
 1.496079216499225E5     4.832253295776213E-1    2.551780502594255E-1    5.194402004027372E-1   -2.560316346891838E-1    5.112596684978402E-1   -2.563400765690705E-1    4.914422699851588E-1    2.553442273355874E-1
 1.507494095429637E5     4.845728315620403E-1    2.544956595379964E-1    5.180757607472507E-1   -2.553443364759456E-1    5.099538162188528E-1   -2.556309025173530E-1    4.927504770712366E-1    2.546526446690750E-1
 1.518996068318418E5     4.858698935958420E-1    2.537995172943891E-1    5.167698077249644E-1   -2.546624312609844E-1    5.086322302064873E-1   -2.549350082483350E-1    4.940533696712236E-1    2.539503549592765E-1
 1.530585799680507E5     4.871249578920795E-1    2.531151596848022E-1    5.154934523113051E-1   -2.539784589176806E-1    5.073109260539683E-1   -2.542174881584492E-1    4.953212000137657E-1    2.532339953529233E-1
 1.542263959101001E5     4.884578205308487E-1    2.524231443554442E-1    5.141988553077385E-1   -2.532963350402228E-1    5.060325772893247E-1   -2.535247918058958E-1    4.966270254621947E-1    2.525309234651920E-1
 1.554031221273835E5     4.897401948233573E-1    2.517467986589031E-1    5.129039262385308E-1   -2.526108954747442E-1    5.047639590035140E-1   -2.528216540134952E-1    4.979162707636852E-1    2.518328035219065E-1
 1.565888266040779E5     4.910361057754313E-1    2.510479785155799E-1    5.115944528311036E-1   -2.519329971280221E-1    5.034969139885261E-1   -2.521195153192593E-1    4.991779151277316E-1    2.511271228853634E-1
 1.577835778430689E5     4.923327956719433E-1    2.503679121449061E-1    5.102922242605485E-1   -2.512556659782809E-1    5.022222765355356E-1   -2.514255765587383E-1    5.004542169134094E-1    2.504247848366782E-1
 1.589874448699104E5     4.936124774700868E-1    2.496780176073969E-1    5.090391228964578E-1   -2.505737540463213E-1    5.009620469565526E-1   -2.507237553552840E-1    5.017095454859680E-1    2.497240587255372E-1
 1.602004972368116E5     4.948506246801317E-1    2.489982858685379E-1    5.077981313772645E-1   -2.499029246596582E-1    4.996976893085849E-1   -2.500276699301861E-1    5.029463617009203E-1    2.490289602698320E-1
 1.614228050266550E5     4.960871952042374E-1    2.483184439321235E-1    5.065517509862223E-1   -2.492220588378351E-1    4.984757282048723E-1   -2.493351487344242E-1    5.041705445943669E-1    2.483194355571837E-1
 1.626544388570473E5     4.973412234930932E-1    2.476433715455592E-1    5.053132371052433E-1   -2.485417920810849E-1    4.972531682449546E-1   -2.486435552129526E-1    5.054162422521613E-1    2.476361434005587E-1
 1.638954698843964E5     4.985585309661466E-1    2.469357768132540E-1    5.040825524049071E-1   -2.478676317332559E-1    4.960145521029373E-1   -2.479513512652324E-1    5.066336609564267E-1    2.469343936696191E-1
 1.651459698080244E5     4.998102006846461E-1    2.462705534128565E-1    5.028141343614071E-1   -2.471922273682554E-1    4.947925321346205E-1   -2.472618314739990E-1    5.078356826984350E-1    2.462319854975190E-1
 1.664060108743095E5     5.010352369103444E-1    2.456075615404153E-1    5.015900595799643E-1   -2.465156459126313E-1    4.935875811042686E-1   -2.465681717363774E-1    5.090476209191590E-1    2.455339213426935E-1
 1.676756658808590E5     5.022279289556754E-1    2.449232250921296E-1    5.003832070527907E-1   -2.458566610162956E-1    4.923860436305329E-1   -2.458844157647766E-1    5.102620663655869E-1    2.448675096393257E-1
 1.689550081807175E5     5.034232219545764E-1    2.442456029177029E-1    4.991597226324092E-1   -2.451738894921507E-1    4.912225115330400E-1   -2.452054459115472E-1    5.114615476733921E-1    2.441751860419693E-1
 1.702441116866020E5     5.045873933600159E-1    2.435824361830315E-1    4.980195173688063E-1   -2.445159118859564E-1    4.900213532584053E-1   -2.445212728569355E-1    5.126213438590093E-1    2.434819130054449E-1
 1.715430508751738E5     5.058022850238735E-1    2.429133315054568E-1    4.968324218636010E-1   -2.438482076366728E-1    4.888446245148193E-1   -2.438299023779783E-1    5.138088293952946E-1    2.427945469102915E-1
 1.728519007913403E5     5.069892642731337E-1    2.422430407448891E-1    4.956153607494602E-1   -2.431884761853058E-1    4.876805134450259E-1   -2.431586625337888E-1    5.149752446269036E-1    2.421097244622825E-1
 1.741707370525927E5     5.081422864116043E-1    2.415729177107355E-1    4.944310204180571E-1   -2.425210221189787E-1    4.865035558011005E-1   -2.424803621077085E-1    5.161057020456280E-1    2.414151789997639E-1
 1.754996358533718E5     5.093287560962663E-1    2.409235246277129E-1    4.932770076389035E-1   -2.418625862445186E-1    4.853549839496915E-1   -2.418172488422469E-1    5.172399764875515E-1    2.407489024530282E-1
 1.768386739694722E5     5.104786529713433E-1    2.402515558859617E-1    4.921213290476594E-1   -2.411982517517322E-1    4.842091406202637E-1   -2.411359174256512E-1    5.183918148534746E-1    2.400620358332637E-1
 1.781879287624771E5     5.116291730237690E-1    2.396032358950916E-1    4.909969190421182E-1   -2.405490460628096E-1    4.830912696956634E-1   -2.404672450359959E-1    5.195249787651620E-1    2.393900325561931E-1
 1.795474781842276E5     5.127758814299531E-1    2.389387150421524E-1    4.898626874810168E-1   -2.399037824675948E-1    4.819451228189889E-1   -2.397994224283969E-1    5.206743993965878E-1    2.387255224426242E-1
 1.809174007813277E5     5.139042735266585E-1    2.382781240752870E-1    4.887129339400254E-1   -2.392423587572128E-1    4.808203788753736E-1   -2.391363856811155E-1    5.217871456899188E-1    2.380583451220530E-1
 1.822977756996804E5     5.150293909492574E-1    2.376217812602825E-1    4.875634440114393E-1   -2.385992396348015E-1    4.797088571294192E-1   -2.384731976639724E-1    5.228974454448629E-1    2.374019077434557E-1
 1.836886826890609E5     5.161665260929081E-1    2.369675277674662E-1    4.864311371689774E-1   -2.379414122075499E-1    4.785860816002830E-1   -2.378179381598546E-1    5.240100034664703E-1    2.367223248819091E-1
 1.850902021077247E5     5.173005276162280E-1    2.363279755014671E-1    4.853176093473873E-1   -2.373049967271013E-1    4.774940938354061E-1   -2.371463764040951E-1    5.251229188457345E-1    2.360803413026694E-1
 1.865024149270491E5     5.183666730221291E-1    2.356899982678037E-1    4.842199699178628E-1   -2.366671472877153E-1    4.763846137232094E-1   -2.365008003410481E-1    5.262120078126107E-1    2.354066620257030E-1
 1.879254027362132E5     5.194717511417978E-1    2.350345932179292E-1    4.831320226077898E-1   -2.360305024114408E-1    4.753019362765448E-1   -2.358421654894806E-1    5.273216730196388E-1    2.347667055321609E-1
 1.893592477469092E5     5.205720414748330E-1    2.344294454318956E-1    4.820612970997863E-1   -2.353793811047156E-1    4.741943524079537E-1   -2.352203146266365E-1    5.283785497720290E-1    2.340853726633192E-1
 1.908040327980933E5     5.216646509392669E-1    2.337673666569414E-1    4.809193788473549E-1   -2.347576665693045E-1    4.731049867616156E-1   -2.345310569148329E-1    5.294657422239814E-1    2.334512963502043E-1
 1.922598413607715E5     5.227763715887201E-1    2.331400910153378E-1    4.798417078284812E-1   -2.341268383361992E-1    4.720353324788442E-1   -2.338998776833960E-1    5.305329647151210E-1    2.328078707015312E-1
 1.937267575428232E5     5.238412078849289E-1    2.325094266608775E-1    4.787529902083997E-1   -2.334956014193745E-1    4.709695199387739E-1   -2.332527809012725E-1    5.316023466605884E-1    2.321675606537243E-1
 1.952048660938581E5     5.249109621594253E-1    2.318787360694619E-1    4.776762201183026E-1   -2.328786398460715E-1    4.699101571806357E-1   -2.326298160116911E-1    5.326789339621111E-1    2.315401952612403E-1
 1.966942524101142E5     5.259750692507966E-1    2.312618320403359E-1    4.766330449233624E-1   -2.322615181906940E-1    4.688694810095652E-1   -2.319945663962271E-1    5.337227235604048E-1    2.308889567670961E-1
 1.981950025393913E5     5.270177764511511E-1    2.306366017693733E-1    4.755841969171693E-1   -2.316496462007760E-1    4.678132085396735E-1   -2.313612003358195E-1    5.347751354509612E-1    2.302650505319995E-1
