#  HZ   S   RI   R     50.00 
! Rohde & Schwarz Vector Network Analyzer 
! Rohde-Schwarz,ZNLE6-2Port,1323001256200024,1.71.1.10-23.02.1.238
! Created: UTC 4/8/2025, 6:17:50 AM
! freq[Hz]                re:S11                  im:S11                  re:S21                  im:S21                  re:S12                  im:S12                  re:S22                  im:S22
 1.000000000000000E5     5.914361316513845E-1    2.906417384535763E-1    4.114475518987049E-1   -2.916044092692788E-1    4.026700241873507E-1   -2.902380265028367E-1    6.001515709624089E-1    2.890635634908352E-1
 1.007629862646662E5     5.930567789463708E-1    2.895151124702047E-1    4.098099721779177E-1   -2.905170849580003E-1    4.011142107772753E-1   -2.891218154881016E-1    6.016917819101791E-1    2.879308862288697E-1
 1.015317940097331E5     5.945799284916484E-1    2.884315904450620E-1    4.082870459855025E-1   -2.894203721882938E-1    3.995882585951887E-1   -2.880142938938472E-1    6.032241595504226E-1    2.868190172517870E-1
 1.023064676522963E5     5.960046571737481E-1    2.873192876215624E-1    4.067658883889609E-1   -2.883343972081651E-1    3.980697286116607E-1   -2.869113269095080E-1    6.047446338306940E-1    2.856969337288578E-1
 1.030870519483485E5     5.974770150471689E-1    2.862364471171546E-1    4.052877282552683E-1   -2.872508530600117E-1    3.965668642148574E-1   -2.858005350263454E-1    6.062077895542861E-1    2.846082653440293E-1
 1.038735919953636E5     5.990133081583052E-1    2.851315566756544E-1    4.037537529221283E-1   -2.861571880059277E-1    3.950652683936230E-1   -2.846924679996493E-1    6.077084162879747E-1    2.834752299447202E-1
 1.046661332349037E5     6.005323761919128E-1    2.840403546788247E-1    4.021904474834404E-1   -2.850548011544660E-1    3.935742117279296E-1   -2.835844800423939E-1    6.091493639414380E-1    2.823459080571071E-1
 1.054647214552430E5     6.020895924697517E-1    2.829177550490021E-1    4.006615998267227E-1   -2.839538939549828E-1    3.921144320027994E-1   -2.824761390714721E-1    6.105998382231852E-1    2.812377861972116E-1
 1.062694027940149E5     6.035864211513402E-1    2.818303148109383E-1    3.991503310579260E-1   -2.828744589721909E-1    3.906761080310384E-1   -2.813763535199850E-1    6.120563731154682E-1    2.801605863012428E-1
 1.070802237408760E5     6.049860325218349E-1    2.807449346155709E-1    3.977171254378690E-1   -2.817915299239765E-1    3.892350547786287E-1   -2.802714005940409E-1    6.134931616905061E-1    2.790563913075544E-1
 1.078972311401927E5     6.063775564283898E-1    2.796551945497715E-1    3.963401657830443E-1   -2.807138117394091E-1    3.877967769034663E-1   -2.791552720683141E-1    6.148701585615102E-1    2.779417179033921E-1
 1.087204721937475E5     6.077889042337423E-1    2.785571893033337E-1    3.948861794218214E-1   -2.796187706325512E-1    3.863973815902121E-1   -2.780611278322621E-1    6.162818497878928E-1    2.768479301189571E-1
 1.095499944634658E5     6.092470062379978E-1    2.774784932076521E-1    3.934458233757984E-1   -2.785399730045495E-1    3.849838083339850E-1   -2.769542581975817E-1    6.176778930247933E-1    2.757368589325249E-1
 1.103858458741646E5     6.106631252839579E-1    2.763667725436204E-1    3.919733042896027E-1   -2.774432168705477E-1    3.835945863379213E-1   -2.758531031627015E-1    6.190613019772112E-1    2.746357556030110E-1
 1.112280747163201E5     6.121337680240111E-1    2.752680552555794E-1    3.905044282616889E-1   -2.763412161025240E-1    3.821981229091254E-1   -2.747431933581784E-1    6.203839586739045E-1    2.735331850264160E-1
 1.120767296488583E5     6.134802316146067E-1    2.741722689233584E-1    3.891240779528584E-1   -2.752691102985393E-1    3.808384743476417E-1   -2.736505489208989E-1    6.217478794949446E-1    2.724196072224256E-1
 1.129318597019661E5     6.148059833436592E-1    2.731098058233296E-1    3.877890821728917E-1   -2.741895758277204E-1    3.794667153166611E-1   -2.725481681319996E-1    6.231030944169085E-1    2.713285592138440E-1
 1.137935142799240E5     6.161171428274400E-1    2.720235914910596E-1    3.864731522364684E-1   -2.731246661915011E-1    3.781400236240265E-1   -2.714531874239052E-1    6.244367495550411E-1    2.702428979830342E-1
 1.146617431639607E5     6.174699487959017E-1    2.709330986880492E-1    3.850965998709350E-1   -2.720427760229538E-1    3.768176245817015E-1   -2.703669661864396E-1    6.257633155155943E-1    2.691520450319245E-1
 1.155365965151286E5     6.188383918656305E-1    2.698699910493976E-1    3.837203308624085E-1   -2.709491622752977E-1    3.754962956098402E-1   -2.692767683683664E-1    6.270573005734912E-1    2.680540092053538E-1
 1.164181248772018E5     6.202196958394273E-1    2.687684251619961E-1    3.823398101408086E-1   -2.698742351745067E-1    3.741838018238001E-1   -2.681911357987815E-1    6.283799456282143E-1    2.669736100763942E-1
 1.173063791795965E5     6.215313345496241E-1    2.676976188658590E-1    3.810185067750907E-1   -2.688001852191222E-1    3.728960118998903E-1   -2.671051507951782E-1    6.296456286361474E-1    2.658786474895427E-1
 1.182014107403141E5     6.228134251563006E-1    2.666376021436146E-1    3.797206934657865E-1   -2.677329238500509E-1    3.716014918227453E-1   -2.660166114808406E-1    6.308869636106681E-1    2.647921793546284E-1
 1.191032712689044E5     6.240542005758571E-1    2.655495157390500E-1    3.784653089295119E-1   -2.666746267151693E-1    3.703330606568396E-1   -2.649375057395638E-1    6.321778042246128E-1    2.637357287685509E-1
 1.200120128694542E5     6.253044980500663E-1    2.644870990811646E-1    3.771835181045365E-1   -2.656047863548630E-1    3.690767745987304E-1   -2.638651186985194E-1    6.334324342568519E-1    2.626485870123188E-1
 1.209276880435975E5     6.265835382801829E-1    2.634462442365125E-1    3.758950031584233E-1   -2.645443566526111E-1    3.678227821147029E-1   -2.627964255878848E-1    6.347183382893012E-1    2.615768417440058E-1
 1.218503496935483E5     6.278371478314188E-1    2.623653548955179E-1    3.745885992799724E-1   -2.634671530248865E-1    3.665787067800049E-1   -2.617221661118031E-1    6.359271021929975E-1    2.604986692834550E-1
 1.227800511251578E5     6.291716380622402E-1    2.612983856402104E-1    3.733113261714349E-1   -2.624209061720317E-1    3.653519807131234E-1   -2.606506427521483E-1    6.371511431604580E-1    2.594319657163791E-1
 1.237168460509929E5     6.303690256378269E-1    2.602392244552194E-1    3.720748543585330E-1   -2.613544438432565E-1    3.641386342407976E-1   -2.595786364180959E-1    6.383476471334585E-1    2.583796220474391E-1
 1.246607885934402E5     6.315920454941668E-1    2.591847633491488E-1    3.708753452568701E-1   -2.603156529879442E-1    3.629289394637156E-1   -2.585245763169108E-1    6.395286807351184E-1    2.573029454583101E-1
 1.256119332878327E5     6.327304485083400E-1    2.581484883311274E-1    3.696787758842702E-1   -2.592670634158155E-1    3.617307267091115E-1   -2.574569874553670E-1    6.407205335127523E-1    2.562418867218431E-1
 1.265703350856002E5     6.339215900054649E-1    2.570993918412347E-1    3.684800395727567E-1   -2.582216980788744E-1    3.605456109646638E-1   -2.564023726146651E-1    6.418944712466957E-1    2.551946788068402E-1
 1.275360493574453E5     6.351416832677164E-1    2.560497207108395E-1    3.672506331507786E-1   -2.571698038369812E-1    3.593805895012357E-1   -2.553529860628660E-1    6.430836093473604E-1    2.541533500897491E-1
 1.285091318965405E5     6.363439705270453E-1    2.550113841690261E-1    3.660436184436910E-1   -2.561285722958007E-1    3.582166795683348E-1   -2.543022884438033E-1    6.442416694090844E-1    2.530934825186700E-1
 1.294896389217529E5     6.375337344448584E-1    2.539702888671498E-1    3.648448723230664E-1   -2.550850621042582E-1    3.570586454776959E-1   -2.532538644213851E-1    6.453657030549623E-1    2.520443573603632E-1
 1.304776270808914E5     6.386527101424969E-1    2.529379896288801E-1    3.637066241603694E-1   -2.540602755403652E-1    3.559115980991251E-1   -2.522154940866731E-1    6.465006733555744E-1    2.510006573856806E-1
 1.314731534539810E5     6.397121940987122E-1    2.519337465408686E-1    3.626750046323364E-1   -2.530581198701293E-1    3.547692353179676E-1   -2.511820259236421E-1    6.476441774592995E-1    2.499571266924953E-1
 1.324762755565583E5     6.407377599881615E-1    2.509281615963058E-1    3.615915015149676E-1   -2.520519981121416E-1    3.536495210566920E-1   -2.501448546631961E-1    6.487483814649511E-1    2.489220649599226E-1
 1.334870513429962E5     6.418878379470505E-1    2.498918631539621E-1    3.604540016808683E-1   -2.510322665133499E-1    3.525299615167698E-1   -2.491202281669791E-1    6.498332333307247E-1    2.478840581349787E-1
 1.345055392098512E5     6.430874381167735E-1    2.488815510912413E-1    3.592755980503436E-1   -2.500006975296327E-1    3.514357018254290E-1   -2.480957987516092E-1    6.509115063087660E-1    2.468675933649472E-1
 1.355317979992373E5     6.443685831058978E-1    2.478151199434629E-1    3.579719990823322E-1   -2.489450225685738E-1    3.503347260978329E-1   -2.470703918004859E-1    6.520313562081842E-1    2.458621541592887E-1
 1.365658870022265E5     6.454987989430845E-1    2.467899733795939E-1    3.568262761265311E-1   -2.479215157383651E-1    3.492586656691042E-1   -2.460616598210064E-1    6.530892561410592E-1    2.448344187120973E-1
 1.376078659622731E5     6.465773481658181E-1    2.457904293763508E-1    3.557324332963122E-1   -2.469215579772140E-1    3.481756248932076E-1   -2.450460866084775E-1    6.541700945271460E-1    2.438245189855756E-1
 1.386577950786655E5     6.476439616789215E-1    2.447925524925369E-1    3.546618480688269E-1   -2.459274985110235E-1    3.471032155544924E-1   -2.440333321367102E-1    6.552270973431480E-1    2.428168148066679E-1
 1.397157350100044E5     6.487506589854861E-1    2.437948419547456E-1    3.535731850654637E-1   -2.449284391903038E-1    3.460554835233427E-1   -2.430370571101411E-1    6.562910021176063E-1    2.418153584549717E-1
 1.407817468777081E5     6.498211059028474E-1    2.427794511552313E-1    3.524846145518867E-1   -2.439234852906083E-1    3.450046363145511E-1   -2.420375975397393E-1    6.573335468992640E-1    2.408034434538807E-1
 1.418558922695422E5     6.508862917832156E-1    2.417813206951641E-1    3.513961256855881E-1   -2.429346650605987E-1    3.439664545076401E-1   -2.410420260418810E-1    6.583594635507976E-1    2.397973272868381E-1
 1.429382332431784E5     6.519873451162363E-1    2.408002456048045E-1    3.502980987170844E-1   -2.419336089666838E-1    3.429448854906211E-1   -2.400451536350116E-1    6.593738955417056E-1    2.388205393514201E-1
 1.440288323297804E5     6.530345675571779E-1    2.398324614988677E-1    3.492583258370738E-1   -2.409535913196624E-1    3.419143440878185E-1   -2.390616766523715E-1    6.604174011157470E-1    2.378414499373589E-1
 1.451277525376154E5     6.540749521814329E-1    2.388373761730802E-1    3.482156626923968E-1   -2.399733076939508E-1    3.408977262560465E-1   -2.380750041109302E-1    6.614292488604050E-1    2.368479650935438E-1
 1.462350573556962E5     6.550362105330820E-1    2.378730602946136E-1    3.471949868544064E-1   -2.390054291965830E-1    3.398923897537563E-1   -2.371067259620172E-1    6.624429222457796E-1    2.358789746680564E-1
 1.473508107574468E5     6.560354844033763E-1    2.369094452656323E-1    3.462072230355656E-1   -2.380479842115083E-1    3.388991543873046E-1   -2.361260955880518E-1    6.634367855488902E-1    2.349079104933306E-1
 1.484750772044004E5     6.571043405776723E-1    2.359364118474185E-1    3.451529362079483E-1   -2.370795387763580E-1    3.379019999833530E-1   -2.351512625069687E-1    6.643798092249212E-1    2.339307472767159E-1
 1.496079216499225E5     6.580957254668860E-1    2.349732332816430E-1    3.441566063749513E-1   -2.361093049790044E-1    3.369295859566552E-1   -2.342043830820849E-1    6.653646011260230E-1    2.329614944356853E-1
 1.507494095429637E5     6.591227698596139E-1    2.340080019962217E-1    3.431350507616468E-1   -2.351577859376196E-1    3.359597721218061E-1   -2.332484554196188E-1    6.663359029712193E-1    2.320160253716933E-1
 1.518996068318418E5     6.600848480928583E-1    2.330598257055539E-1    3.421495261699005E-1   -2.342080360819797E-1    3.349947658045772E-1   -2.322985845162573E-1    6.673049249607876E-1    2.310763483825672E-1
 1.530585799680507E5     6.609936500739756E-1    2.321084551948936E-1    3.411977881404133E-1   -2.332797007985246E-1    3.340268230919827E-1   -2.313391982730924E-1    6.682468362305082E-1    2.301127864194403E-1
 1.542263959101001E5     6.619930427998523E-1    2.311801034302227E-1    3.402300507432321E-1   -2.323429164558125E-1    3.330823706603214E-1   -2.304051482215407E-1    6.691958994245818E-1    2.291712711507412E-1
 1.554031221273835E5     6.629452245657197E-1    2.302431650942431E-1    3.392608450745487E-1   -2.314030240196424E-1    3.321499981911397E-1   -2.294676937888871E-1    6.701315890871560E-1    2.282371499398499E-1
 1.565888266040779E5     6.639132255650613E-1    2.293210942551350E-1    3.382805598111211E-1   -2.304699112854231E-1    3.312235760949727E-1   -2.285317094990534E-1    6.710641371026395E-1    2.273088462522322E-1
 1.577835778430689E5     6.648915643102629E-1    2.283791571230014E-1    3.373164696934083E-1   -2.295425333369624E-1    3.302760251366541E-1   -2.276050746312766E-1    6.719477665503543E-1    2.263844062382438E-1
 1.589874448699104E5     6.658055012143121E-1    2.274569586760820E-1    3.363803021628617E-1   -2.286170378234045E-1    3.293531981513059E-1   -2.266777905712348E-1    6.728676806447310E-1    2.254473984063517E-1
 1.602004972368116E5     6.667238036433135E-1    2.265407976434687E-1    3.354609656514770E-1   -2.277158513036712E-1    3.284294672767043E-1   -2.257608189363877E-1    6.737770855607067E-1    2.245393333528389E-1
 1.614228050266550E5     6.676691789739785E-1    2.256398825891035E-1    3.345548924753377E-1   -2.268122356753991E-1    3.275327020740583E-1   -2.248557248497084E-1    6.746892887500927E-1    2.236244555496498E-1
 1.626544388570473E5     6.685588337605489E-1    2.247278941469454E-1    3.336260808016405E-1   -2.258991183442820E-1    3.266424959302402E-1   -2.239536766242372E-1    6.755909135007067E-1    2.227237194356544E-1
 1.638954698843964E5     6.694566451212479E-1    2.238170038477526E-1    3.327131762461204E-1   -2.250040356712168E-1    3.257434796668516E-1   -2.230492216663949E-1    6.764946061988869E-1    2.218241153352473E-1
 1.651459698080244E5     6.704140418971688E-1    2.229240372172680E-1    3.317813019093176E-1   -2.241075565405131E-1    3.248486311239249E-1   -2.221555162047260E-1    6.773318214825614E-1    2.209136757560401E-1
 1.664060108743095E5     6.713024791843356E-1    2.220313815479408E-1    3.308735551811354E-1   -2.232097035890470E-1    3.239798954120064E-1   -2.212647686821090E-1    6.782351542558436E-1    2.200210162144599E-1
 1.676756658808590E5     6.721827114186651E-1    2.211471546975849E-1    3.299842147510144E-1   -2.223401594966235E-1    3.231049388528048E-1   -2.203795744416205E-1    6.791090790468158E-1    2.191566606362160E-1
 1.689550081807175E5     6.730378494061905E-1    2.202732618674930E-1    3.290886586237648E-1   -2.214521640818506E-1    3.222502871634838E-1   -2.195032648410258E-1    6.799650107521211E-1    2.182749489872645E-1
 1.702441116866020E5     6.739330285211992E-1    2.193990727569839E-1    3.282594715572322E-1   -2.205942959393146E-1    3.213936922365357E-1   -2.186342863659348E-1    6.808273219950151E-1    2.173924008880958E-1
 1.715430508751738E5     6.747854685323463E-1    2.185365260042976E-1    3.273851696055929E-1   -2.197274839048184E-1    3.205343267972514E-1   -2.177544318734740E-1    6.816306165986423E-1    2.165167782496732E-1
 1.728519007913403E5     6.756670749069490E-1    2.176626218323216E-1    3.264903549888161E-1   -2.188569718919984E-1    3.196966790048309E-1   -2.168953611326524E-1    6.825053262835016E-1    2.156497411360925E-1
 1.741707370525927E5     6.765210120702346E-1    2.168134597221807E-1    3.256317435250726E-1   -2.179956431837766E-1    3.188465213148579E-1   -2.160373026498372E-1    6.833278366237980E-1    2.147880480073290E-1
 1.754996358533718E5     6.773797852906274E-1    2.159690064290431E-1    3.247791144527538E-1   -2.171483233045693E-1    3.180178335493010E-1   -2.151914873717595E-1    6.841484334186742E-1    2.139376285056176E-1
 1.768386739694722E5     6.782573554288055E-1    2.151254484332257E-1    3.239449082320248E-1   -2.163073087927815E-1    3.171956618605632E-1   -2.143357579495630E-1    6.849894590236593E-1    2.130989143433704E-1
 1.781879287624771E5     6.790526249589609E-1    2.142828183691097E-1    3.231059007610390E-1   -2.154671903111684E-1    3.163807646895820E-1   -2.135019359314249E-1    6.857878631936529E-1    2.122467063519131E-1
 1.795474781842276E5     6.798823294461681E-1    2.134423058734395E-1    3.222844367181985E-1   -2.146365421603316E-1    3.155531185425763E-1   -2.126652170557678E-1    6.866361997821230E-1    2.114047300516745E-1
 1.809174007813277E5     6.807251637917836E-1    2.126114337227407E-1    3.214486847183154E-1   -2.138086667669976E-1    3.147477346436238E-1   -2.118343511647078E-1    6.874340530277906E-1    2.105869383834936E-1
 1.822977756996804E5     6.815420041967555E-1    2.117620939758417E-1    3.206061609436935E-1   -2.129806424738934E-1    3.139448577871086E-1   -2.110104096533022E-1    6.882306258037613E-1    2.097700570430723E-1
 1.836886826890609E5     6.823665922463664E-1    2.109619779854450E-1    3.197903357300905E-1   -2.121547679168625E-1    3.131357841879631E-1   -2.101917755822185E-1    6.890144173357150E-1    2.089248582332098E-1
 1.850902021077247E5     6.831858795881308E-1    2.101377899442450E-1    3.189753027099555E-1   -2.113401277279545E-1    3.123570564716985E-1   -2.093721105032048E-1    6.898315054133374E-1    2.081334766547930E-1
 1.865024149270491E5     6.839698243995838E-1    2.093395259236205E-1    3.181751624908040E-1   -2.105425402299109E-1    3.115590520457188E-1   -2.085706660672285E-1    6.906180496090085E-1    2.073021784276473E-1
 1.879254027362132E5     6.847586506391322E-1    2.085131166690378E-1    3.173810415601900E-1   -2.097384427206322E-1    3.107788066480280E-1   -2.077576159688692E-1    6.914062517968750E-1    2.065087965285236E-1
 1.893592477469092E5     6.855508996712403E-1    2.076956376219694E-1    3.165798274127359E-1   -2.089123403844054E-1    3.100033099401591E-1   -2.069994713328039E-1    6.921562147487135E-1    2.057050509260901E-1
 1.908040327980933E5     6.863591133684964E-1    2.069214484580544E-1    3.157806549857813E-1   -2.081442661574583E-1    3.092023823138385E-1   -2.061504488997018E-1    6.929418156294317E-1    2.049147111081802E-1
 1.922598413607715E5     6.871445410524303E-1    2.061331623618430E-1    3.149763383826399E-1   -2.073402679324040E-1    3.084390716637929E-1   -2.053711999060481E-1    6.936941585230334E-1    2.041251260262103E-1
 1.937267575428232E5     6.879325045315046E-1    2.053571146933905E-1    3.142054779675667E-1   -2.065721891374720E-1    3.076605668918846E-1   -2.045855603318640E-1    6.944370833365273E-1    2.033283899066582E-1
 1.952048660938581E5     6.887136555683866E-1    2.045754928220746E-1    3.134287761451336E-1   -2.058036200988503E-1    3.068979605347515E-1   -2.038153815574310E-1    6.951926400969181E-1    2.025465624402362E-1
 1.966942524101142E5     6.894659962788188E-1    2.038029357824581E-1    3.126615318492127E-1   -2.050306956788518E-1    3.061531096828197E-1   -2.030446113263067E-1    6.959395154398109E-1    2.017774074427639E-1
 1.981950025393913E5     6.902273691184510E-1    2.030480069082409E-1    3.119166045901005E-1   -2.042823355053212E-1    3.053984358506230E-1   -2.022794934037320E-1    6.966905571476333E-1    2.010189560751888E-1
