#  HZ   S   RI   R     50.00 
! Rohde & Schwarz Vector Network Analyzer 
! Rohde-Schwarz,ZNLE6-2Port,1323001256200024,1.71.1.10-23.02.1.238
! Created: UTC 4/8/2025, 6:08:42 AM
! freq[Hz]                re:S11                  im:S11                  re:S21                  im:S21                  re:S12                  im:S12                  re:S22                  im:S22
 1.000000000000000E5     7.243228484054738E-1    2.521095465749274E-1    2.780056914250284E-1   -2.532812201654789E-1    2.710489441559927E-1   -2.503051080118264E-1    7.312532418226768E-1    2.489292208862426E-1
 1.007629862646662E5     7.254560249251757E-1    2.508274863429878E-1    2.768541052742641E-1   -2.520117731974184E-1    2.699715203904501E-1   -2.490495766013391E-1    7.323195860693659E-1    2.476611256670293E-1
 1.015317940097331E5     7.264991299597757E-1    2.495847866878069E-1    2.757936754671971E-1   -2.507716811103769E-1    2.689202925053734E-1   -2.477927866556774E-1    7.333308287300108E-1    2.464400623539127E-1
 1.023064676522963E5     7.274840018021376E-1    2.483460297026936E-1    2.747450038743663E-1   -2.495501620498218E-1    2.678810245147691E-1   -2.465645292526934E-1    7.343823637564292E-1    2.451807798349070E-1
 1.030870519483485E5     7.284893341626837E-1    2.471346874159278E-1    2.737257443290045E-1   -2.483364084041360E-1    2.668433061797822E-1   -2.453347266820876E-1    7.354015074540563E-1    2.439649721920547E-1
 1.038735919953636E5     7.295484694671713E-1    2.458917432002931E-1    2.726656707791161E-1   -2.470989882703651E-1    2.658106651363666E-1   -2.441046711735192E-1    7.364159963186345E-1    2.427288828617208E-1
 1.046661332349037E5     7.306120328974941E-1    2.446533485973104E-1    2.715837521912972E-1   -2.458632613496075E-1    2.647983975690024E-1   -2.428765821477976E-1    7.373847923865181E-1    2.414999499625554E-1
 1.054647214552430E5     7.316695799067400E-1    2.434129144858245E-1    2.705183054235519E-1   -2.446243006860291E-1    2.638051681256369E-1   -2.416650034044505E-1    7.383732862687105E-1    2.402786517290563E-1
 1.062694027940149E5     7.327097624846902E-1    2.422072054095061E-1    2.694683249185988E-1   -2.434104079179142E-1    2.628210357708416E-1   -2.404606701117808E-1    7.393613194978026E-1    2.391101612692009E-1
 1.070802237408760E5     7.336854795104063E-1    2.410047965881091E-1    2.684916054309900E-1   -2.422175794000064E-1    2.618449257010408E-1   -2.392602889471301E-1    7.403586281226026E-1    2.379076411155539E-1
 1.078972311401927E5     7.346063999156945E-1    2.398328661440743E-1    2.675549634790679E-1   -2.410399024907055E-1    2.608695776721341E-1   -2.380512587079711E-1    7.412699319431172E-1    2.367048365210192E-1
 1.087204721937475E5     7.355734305944871E-1    2.386140736412484E-1    2.665558935039959E-1   -2.398388756998591E-1    2.599211142025745E-1   -2.368707031828542E-1    7.422471603558097E-1    2.355258264127841E-1
 1.095499944634658E5     7.365981131842332E-1    2.374265378922788E-1    2.655659637623191E-1   -2.386492254681870E-1    2.589562071886781E-1   -2.356725312735310E-1    7.431631322266373E-1    2.343389497223442E-1
 1.103858458741646E5     7.375437235755012E-1    2.362290840593656E-1    2.645596939384772E-1   -2.374487251719695E-1    2.580103322899148E-1   -2.344863372167660E-1    7.440782669510636E-1    2.331384809002607E-1
 1.112280747163201E5     7.385397835925505E-1    2.350377133241381E-1    2.635528704863526E-1   -2.362361439831800E-1    2.570801927790992E-1   -2.333090058608537E-1    7.450048215950676E-1    2.319805189107278E-1
 1.120767296488583E5     7.394667924301160E-1    2.338606176905595E-1    2.626187977663281E-1   -2.350786106046002E-1    2.561620420988492E-1   -2.321477449821586E-1    7.459226757590358E-1    2.308082234743355E-1
 1.129318597019661E5     7.403453674101803E-1    2.327100577286060E-1    2.617052865727462E-1   -2.339215855564622E-1    2.552393640583067E-1   -2.309745648206779E-1    7.468247522769035E-1    2.296551414390781E-1
 1.137935142799240E5     7.412356986119796E-1    2.315479183858179E-1    2.608189998440054E-1   -2.327903974703587E-1    2.543531403611729E-1   -2.298200924239310E-1    7.477329939145961E-1    2.285025833191132E-1
 1.146617431639607E5     7.421534495470745E-1    2.303915646736664E-1    2.598872290936395E-1   -2.316309735105386E-1    2.534634923973554E-1   -2.286760941466625E-1    7.486233633318008E-1    2.273522531087953E-1
 1.155365965151286E5     7.430860772355378E-1    2.292444588930900E-1    2.589583712563699E-1   -2.304592160242581E-1    2.525714732694815E-1   -2.275257575258884E-1    7.494565720867695E-1    2.261954507635223E-1
 1.164181248772018E5     7.440060136200172E-1    2.280868766846595E-1    2.580169981171422E-1   -2.293006961166334E-1    2.516977487696191E-1   -2.263871065965772E-1    7.503650032716884E-1    2.250750951422840E-1
 1.173063791795965E5     7.448912284156427E-1    2.269357450150324E-1    2.571194108669829E-1   -2.281569755125206E-1    2.508402162186254E-1   -2.252505001870724E-1    7.511921447388185E-1    2.239213489305989E-1
 1.182014107403141E5     7.457545524201055E-1    2.258274168338080E-1    2.562528029509206E-1   -2.270409034686788E-1    2.499851178286372E-1   -2.241238929412484E-1    7.520643406167727E-1    2.228131981622954E-1
 1.191032712689044E5     7.465842533022868E-1    2.247054867982757E-1    2.554144755729793E-1   -2.259214897066705E-1    2.491297773185781E-1   -2.230041354907451E-1    7.529069337389739E-1    2.216902523987311E-1
 1.200120128694542E5     7.474317116437266E-1    2.235879655544534E-1    2.545571229439302E-1   -2.248133940143716E-1    2.482930689680447E-1   -2.218969993191895E-1    7.537566533708767E-1    2.205859270087178E-1
 1.209276880435975E5     7.482819099875244E-1    2.224726496460321E-1    2.536796901651504E-1   -2.236925902883611E-1    2.474520813099361E-1   -2.207794889072900E-1    7.545764843109882E-1    2.194699534671990E-1
 1.218503496935483E5     7.491510597401337E-1    2.213574843726825E-1    2.528109552175116E-1   -2.225628100890475E-1    2.466269323394596E-1   -2.196765432841448E-1    7.553952074638923E-1    2.183620661542707E-1
 1.227800511251578E5     7.500061163564763E-1    2.202314568547557E-1    2.519413905930454E-1   -2.214569849699065E-1    2.458156599373271E-1   -2.185852088717946E-1    7.562106119113154E-1    2.172821926085287E-1
 1.237168460509929E5     7.508250578335534E-1    2.191286493597667E-1    2.511187067295490E-1   -2.203599613999729E-1    2.450117997075797E-1   -2.174904146327227E-1    7.570107213714585E-1    2.162088057147750E-1
 1.246607885934402E5     7.516516076290676E-1    2.180551379005393E-1    2.503146637783198E-1   -2.192834947371001E-1    2.442094973211279E-1   -2.164079355973756E-1    7.577648719464534E-1    2.151127596527490E-1
 1.256119332878327E5     7.524146608977277E-1    2.169885411846165E-1    2.495292742855076E-1   -2.182139640020481E-1    2.434140658464369E-1   -2.153199479387067E-1    7.585369799973971E-1    2.140379419987290E-1
 1.265703350856002E5     7.531982897002699E-1    2.159088327679221E-1    2.487198257943022E-1   -2.171324357992739E-1    2.426288880813583E-1   -2.142550951284703E-1    7.593192670886700E-1    2.129741148714802E-1
 1.275360493574453E5     7.540286950608976E-1    2.148285191088685E-1    2.479022979479084E-1   -2.160531607289052E-1    2.418523740927225E-1   -2.131881967775673E-1    7.600989571069403E-1    2.119146840756758E-1
 1.285091318965405E5     7.548319386699217E-1    2.137752724128794E-1    2.470901390511932E-1   -2.149811568021897E-1    2.410821102249136E-1   -2.121233699779681E-1    7.608570906089868E-1    2.108467315462446E-1
 1.294896389217529E5     7.556042768213049E-1    2.127007525949438E-1    2.462907341012471E-1   -2.139167417346611E-1    2.403238446160076E-1   -2.110728340281594E-1    7.616162569204582E-1    2.097862497634858E-1
 1.304776270808914E5     7.563673969291210E-1    2.116575724968597E-1    2.455379593984285E-1   -2.128761597862839E-1    2.395661693957551E-1   -2.100307566533247E-1    7.623607638425091E-1    2.087614095939928E-1
 1.314731534539810E5     7.570411002472799E-1    2.106652546811827E-1    2.448645906795352E-1   -2.118671229876112E-1    2.388116789598404E-1   -2.089854653826624E-1    7.631035994506096E-1    2.077148398880734E-1
 1.324762755565583E5     7.576993490824285E-1    2.096461020946612E-1    2.441469682601490E-1   -2.108591473805496E-1    2.380770173161874E-1   -2.079526676580353E-1    7.638167170851359E-1    2.066822176711229E-1
 1.334870513429962E5     7.584609829728687E-1    2.086101711869475E-1    2.433957938474273E-1   -2.098264613318407E-1    2.373435962590061E-1   -2.069346292518234E-1    7.645509304340261E-1    2.056459727531406E-1
 1.345055392098512E5     7.592410292778287E-1    2.075848040619397E-1    2.426084654224932E-1   -2.087745968829117E-1    2.366216311892897E-1   -2.059111423645094E-1    7.652469744687507E-1    2.046471903084893E-1
 1.355317979992373E5     7.601000072879990E-1    2.064884089457348E-1    2.417197459364813E-1   -2.076901204337400E-1    2.358949644656146E-1   -2.048944657830454E-1    7.659895845808916E-1    2.036383901758703E-1
 1.365658870022265E5     7.608509925928455E-1    2.054439078887642E-1    2.409601106868207E-1   -2.066566266050585E-1    2.351892797304421E-1   -2.038911375180694E-1    7.667009507417372E-1    2.026417349044609E-1
 1.376078659622731E5     7.615659117095266E-1    2.044411978116796E-1    2.402309046240145E-1   -2.056569655228327E-1    2.344789767352613E-1   -2.028921785934852E-1    7.674230651048075E-1    2.016282555733639E-1
 1.386577950786655E5     7.623085382348194E-1    2.034630719728050E-1    2.395321107793166E-1   -2.046718796440844E-1    2.337758466195410E-1   -2.018891090158978E-1    7.680924389744699E-1    2.006314312682102E-1
 1.397157350100044E5     7.630176847591590E-1    2.024611124351175E-1    2.388136069790316E-1   -2.036702041878862E-1    2.330862739233015E-1   -2.009068061935884E-1    7.687823861434995E-1    1.996592114608003E-1
 1.407817468777081E5     7.637480045862861E-1    2.014816418631383E-1    2.380937038293432E-1   -2.026734807827387E-1    2.323933510508241E-1   -1.999269934051944E-1    7.694583170591078E-1    1.986745363864467E-1
 1.418558922695422E5     7.644322817840833E-1    2.004900981589218E-1    2.373695169011817E-1   -2.016883918088800E-1    2.317193036475465E-1   -1.989499335367553E-1    7.701230046366574E-1    1.976854750159907E-1
 1.429382332431784E5     7.651690522674459E-1    1.995045425984919E-1    2.366385488415762E-1   -2.006933769935983E-1    2.310574793828931E-1   -1.979785341367958E-1    7.707956221057819E-1    1.967261663137786E-1
 1.440288323297804E5     7.658861170412119E-1    1.985459694893460E-1    2.359535902492554E-1   -1.997262876481727E-1    2.303733890553349E-1   -1.970199237256217E-1    7.714907856106866E-1    1.957631907931362E-1
 1.451277525376154E5     7.665387120883304E-1    1.975730757635301E-1    2.352631353058540E-1   -1.987545043457618E-1    2.297111082724521E-1   -1.960516872440775E-1    7.721144711989374E-1    1.948049184863319E-1
 1.462350573556962E5     7.672199447251171E-1    1.966302847019951E-1    2.346023094314360E-1   -1.978091954323235E-1    2.290444452413162E-1   -1.951092172574637E-1    7.727772417673742E-1    1.938517182504620E-1
 1.473508107574468E5     7.678535252129236E-1    1.956839102821632E-1    2.339504823460395E-1   -1.968630293139337E-1    2.284038693374472E-1   -1.941604951566641E-1    7.734270582518966E-1    1.929161020751941E-1
 1.484750772044004E5     7.685352843712563E-1    1.947120088996275E-1    2.332436504140926E-1   -1.959057577503444E-1    2.277563349143583E-1   -1.932297230476488E-1    7.740639648533558E-1    1.919777381405317E-1
 1.496079216499225E5     7.692091960032514E-1    1.937723399698391E-1    2.325893449681548E-1   -1.949669114541960E-1    2.271131424671819E-1   -1.923003968682276E-1    7.747008170289889E-1    1.910501517785155E-1
 1.507494095429637E5     7.698842679256991E-1    1.928348042899058E-1    2.319124888718066E-1   -1.940328748142384E-1    2.264821360110859E-1   -1.913801800090998E-1    7.753289270308401E-1    1.901362866668812E-1
 1.518996068318418E5     7.705109358957014E-1    1.919243913208919E-1    2.312620647267329E-1   -1.931071729143735E-1    2.258440823902834E-1   -1.904664214056309E-1    7.759618290871684E-1    1.892129446318131E-1
 1.530585799680507E5     7.711042969310575E-1    1.910108816425165E-1    2.306429137042678E-1   -1.922041827621247E-1    2.252173652658659E-1   -1.895461442341586E-1    7.765687380348004E-1    1.883031454989456E-1
 1.542263959101001E5     7.717797985931214E-1    1.901094524144350E-1    2.300091551547203E-1   -1.912920915138879E-1    2.245989843487693E-1   -1.886459182228083E-1    7.771976697747245E-1    1.874048022057393E-1
 1.554031221273835E5     7.724178277613826E-1    1.892129875646224E-1    2.293731087457596E-1   -1.903901182475889E-1    2.239972250903528E-1   -1.877451645419931E-1    7.778223517766992E-1    1.865197091260835E-1
 1.565888266040779E5     7.730364645411587E-1    1.882980676935353E-1    2.287232611722096E-1   -1.894827980448600E-1    2.233852896760093E-1   -1.868540966231328E-1    7.784238285639558E-1    1.856197966961347E-1
 1.577835778430689E5     7.736659646364821E-1    1.873917301637429E-1    2.280890640100329E-1   -1.885850599741237E-1    2.227724990063508E-1   -1.859720572067600E-1    7.790400948302716E-1    1.847431804287678E-1
 1.589874448699104E5     7.742745954766003E-1    1.865133732538548E-1    2.274792587912237E-1   -1.876910485463209E-1    2.221799260375278E-1   -1.850906135182364E-1    7.796221185803279E-1    1.838615862543093E-1
 1.602004972368116E5     7.748781066587735E-1    1.856419647245773E-1    2.268723037512760E-1   -1.868241785461761E-1    2.215732606754734E-1   -1.842129193945774E-1    7.802105000262124E-1    1.829911696141227E-1
 1.614228050266550E5     7.754764377496731E-1    1.847708073720949E-1    2.262675610685404E-1   -1.859516766415638E-1    2.209822416207990E-1   -1.833498210506005E-1    7.807871923618726E-1    1.821221297701110E-1
 1.626544388570473E5     7.760663170414059E-1    1.839031073522253E-1    2.256628469954787E-1   -1.850799142262056E-1    2.203986697188959E-1   -1.824901522170525E-1    7.813778579538818E-1    1.812631340053679E-1
 1.638954698843964E5     7.766517053388546E-1    1.830292267297676E-1    2.250740485388099E-1   -1.842210118486688E-1    2.198188203823063E-1   -1.816344888516185E-1    7.819669391432261E-1    1.804173907038065E-1
 1.651459698080244E5     7.772794819578190E-1    1.821730079514440E-1    2.244548238348993E-1   -1.833595934291213E-1    2.192342506194040E-1   -1.807917853472326E-1    7.825381886000023E-1    1.795586091358372E-1
 1.664060108743095E5     7.778781521094710E-1    1.813107242025749E-1    2.238530746134987E-1   -1.825053260968276E-1    2.186624628985101E-1   -1.799453424064330E-1    7.830990088334904E-1    1.787113530949241E-1
 1.676756658808590E5     7.784700544159454E-1    1.804700919923167E-1    2.232695014180892E-1   -1.816693368787086E-1    2.180914249004484E-1   -1.791162070724703E-1    7.837082079798496E-1    1.778888585012435E-1
 1.689550081807175E5     7.790258282204627E-1    1.796425983098912E-1    2.226798910040834E-1   -1.808216243792078E-1    2.175297290481962E-1   -1.782880561974333E-1    7.842498394427616E-1    1.770740940403684E-1
 1.702441116866020E5     7.795914335621811E-1    1.788182586606199E-1    2.221307465087101E-1   -1.800095544184290E-1    2.169664347978757E-1   -1.774618580458761E-1    7.847929228484261E-1    1.762467536871513E-1
 1.715430508751738E5     7.801463044463368E-1    1.779957857930133E-1    2.215498877907424E-1   -1.791791008079100E-1    2.164083873593988E-1   -1.766446681876040E-1    7.853572550624095E-1    1.754277773423589E-1
 1.728519007913403E5     7.807311544906884E-1    1.771653885610265E-1    2.209634558071472E-1   -1.783577733318627E-1    2.158616949768485E-1   -1.758389602274348E-1    7.859301984129264E-1    1.746202392866284E-1
 1.741707370525927E5     7.813048061025226E-1    1.763493225542719E-1    2.204015320413379E-1   -1.775429367958237E-1    2.153005360310170E-1   -1.750267757527806E-1    7.864477502141383E-1    1.738080856884018E-1
 1.754996358533718E5     7.818632882583327E-1    1.755447644915451E-1    2.198405546788898E-1   -1.767372344448095E-1    2.147507223706854E-1   -1.742302703000378E-1    7.869642438559196E-1    1.730087702278699E-1
 1.768386739694722E5     7.824216416122272E-1    1.747472962861927E-1    2.192832955708705E-1   -1.759384932624138E-1    2.142142128016016E-1   -1.734359246014351E-1    7.875148103208520E-1    1.722132687946306E-1
 1.781879287624771E5     7.829497100444339E-1    1.739564562847699E-1    2.187348566393570E-1   -1.751503368765090E-1    2.136830252604454E-1   -1.726598651709374E-1    7.880268758594523E-1    1.714128650572578E-1
 1.795474781842276E5     7.834832236699956E-1    1.731664922820706E-1    2.181886246626467E-1   -1.743691733104149E-1    2.131480765541248E-1   -1.718752060942160E-1    7.885903551888792E-1    1.706471008825757E-1
 1.809174007813277E5     7.840369259801988E-1    1.723744929037980E-1    2.176340600305990E-1   -1.735813285845366E-1    2.126148401092697E-1   -1.710943263370102E-1    7.890975776196918E-1    1.698818728501231E-1
 1.822977756996804E5     7.846063914758284E-1    1.716063145771461E-1    2.170845531587496E-1   -1.728028153676356E-1    2.120929540425004E-1   -1.703372675027382E-1    7.896435189264160E-1    1.691081193574021E-1
 1.836886826890609E5     7.851552588949535E-1    1.708489474207955E-1    2.165438150724937E-1   -1.720281881574412E-1    2.115618448724665E-1   -1.695705243235814E-1    7.901363062953958E-1    1.683300146068043E-1
 1.850902021077247E5     7.857040109356939E-1    1.700886732305515E-1    2.160074605701046E-1   -1.712673602443182E-1    2.110480005187751E-1   -1.688130559869577E-1    7.906667216653758E-1    1.675895719224724E-1
 1.865024149270491E5     7.862020211915602E-1    1.693197020814539E-1    2.154843541855579E-1   -1.705143261977195E-1    2.105157100792513E-1   -1.680653684421902E-1    7.911590479502244E-1    1.668173727072490E-1
 1.879254027362132E5     7.867126525450572E-1    1.685632785897328E-1    2.149587236656485E-1   -1.697671125853382E-1    2.100096640298537E-1   -1.673118379888156E-1    7.916960242845078E-1    1.660959484098040E-1
 1.893592477469092E5     7.872795857170385E-1    1.678363458277727E-1    2.144417385718328E-1   -1.690225955588073E-1    2.094953362328002E-1   -1.665697148476184E-1    7.921624225110331E-1    1.653578717999281E-1
 1.908040327980933E5     7.877814535916093E-1    1.670918597405696E-1    2.138914960548097E-1   -1.682680079130326E-1    2.089728713531337E-1   -1.658238925380702E-1    7.926869749036116E-1    1.646143848131854E-1
 1.922598413607715E5     7.882963886259915E-1    1.663556692651611E-1    2.133693425710926E-1   -1.675339433497724E-1    2.084731865638647E-1   -1.651037976462126E-1    7.932037160293310E-1    1.638853821766996E-1
 1.937267575428232E5     7.888352803627421E-1    1.656214852677192E-1    2.128518690828181E-1   -1.668059698531846E-1    2.079691875578283E-1   -1.643825953937328E-1    7.937201051059882E-1    1.631674448359166E-1
 1.952048660938581E5     7.893582534729966E-1    1.648999932744741E-1    2.123380229370471E-1   -1.660896555115761E-1    2.074731542279497E-1   -1.636753802952506E-1    7.942395407468830E-1    1.624425182395848E-1
 1.966942524101142E5     7.898632229766926E-1    1.641746281691842E-1    2.118367323691970E-1   -1.653784153878810E-1    2.069791332594112E-1   -1.629666610349946E-1    7.946836806448724E-1    1.617231177534048E-1
 1.981950025393913E5     7.903569043558170E-1    1.634543641158232E-1    2.113362246783088E-1   -1.646755019339519E-1    2.064760704499878E-1   -1.622550250364821E-1    7.951889383896311E-1    1.610146178023361E-1
