#  HZ   S   RI   R     50.00 
! Rohde & Schwarz Vector Network Analyzer 
! Rohde-Schwarz,ZNLE6-2Port,1323001256200024,1.71.1.10-23.02.1.238
! Created: UTC 4/8/2025, 5:59:51 AM
! freq[Hz]                re:S11                  im:S11                  re:S21                  im:S21                  re:S12                  im:S12                  re:S22                  im:S22
 1.000000000000000E5     8.083954377274448E-1    2.075290330460379E-1    1.933709328957274E-1   -2.086903660385545E-1    1.881580322204854E-1   -2.052851621619207E-1    8.135620350847271E-1    2.039764234443785E-1
 1.007629862646662E5     8.091560178558361E-1    2.063268162699421E-1    1.926160446933515E-1   -2.074986589822236E-1    1.874619386336804E-1   -2.041211668068207E-1    8.142431895736147E-1    2.027960034134879E-1
 1.015317940097331E5     8.098536904590777E-1    2.051907535241553E-1    1.919264808524833E-1   -2.063445497905194E-1    1.867718258514607E-1   -2.029739865144602E-1    8.148969518611117E-1    2.016606769871549E-1
 1.023064676522963E5     8.104862658250108E-1    2.040307129770536E-1    1.912500641063329E-1   -2.052141597872422E-1    1.860972793257774E-1   -2.018338508101026E-1    8.155728114428016E-1    2.005252383648818E-1
 1.030870519483485E5     8.111197762005750E-1    2.029119486730897E-1    1.905797287235086E-1   -2.040873295043550E-1    1.854294532206903E-1   -2.007046014257592E-1    8.162121077647653E-1    1.994011745275731E-1
 1.038735919953636E5     8.118233945325457E-1    2.017721567788859E-1    1.898938218471103E-1   -2.029437975456244E-1    1.847563676000062E-1   -1.995691371313569E-1    8.168953784891946E-1    1.982712913139612E-1
 1.046661332349037E5     8.125315092765194E-1    2.006144438235012E-1    1.891768986797716E-1   -2.017915950970010E-1    1.840987550081042E-1   -1.984479492848243E-1    8.175187950317536E-1    1.971491403063741E-1
 1.054647214552430E5     8.132147959816105E-1    1.994628700384133E-1    1.884828353038674E-1   -2.006487261116745E-1    1.834553198637955E-1   -1.973399910064038E-1    8.181717851282655E-1    1.960460878717768E-1
 1.062694027940149E5     8.138696479223623E-1    1.983511359501655E-1    1.877916786565009E-1   -1.995217447163457E-1    1.828193465960064E-1   -1.962460238144007E-1    8.188274147031038E-1    1.949574368654139E-1
 1.070802237408760E5     8.145090126365603E-1    1.972595337389740E-1    1.871623182617481E-1   -1.984254419728446E-1    1.821845013527199E-1   -1.951449323665388E-1    8.194620677030576E-1    1.938610473235547E-1
 1.078972311401927E5     8.151078381739695E-1    1.961720687436845E-1    1.865538374897968E-1   -1.973472147613852E-1    1.815505330728677E-1   -1.940455701241399E-1    8.200356149496878E-1    1.927894744828232E-1
 1.087204721937475E5     8.157440989330842E-1    1.950759531240604E-1    1.859090906051334E-1   -1.962511872457456E-1    1.809399745146259E-1   -1.929676103179246E-1    8.206616599947573E-1    1.917180388166959E-1
 1.095499944634658E5     8.164121272642169E-1    1.939884444975085E-1    1.852617102615687E-1   -1.951568965259628E-1    1.803170322697462E-1   -1.918820951204213E-1    8.212525283158966E-1    1.906472657389683E-1
 1.103858458741646E5     8.170150631318628E-1    1.928843792795340E-1    1.846057181950181E-1   -1.940593805951674E-1    1.797142537012304E-1   -1.908188248143406E-1    8.218928266895970E-1    1.895697954234987E-1
 1.112280747163201E5     8.176618616696211E-1    1.917917518247845E-1    1.839430256248729E-1   -1.929454399844747E-1    1.791089664304225E-1   -1.897475424506348E-1    8.224541602463629E-1    1.885260351966012E-1
 1.120767296488583E5     8.182286892907974E-1    1.907267953482495E-1    1.833353470321294E-1   -1.918878925576242E-1    1.785119321182401E-1   -1.886972029492577E-1    8.230326293109739E-1    1.874500019695612E-1
 1.129318597019661E5     8.188152128856011E-1    1.896731307389308E-1    1.827485254984490E-1   -1.908434881300949E-1    1.779198922406505E-1   -1.876414908927626E-1    8.236257616082362E-1    1.864193916998841E-1
 1.137935142799240E5     8.193740935126868E-1    1.886331273579332E-1    1.821797515803651E-1   -1.898095744292797E-1    1.773451950730550E-1   -1.866019531486696E-1    8.242210019322087E-1    1.853960263712943E-1
 1.146617431639607E5     8.200104172258548E-1    1.875912926506588E-1    1.815741529359564E-1   -1.887632556469379E-1    1.767716094337755E-1   -1.855707885093161E-1    8.247924571483261E-1    1.843631406872493E-1
 1.155365965151286E5     8.205924985400094E-1    1.865478520336727E-1    1.809638925601079E-1   -1.877035000659934E-1    1.761949482330101E-1   -1.845372447267609E-1    8.253054251329859E-1    1.833252348127868E-1
 1.164181248772018E5     8.212288633080133E-1    1.855060843724897E-1    1.803553272066762E-1   -1.866566551606997E-1    1.756267112912499E-1   -1.835121299361710E-1    8.258607673526739E-1    1.823030749892452E-1
 1.173063791795965E5     8.217493524143979E-1    1.844654211188122E-1    1.797731852344963E-1   -1.856221328443664E-1    1.750769475718462E-1   -1.824987747369025E-1    8.264134890367978E-1    1.812919032956877E-1
 1.182014107403141E5     8.223221204409491E-1    1.834673063197472E-1    1.792107218732763E-1   -1.846172098769388E-1    1.745256559202655E-1   -1.814926873363240E-1    8.269537862215780E-1    1.803073467456302E-1
 1.191032712689044E5     8.228502866977061E-1    1.824633978701279E-1    1.786686546275832E-1   -1.836168784320709E-1    1.739744846270859E-1   -1.804913430675086E-1    8.274979529027131E-1    1.792965765174531E-1
 1.200120128694542E5     8.234142376863972E-1    1.814614962346811E-1    1.781114310944545E-1   -1.826151103590934E-1    1.734342873788386E-1   -1.795010661516159E-1    8.280626475280058E-1    1.783086032665183E-1
 1.209276880435975E5     8.239782462439549E-1    1.804784527520736E-1    1.775517730892535E-1   -1.816136343768479E-1    1.728932774255423E-1   -1.785177484011739E-1    8.286015431902299E-1    1.773140510820728E-1
 1.218503496935483E5     8.245342033805344E-1    1.794786286463619E-1    1.769858555854241E-1   -1.806064725531653E-1    1.723644656599126E-1   -1.775343298391300E-1    8.291364269488195E-1    1.763550258742652E-1
 1.227800511251578E5     8.250879236921309E-1    1.784553234917205E-1    1.764194096000639E-1   -1.796121201040720E-1    1.718437500120094E-1   -1.765613179696475E-1    8.296790128364337E-1    1.753863466889262E-1
 1.237168460509929E5     8.256291397571137E-1    1.774916261967589E-1    1.758846338747729E-1   -1.786362819234633E-1    1.713190403813264E-1   -1.755882532741961E-1    8.301712234344791E-1    1.744300750583599E-1
 1.246607885934402E5     8.261360420088628E-1    1.765286032580100E-1    1.753653149860132E-1   -1.776709289170160E-1    1.708043929221951E-1   -1.746318526272509E-1    8.306351928089575E-1    1.734690601369312E-1
 1.256119332878327E5     8.265968755272660E-1    1.755871403206707E-1    1.748568388237039E-1   -1.767195723853227E-1    1.702902165670026E-1   -1.736733043754816E-1    8.311363515889160E-1    1.725176630673629E-1
 1.265703350856002E5     8.271294040124947E-1    1.746216270938678E-1    1.743380929489643E-1   -1.757649443378700E-1    1.697881980910208E-1   -1.727305052039951E-1    8.316857074170648E-1    1.715812053489677E-1
 1.275360493574453E5     8.276468255181055E-1    1.736760041159485E-1    1.738093510776428E-1   -1.748018540650419E-1    1.692972162765973E-1   -1.717935811328685E-1    8.321779779992682E-1    1.706575171811488E-1
 1.285091318965405E5     8.281889325317209E-1    1.727192154511105E-1    1.732879614419398E-1   -1.738523837993995E-1    1.687969912656852E-1   -1.708579085994759E-1    8.326573134710696E-1    1.697125208937817E-1
 1.294896389217529E5     8.286944049223695E-1    1.717745209501513E-1    1.727686927140617E-1   -1.729065560112779E-1    1.683107338266910E-1   -1.699335554586170E-1    8.331400399309232E-1    1.687958016736136E-1
 1.304776270808914E5     8.291838047884853E-1    1.708574872023665E-1    1.722798113484087E-1   -1.719865469251876E-1    1.678279978953577E-1   -1.690181733568773E-1    8.336205079131441E-1    1.678892095194679E-1
 1.314731534539810E5     8.295812864897996E-1    1.699876221556862E-1    1.718506666381118E-1   -1.711045308648743E-1    1.673388251878420E-1   -1.681071341992647E-1    8.341084677170807E-1    1.669634588084649E-1
 1.324762755565583E5     8.300145428558525E-1    1.690954280962854E-1    1.713906029621490E-1   -1.702130877753018E-1    1.668628014374544E-1   -1.671955167822915E-1    8.345644864971764E-1    1.660613042770070E-1
 1.334870513429962E5     8.305218933601550E-1    1.681790751769239E-1    1.709022109738168E-1   -1.693021149937837E-1    1.663881508295123E-1   -1.663010079049828E-1    8.350343484697440E-1    1.651581029102415E-1
 1.345055392098512E5     8.310383857455618E-1    1.672582401160005E-1    1.703876850063071E-1   -1.683794693947767E-1    1.659234960646523E-1   -1.654093106465111E-1    8.354672128413451E-1    1.642811449477851E-1
 1.355317979992373E5     8.316191056539406E-1    1.662888271067354E-1    1.698029445125047E-1   -1.674118456849969E-1    1.654647923849269E-1   -1.645195391918405E-1    8.359736838731868E-1    1.634022646959905E-1
 1.365658870022265E5     8.321126714828632E-1    1.653805751599949E-1    1.693088907534286E-1   -1.665085086294388E-1    1.650053227513311E-1   -1.636455151572272E-1    8.364025224806062E-1    1.625378827638843E-1
 1.376078659622731E5     8.325706963738075E-1    1.645143335942627E-1    1.688323919134342E-1   -1.656259057652431E-1    1.645483164826417E-1   -1.627706302360311E-1    8.368477788332066E-1    1.616456384447369E-1
 1.386577950786655E5     8.330345211150463E-1    1.636573284864301E-1    1.683820804584590E-1   -1.647560923182126E-1    1.640975714729920E-1   -1.619053780416679E-1    8.372970462936152E-1    1.607737222615285E-1
 1.397157350100044E5     8.335120929574458E-1    1.627710250712384E-1    1.679153674587599E-1   -1.638843039259736E-1    1.636546541045057E-1   -1.610465791072850E-1    8.377547130868884E-1    1.599336049103762E-1
 1.407817468777081E5     8.339703824317657E-1    1.619080993565925E-1    1.674525289845398E-1   -1.630120132647167E-1    1.632105421729733E-1   -1.601950929188392E-1    8.381866740913598E-1    1.590876330468785E-1
 1.418558922695422E5     8.344203442645517E-1    1.610318176482512E-1    1.669814201764840E-1   -1.621475555637730E-1    1.627654759501047E-1   -1.593479948736947E-1    8.386114761424499E-1    1.582157012502022E-1
 1.429382332431784E5     8.348752950733913E-1    1.601738829975680E-1    1.664998615895463E-1   -1.612746141843563E-1    1.623428811570064E-1   -1.585095125634984E-1    8.390382183597078E-1    1.573963358593603E-1
 1.440288323297804E5     8.353305438360198E-1    1.593431843322156E-1    1.660538748616341E-1   -1.604275748011879E-1    1.618993539238109E-1   -1.576718771093742E-1    8.394868534437654E-1    1.565620210628711E-1
 1.451277525376154E5     8.357809637364459E-1    1.584921625806189E-1    1.656111321585981E-1   -1.595864420061244E-1    1.614712786157942E-1   -1.568362477698183E-1    8.399129220575897E-1    1.557396698021331E-1
 1.462350573556962E5     8.361908516905001E-1    1.576593222551304E-1    1.651760610614855E-1   -1.587608373862811E-1    1.610448100822654E-1   -1.560179443405222E-1    8.403324423788222E-1    1.549164262878125E-1
 1.473508107574468E5     8.365977788988884E-1    1.568459582613975E-1    1.647559190872187E-1   -1.579454041829225E-1    1.606273830472277E-1   -1.552055935665445E-1    8.407708920283629E-1    1.540975267879195E-1
 1.484750772044004E5     8.370612438748088E-1    1.560058067677365E-1    1.642936265137729E-1   -1.571035100220916E-1    1.602132990244745E-1   -1.543958475492370E-1    8.411703693977745E-1    1.533006288647817E-1
 1.496079216499225E5     8.374880394873730E-1    1.552001541513946E-1    1.638706025341226E-1   -1.562871778143312E-1    1.597939460031844E-1   -1.535944234629186E-1    8.415557880840518E-1    1.524802271455477E-1
 1.507494095429637E5     8.379204064642900E-1    1.543648505330756E-1    1.634242734402995E-1   -1.554764124666400E-1    1.593821126811349E-1   -1.527991710351415E-1    8.419821117900749E-1    1.516993697731414E-1
 1.518996068318418E5     8.383037348134665E-1    1.535753469206243E-1    1.630014468857086E-1   -1.546752556322963E-1    1.589695049258546E-1   -1.520081073765464E-1    8.423904766850974E-1    1.509192478843008E-1
 1.530585799680507E5     8.387098418581681E-1    1.527928430801977E-1    1.626065717405779E-1   -1.538924689985235E-1    1.585625375446615E-1   -1.512174880269138E-1    8.427964713673398E-1    1.501221436637963E-1
 1.542263959101001E5     8.391575488462121E-1    1.520133799151485E-1    1.621941498520408E-1   -1.531095266697748E-1    1.581589445534488E-1   -1.504444238997499E-1    8.431854408893141E-1    1.493581019125017E-1
 1.554031221273835E5     8.395844786274607E-1    1.512269880263990E-1    1.617759478130177E-1   -1.523226674878405E-1    1.577668933972315E-1   -1.496759708851492E-1    8.436059621055473E-1    1.485862585003004E-1
 1.565888266040779E5     8.399768186625957E-1    1.504463853704708E-1    1.613566556446105E-1   -1.515409851693448E-1    1.573722703297890E-1   -1.489053141014119E-1    8.439695157101587E-1    1.478117182479342E-1
 1.577835778430689E5     8.403967837042592E-1    1.496606247734871E-1    1.609398428464007E-1   -1.507566438938987E-1    1.569707143098988E-1   -1.481481004256348E-1    8.443671769869685E-1    1.470530393943493E-1
 1.589874448699104E5     8.407734908761036E-1    1.488821664042752E-1    1.605326316309271E-1   -1.499882490471892E-1    1.565854229538305E-1   -1.473941182288182E-1    8.447716049277952E-1    1.463076355627958E-1
 1.602004972368116E5     8.411891681271708E-1    1.481372843481431E-1    1.601425572993040E-1   -1.492444043100645E-1    1.561937025786888E-1   -1.466439703721596E-1    8.451504176541841E-1    1.455514873685121E-1
 1.614228050266550E5     8.415836759638700E-1    1.473854866576020E-1    1.597525613321692E-1   -1.484922429510736E-1    1.558182602600971E-1   -1.458980303895409E-1    8.455425440452620E-1    1.448116940459605E-1
 1.626544388570473E5     8.419501403621653E-1    1.466507223048177E-1    1.593514228332905E-1   -1.477391620918749E-1    1.554294054498266E-1   -1.451651330522907E-1    8.459081614618079E-1    1.440823114780975E-1
 1.638954698843964E5     8.423151142779561E-1    1.458820424481317E-1    1.589674903801632E-1   -1.470013939561221E-1    1.550412968504605E-1   -1.444294358285623E-1    8.462404211005976E-1    1.433508412437376E-1
 1.651459698080244E5     8.427235674881194E-1    1.451475360427965E-1    1.585529425874685E-1   -1.462587933832750E-1    1.546647810387152E-1   -1.437050122448087E-1    8.466225070115579E-1    1.426249242636546E-1
 1.664060108743095E5     8.431117525996848E-1    1.444105259198607E-1    1.581597986312236E-1   -1.455240481745709E-1    1.542924017985382E-1   -1.429894458881563E-1    8.470227076957176E-1    1.419006605511351E-1
 1.676756658808590E5     8.435004506431883E-1    1.437015246719102E-1    1.577796486033826E-1   -1.448076416733495E-1    1.539225203681673E-1   -1.422789763712704E-1    8.474125826183284E-1    1.411953180070477E-1
 1.689550081807175E5     8.438616868637571E-1    1.429840776782717E-1    1.573949164570957E-1   -1.440801092074912E-1    1.535586455699731E-1   -1.415741427680289E-1    8.477971761685571E-1    1.404998331143396E-1
 1.702441116866020E5     8.442511665089617E-1    1.422826878098691E-1    1.570339348646037E-1   -1.433851825177005E-1    1.531894564714821E-1   -1.408776084270580E-1    8.481403706141700E-1    1.397962197897655E-1
 1.715430508751738E5     8.446164937486375E-1    1.415878021189089E-1    1.566572815908148E-1   -1.426771082784834E-1    1.528210124050602E-1   -1.401746859974315E-1    8.484869445511519E-1    1.390936270327897E-1
 1.728519007913403E5     8.450005925318351E-1    1.408730190851799E-1    1.562697485294409E-1   -1.419671980680896E-1    1.524625852334744E-1   -1.394868438264793E-1    8.488579913930364E-1    1.384095731900206E-1
 1.741707370525927E5     8.453677784747653E-1    1.401777123621008E-1    1.559019817150793E-1   -1.412702587081899E-1    1.520989727895679E-1   -1.388012604209466E-1    8.492303473200201E-1    1.377205756577379E-1
 1.754996358533718E5     8.457391709109471E-1    1.394957156608544E-1    1.555274474264679E-1   -1.405840897715375E-1    1.517339588946335E-1   -1.381228258283934E-1    8.495454643696841E-1    1.370326696704776E-1
 1.768386739694722E5     8.461114864046466E-1    1.388157593677273E-1    1.551667228918741E-1   -1.399012906910070E-1    1.513820708032086E-1   -1.374463228647488E-1    8.499151713175941E-1    1.363535639860115E-1
 1.781879287624771E5     8.464553005693509E-1    1.381442983467786E-1    1.548016302310836E-1   -1.392272844099045E-1    1.510356931477692E-1   -1.367819004639036E-1    8.502509746128279E-1    1.356928383874501E-1
 1.795474781842276E5     8.468171432717972E-1    1.374580486451837E-1    1.544462333799274E-1   -1.385600113559603E-1    1.506771210701010E-1   -1.361189891460915E-1    8.506145895196812E-1    1.350363314766994E-1
 1.809174007813277E5     8.471729658311535E-1    1.367892572368949E-1    1.540818143874493E-1   -1.378881779636685E-1    1.503356217568398E-1   -1.354637915225905E-1    8.509660013030466E-1    1.343997066043567E-1
 1.822977756996804E5     8.475347642143830E-1    1.361181401041957E-1    1.537071454330564E-1   -1.372221512861924E-1    1.499875729660141E-1   -1.348156348296562E-1    8.513257352085327E-1    1.337415722042463E-1
 1.836886826890609E5     8.478943918702534E-1    1.354726351356389E-1    1.533521759763855E-1   -1.365635818117875E-1    1.496367028810860E-1   -1.341663645334063E-1    8.516606408604125E-1    1.330775231976912E-1
 1.850902021077247E5     8.482975725259368E-1    1.348309891579337E-1    1.529974259837179E-1   -1.359148231500967E-1    1.492964524326487E-1   -1.335255623957940E-1    8.520147664468213E-1    1.324561810179493E-1
 1.865024149270491E5     8.485994446286624E-1    1.341697785947391E-1    1.526448324534276E-1   -1.352724778071970E-1    1.489493629956302E-1   -1.328926543981433E-1    8.523389978592469E-1    1.318007998666668E-1
 1.879254027362132E5     8.489447093663662E-1    1.335152383154945E-1    1.522970740931526E-1   -1.346371468390326E-1    1.486130808071079E-1   -1.322573682528372E-1    8.527009689739589E-1    1.311783487690536E-1
 1.893592477469092E5     8.492712980306020E-1    1.329275461196817E-1    1.519623837924377E-1   -1.339822193179025E-1    1.482588184087292E-1   -1.316298479964726E-1    8.530125160685894E-1    1.305665851576284E-1
 1.908040327980933E5     8.495961118928947E-1    1.322556770180242E-1    1.515832597997729E-1   -1.333605923819529E-1    1.479290011688163E-1   -1.310025527779953E-1    8.533642377573040E-1    1.299241240007642E-1
 1.922598413607715E5     8.499733523232345E-1    1.316325356911248E-1    1.512329506398293E-1   -1.327311482506827E-1    1.475937330274112E-1   -1.303925465786232E-1    8.536849856020801E-1    1.293119891278131E-1
 1.937267575428232E5     8.503489752453833E-1    1.310210161120456E-1    1.508949630062220E-1   -1.321167049789005E-1    1.472597587719413E-1   -1.297765661231517E-1    8.540048737020877E-1    1.286980198683746E-1
 1.952048660938581E5     8.506888455794509E-1    1.304094485341686E-1    1.505486245706696E-1   -1.315037506511100E-1    1.469303035460228E-1   -1.291767110834058E-1    8.543646665767601E-1    1.280891511253078E-1
 1.966942524101142E5     8.510164625553523E-1    1.297918670332187E-1    1.502153221824314E-1   -1.308966625350719E-1    1.465988912810088E-1   -1.285780407352136E-1    8.546707334602689E-1    1.274928252328149E-1
 1.981950025393913E5     8.513544018396986E-1    1.291985116031805E-1    1.498824955541363E-1   -1.303026890464542E-1    1.462624753800979E-1   -1.279791794771898E-1    8.550019009580373E-1    1.269003854655159E-1
