#  HZ   S   RI   R     50.00 
! Rohde & Schwarz Vector Network Analyzer 
! Rohde-Schwarz,ZNLE6-2Port,1323001256200024,1.71.1.10-23.02.1.238
! Created: UTC 4/8/2025, 5:49:58 AM
! freq[Hz]                re:S11                  im:S11                  re:S21                  im:S21                  re:S12                  im:S12                  re:S22                  im:S22
 1.000000000000000E5     8.613840491939591E-1    1.691519599974740E-1    1.399475880870321E-1   -1.701819035153749E-1    1.360712847153263E-1   -1.669329709987039E-1    8.651498753634213E-1    1.657509717189098E-1
 1.007629862646662E5     8.618978511324078E-1    1.681019620888528E-1    1.394503949798289E-1   -1.691490136681019E-1    1.356130189483807E-1   -1.659313497292655E-1    8.656105610240448E-1    1.647476518681227E-1
 1.015317940097331E5     8.623369700518545E-1    1.670910322727637E-1    1.389959006955860E-1   -1.681498507311995E-1    1.351664492340820E-1   -1.649391387408214E-1    8.660402863102501E-1    1.637811245785768E-1
 1.023064676522963E5     8.627367305047386E-1    1.660982961268314E-1    1.385545632610738E-1   -1.671652927010472E-1    1.347225241637707E-1   -1.639553378176491E-1    8.664914972664556E-1    1.627809623677063E-1
 1.030870519483485E5     8.631714530733119E-1    1.651224116124464E-1    1.381162921158776E-1   -1.661933274309130E-1    1.342829297424558E-1   -1.629750813861383E-1    8.668871760446162E-1    1.618266693170920E-1
 1.038735919953636E5     8.636241655297889E-1    1.641183858225773E-1    1.376562756953665E-1   -1.652034854945674E-1    1.338462272807903E-1   -1.620054893732017E-1    8.673477181111289E-1    1.608376736074520E-1
 1.046661332349037E5     8.640771688367640E-1    1.631143833331371E-1    1.371868094000127E-1   -1.642014566051938E-1    1.334124682729997E-1   -1.610400896890296E-1    8.677465514603004E-1    1.598901062861626E-1
 1.054647214552430E5     8.645403779390037E-1    1.621425488410976E-1    1.367264834202992E-1   -1.632121592680170E-1    1.329880166648256E-1   -1.600867777607176E-1    8.681912208855234E-1    1.589229397698241E-1
 1.062694027940149E5     8.649752807022333E-1    1.611575267677995E-1    1.362662875784382E-1   -1.622400365778359E-1    1.325747458957667E-1   -1.591406477948326E-1    8.686321277655898E-1    1.580184313495245E-1
 1.070802237408760E5     8.653856038963763E-1    1.602272338324268E-1    1.358597380687099E-1   -1.612963366865900E-1    1.321566619980523E-1   -1.582006189833165E-1    8.690260346417199E-1    1.570765653876784E-1
 1.078972311401927E5     8.657919047443652E-1    1.592939235701512E-1    1.354643363359895E-1   -1.603726199403663E-1    1.317465938767040E-1   -1.572546925968879E-1    8.694156700799368E-1    1.561438060191515E-1
 1.087204721937475E5     8.661894585874439E-1    1.583534647395783E-1    1.350423482770275E-1   -1.594222895352672E-1    1.313436423597278E-1   -1.563356328166858E-1    8.698261941450761E-1    1.552270334672667E-1
 1.095499944634658E5     8.666612244744822E-1    1.574126320897235E-1    1.346132677811812E-1   -1.584826371301336E-1    1.309377326333176E-1   -1.554086346941428E-1    8.702371980757461E-1    1.543193780708122E-1
 1.103858458741646E5     8.670262847160418E-1    1.564755673865033E-1    1.341750566974345E-1   -1.575318681427172E-1    1.305410265907082E-1   -1.544927616864910E-1    8.706526727501995E-1    1.533734384039409E-1
 1.112280747163201E5     8.674323859545603E-1    1.555384771734334E-1    1.337360739163141E-1   -1.565788781531346E-1    1.301450959544046E-1   -1.535821057863069E-1    8.709916444758415E-1    1.524763725249101E-1
 1.120767296488583E5     8.678337195593692E-1    1.546116068191483E-1    1.333418928472584E-1   -1.556724171173912E-1    1.297548859399220E-1   -1.526810754097248E-1    8.713594057173442E-1    1.515804620111497E-1
 1.129318597019661E5     8.682138956347301E-1    1.537110411936644E-1    1.329601534165988E-1   -1.547772520236708E-1    1.293627925510681E-1   -1.517827497600413E-1    8.717590579768978E-1    1.506883479754825E-1
 1.137935142799240E5     8.685756126597070E-1    1.528344726770699E-1    1.325870587692852E-1   -1.538947340563188E-1    1.289925642227094E-1   -1.509000233303901E-1    8.721752974285994E-1    1.498059637010181E-1
 1.146617431639607E5     8.689770074323271E-1    1.519236105002104E-1    1.321867451625795E-1   -1.529976592177062E-1    1.286136532560323E-1   -1.500163037478184E-1    8.725209409476471E-1    1.489475299390543E-1
 1.155365965151286E5     8.693658848194571E-1    1.510327777590839E-1    1.317886905491460E-1   -1.520886410213045E-1    1.282337156649929E-1   -1.491360447508329E-1    8.728665334416185E-1    1.480558890827740E-1
 1.164181248772018E5     8.697788611289031E-1    1.501254839596849E-1    1.313779478898372E-1   -1.511944098205691E-1    1.278618022853239E-1   -1.482678791371651E-1    8.732275818451037E-1    1.471894170094393E-1
 1.173063791795965E5     8.701316993448241E-1    1.492577253182112E-1    1.309986524545152E-1   -1.503105644445426E-1    1.275008659695117E-1   -1.474047831189435E-1    8.735895823849977E-1    1.463311164140086E-1
 1.182014107403141E5     8.705228859312859E-1    1.483961455504516E-1    1.306284127954802E-1   -1.494523090838215E-1    1.271357307202239E-1   -1.465460698801994E-1    8.739204491338205E-1    1.454755231633888E-1
 1.191032712689044E5     8.708470630083999E-1    1.475443935363438E-1    1.302804147402389E-1   -1.486018542426669E-1    1.267770109423053E-1   -1.457018953332767E-1    8.743012026637925E-1    1.446393735747480E-1
 1.200120128694542E5     8.712020538208948E-1    1.466754440378663E-1    1.299099191205312E-1   -1.477495843010484E-1    1.264237919053804E-1   -1.448573147689193E-1    8.746524058607246E-1    1.438081587500505E-1
 1.209276880435975E5     8.715799069964083E-1    1.458506187394591E-1    1.295402437789605E-1   -1.468898570254462E-1    1.260677521226312E-1   -1.440229242896541E-1    8.750367876159959E-1    1.429614525995969E-1
 1.218503496935483E5     8.719196867178454E-1    1.449905951598076E-1    1.291640105152413E-1   -1.460354103040901E-1    1.257249665718869E-1   -1.431874312801827E-1    8.753956821567239E-1    1.421300373399806E-1
 1.227800511251578E5     8.722961138098964E-1    1.441246237668558E-1    1.287901684268890E-1   -1.451875878374340E-1    1.253768799035113E-1   -1.423650073988803E-1    8.757253346469935E-1    1.413295283584964E-1
 1.237168460509929E5     8.726456032073774E-1    1.433086121712105E-1    1.284394873532998E-1   -1.443571351037242E-1    1.250341322761114E-1   -1.415450044133245E-1    8.760516948864934E-1    1.405111650064159E-1
 1.246607885934402E5     8.729755585629161E-1    1.424892756996627E-1    1.280995678074704E-1   -1.435394031200248E-1    1.246948464115416E-1   -1.407345184470918E-1    8.763601647890421E-1    1.397184807064981E-1
 1.256119332878327E5     8.733263136543608E-1    1.417074441145257E-1    1.277663244215461E-1   -1.427351658727087E-1    1.243568867509001E-1   -1.399258800742376E-1    8.767020396269214E-1    1.389136121178848E-1
 1.265703350856002E5     8.736592965151611E-1    1.408890897560050E-1    1.274236394838699E-1   -1.419220925870695E-1    1.240275687919709E-1   -1.391286893394862E-1    8.770587077829680E-1    1.381059565838014E-1
 1.275360493574453E5     8.740300982759203E-1    1.400724088794362E-1    1.270731327711505E-1   -1.411086023965128E-1    1.237024953683135E-1   -1.383411291509342E-1    8.773997860582934E-1    1.373160608450845E-1
 1.285091318965405E5     8.743669334915249E-1    1.392683414181349E-1    1.267223577751248E-1   -1.402992068978821E-1    1.233821621514344E-1   -1.375548240706692E-1    8.777432105670098E-1    1.365293143386878E-1
 1.294896389217529E5     8.746872947927734E-1    1.384741396593393E-1    1.263795950203104E-1   -1.394955503721903E-1    1.230525124447438E-1   -1.367691327505571E-1    8.780299694766019E-1    1.357585517922579E-1
 1.304776270808914E5     8.750300985572628E-1    1.376802579145098E-1    1.260610481625083E-1   -1.387202606764448E-1    1.227326227839299E-1   -1.359984697133361E-1    8.783501189611828E-1    1.349950470003984E-1
 1.314731534539810E5     8.752921649176150E-1    1.369560322004962E-1    1.257834469210042E-1   -1.379758938187740E-1    1.224118517712962E-1   -1.352298990074773E-1    8.786648759527685E-1    1.341992156160761E-1
 1.324762755565583E5     8.755724335965572E-1    1.362061559916003E-1    1.254831077817413E-1   -1.372272555132874E-1    1.220996381016263E-1   -1.344633217633688E-1    8.789299588597264E-1    1.334409180796364E-1
 1.334870513429962E5     8.758758440392631E-1    1.354268893879840E-1    1.251621070016779E-1   -1.364560732366669E-1    1.217884008141141E-1   -1.337095233935017E-1    8.792677305699250E-1    1.327028009678934E-1
 1.345055392098512E5     8.762063642349009E-1    1.346482012155754E-1    1.248122272856700E-1   -1.356684435747676E-1    1.214820671390178E-1   -1.329617958686366E-1    8.795676376345676E-1    1.319636963079274E-1
 1.355317979992373E5     8.766167501739708E-1    1.338381765825316E-1    1.244230459529530E-1   -1.348538680144967E-1    1.211744452239441E-1   -1.322120497832637E-1    8.799065832759512E-1    1.312201863319615E-1
 1.365658870022265E5     8.769445996478445E-1    1.330583320675791E-1    1.240926654778178E-1   -1.340882295883979E-1    1.208730508395553E-1   -1.314790849787977E-1    8.801902983002647E-1    1.304822123374326E-1
 1.376078659622731E5     8.772490271893350E-1    1.323264009884267E-1    1.237795914851949E-1   -1.333455970853765E-1    1.205659363110996E-1   -1.307412418052871E-1    8.804568698580895E-1    1.297336255019159E-1
 1.386577950786655E5     8.775630579120187E-1    1.316049127429037E-1    1.234781407872747E-1   -1.326157531903286E-1    1.202680703418613E-1   -1.300119547306961E-1    8.807335529060381E-1    1.290130398711798E-1
 1.397157350100044E5     8.778625046431252E-1    1.308630685965406E-1    1.231644863655461E-1   -1.318762462751677E-1    1.199771612692563E-1   -1.292976707968269E-1    8.810486350000422E-1    1.283062452652881E-1
 1.407817468777081E5     8.781880970173094E-1    1.301342402818111E-1    1.228601534614982E-1   -1.311446623311245E-1    1.196822688871670E-1   -1.285820266990565E-1    8.813677851713305E-1    1.275954265612014E-1
 1.418558922695422E5     8.784546327412842E-1    1.294000120893296E-1    1.225418276400143E-1   -1.304118968541409E-1    1.193876556057459E-1   -1.278738435681252E-1    8.816365947756983E-1    1.268697882170884E-1
 1.429382332431784E5     8.787623610188003E-1    1.286685319022297E-1    1.222201461705411E-1   -1.296789079714246E-1    1.191047155545595E-1   -1.271705776598998E-1    8.819306574288195E-1    1.261782616114537E-1
 1.440288323297804E5     8.790895285871346E-1    1.279843679895196E-1    1.219246132766899E-1   -1.289677780412860E-1    1.188093087729039E-1   -1.264672189387482E-1    8.822330613738383E-1    1.254767505706757E-1
 1.451277525376154E5     8.794175376503859E-1    1.272622154547008E-1    1.216324856650592E-1   -1.282632965626982E-1    1.185268712813355E-1   -1.257696370638772E-1    8.824969127568756E-1    1.247870393919592E-1
 1.462350573556962E5     8.796969812274409E-1    1.265721610937417E-1    1.213452467987339E-1   -1.275753051149511E-1    1.182435991573285E-1   -1.250852301822346E-1    8.827953199876110E-1    1.241040873475728E-1
 1.473508107574468E5     8.799564310137484E-1    1.258937291091962E-1    1.210661381894935E-1   -1.268800672948010E-1    1.179591481652628E-1   -1.243968606114497E-1    8.830393765337800E-1    1.234255466070815E-1
 1.484750772044004E5     8.802629665350998E-1    1.252037257869986E-1    1.207581018143473E-1   -1.261815541222641E-1    1.176879716550226E-1   -1.237262633510388E-1    8.833156242310286E-1    1.227380627527777E-1
 1.496079216499225E5     8.805392071133215E-1    1.244937127065757E-1    1.204676671688779E-1   -1.254957166241831E-1    1.174054906897267E-1   -1.230588633878259E-1    8.835867754075213E-1    1.220623927574395E-1
 1.507494095429637E5     8.808495122801315E-1    1.238175632551146E-1    1.201754142628168E-1   -1.248122818509003E-1    1.171366064226649E-1   -1.223906038984309E-1    8.838755443041930E-1    1.214080773218479E-1
 1.518996068318418E5     8.811057853439767E-1    1.231511399907367E-1    1.198860329112874E-1   -1.241396479565060E-1    1.168546062192600E-1   -1.217337334786253E-1    8.841582063338250E-1    1.207436917383489E-1
 1.530585799680507E5     8.813510375088001E-1    1.224822622244984E-1    1.196248803547878E-1   -1.234810009574073E-1    1.165835453062172E-1   -1.210700616679022E-1    8.843821506660292E-1    1.200778197430721E-1
 1.542263959101001E5     8.816850429269931E-1    1.218331371827536E-1    1.193454262858873E-1   -1.228259817428062E-1    1.163143739271097E-1   -1.204256576102051E-1    8.846727854470634E-1    1.194396158817451E-1
 1.554031221273835E5     8.819556495034706E-1    1.211904315524274E-1    1.190647487054896E-1   -1.221674360606524E-1    1.160554332372044E-1   -1.197849037005534E-1    8.849523740253784E-1    1.188057976087045E-1
 1.565888266040779E5     8.821970846223313E-1    1.205277662784095E-1    1.187852152844773E-1   -1.215089309778131E-1    1.157893013192154E-1   -1.191464130485296E-1    8.852074571249943E-1    1.181712828455235E-1
 1.577835778430689E5     8.824928446420411E-1    1.198713412152214E-1    1.185059842097613E-1   -1.208620521230488E-1    1.155238772468420E-1   -1.185097398900486E-1    8.854731506238958E-1    1.175463598429889E-1
 1.589874448699104E5     8.827265996492339E-1    1.192161124806987E-1    1.182358880500903E-1   -1.202173287920289E-1    1.152651336660722E-1   -1.178825891222294E-1    8.857421539411513E-1    1.169149332351160E-1
 1.602004972368116E5     8.829967137423786E-1    1.185965799346371E-1    1.179669952660224E-1   -1.195901706286115E-1    1.149981515842410E-1   -1.172565224156046E-1    8.859835488413751E-1    1.162883839486182E-1
 1.614228050266550E5     8.832801710830024E-1    1.179657415865339E-1    1.177020566958151E-1   -1.189650075131213E-1    1.147421939980072E-1   -1.166427554144756E-1    8.862567315702630E-1    1.156682637891539E-1
 1.626544388570473E5     8.835314498845405E-1    1.173445481674343E-1    1.174395359635680E-1   -1.183378272140468E-1    1.144845301633430E-1   -1.160308680222650E-1    8.865100173999442E-1    1.150588684817451E-1
 1.638954698843964E5     8.837671673592640E-1    1.167196443376437E-1    1.171783055301470E-1   -1.177208110700586E-1    1.142242481881933E-1   -1.154213144904206E-1    8.867341678545486E-1    1.144512585720487E-1
 1.651459698080244E5     8.840671048852303E-1    1.161017355619847E-1    1.169038968021453E-1   -1.170939481899757E-1    1.139733279080865E-1   -1.148192526290557E-1    8.870016024797480E-1    1.138405415903312E-1
 1.664060108743095E5     8.843295761585034E-1    1.154844593468130E-1    1.166400459176977E-1   -1.164870058941586E-1    1.137142476179372E-1   -1.142212901379976E-1    8.872662320150171E-1    1.132443348059645E-1
 1.676756658808590E5     8.845836589693915E-1    1.148867871481776E-1    1.163793908702548E-1   -1.158905635779435E-1    1.134587593322759E-1   -1.136287086687083E-1    8.875316981906415E-1    1.126557016456556E-1
 1.689550081807175E5     8.848271339442957E-1    1.142983036030579E-1    1.161135808908800E-1   -1.152799462604951E-1    1.132175962933119E-1   -1.130411139276379E-1    8.877772015940623E-1    1.120921124017955E-1
 1.702441116866020E5     8.851281956522464E-1    1.137006540616338E-1    1.158718248224591E-1   -1.147030950197046E-1    1.129694749142419E-1   -1.124567715060077E-1    8.879880596123156E-1    1.114932850372580E-1
 1.715430508751738E5     8.853481695956350E-1    1.131174875434731E-1    1.156170196676414E-1   -1.141133749727716E-1    1.127207566571174E-1   -1.118792934647077E-1    8.882601565615292E-1    1.109188144284406E-1
 1.728519007913403E5     8.856140615703092E-1    1.125306650112729E-1    1.153515361838679E-1   -1.135215814359652E-1    1.124715498525509E-1   -1.113004996237666E-1    8.884522682304228E-1    1.103251565679334E-1
 1.741707370525927E5     8.858682485556427E-1    1.119490293318135E-1    1.151002840668249E-1   -1.129385438063601E-1    1.122264201557080E-1   -1.107312273679820E-1    8.886792898887276E-1    1.097654992147451E-1
 1.754996358533718E5     8.861342723117310E-1    1.113818084837241E-1    1.148491583319041E-1   -1.123652378969311E-1    1.119810278419204E-1   -1.101721262545316E-1    8.889361156671873E-1    1.092002211115892E-1
 1.768386739694722E5     8.864018768691010E-1    1.108059260931972E-1    1.145989603844389E-1   -1.117994842036791E-1    1.117481592378374E-1   -1.096147761837230E-1    8.891832314568203E-1    1.086319883600514E-1
 1.781879287624771E5     8.866373017361503E-1    1.102435462064637E-1    1.143539851816358E-1   -1.112381394069560E-1    1.115084073122037E-1   -1.090633617868303E-1    8.894131264396981E-1    1.080784250427794E-1
 1.795474781842276E5     8.868595914125844E-1    1.096732818284572E-1    1.141077110717291E-1   -1.106839529148556E-1    1.112666550288058E-1   -1.085115091175361E-1    8.896837826951679E-1    1.075386312740012E-1
 1.809174007813277E5     8.870974785370156E-1    1.091206206753559E-1    1.138585092004675E-1   -1.101256409460655E-1    1.110303324456770E-1   -1.079681187241375E-1    8.899278722766851E-1    1.069973790289566E-1
 1.822977756996804E5     8.873334549910945E-1    1.085651109911781E-1    1.136073935474312E-1   -1.095701543167568E-1    1.107987512838896E-1   -1.074303347171713E-1    8.901855591055378E-1    1.064646847689469E-1
 1.836886826890609E5     8.875951713831018E-1    1.080207919405954E-1    1.133646928222348E-1   -1.090192663277171E-1    1.105543377136713E-1   -1.068939156121339E-1    8.904019322860049E-1    1.059117617177219E-1
 1.850902021077247E5     8.878529102628263E-1    1.074944027262379E-1    1.131202846474097E-1   -1.084795665835732E-1    1.103232772258153E-1   -1.063571597346645E-1    8.906510965810979E-1    1.054163657154457E-1
 1.865024149270491E5     8.880762030351761E-1    1.069536324802459E-1    1.128798784267189E-1   -1.079439112998620E-1    1.100838137289614E-1   -1.058388189073702E-1    8.908663058294468E-1    1.048550132839790E-1
 1.879254027362132E5     8.882971696394854E-1    1.063985972045816E-1    1.126420800964486E-1   -1.074139354159527E-1    1.098546386708653E-1   -1.053111876082209E-1    8.911365784090370E-1    1.043435621195033E-1
 1.893592477469092E5     8.885334987042469E-1    1.058589228192865E-1    1.123961633373934E-1   -1.068734808643099E-1    1.096272775598641E-1   -1.048080766887945E-1    8.913427150679513E-1    1.037989301796250E-1
 1.908040327980933E5     8.887487983337670E-1    1.053516612362361E-1    1.121498276610077E-1   -1.063529851200495E-1    1.093843512862797E-1   -1.042689968180521E-1    8.915702556980492E-1    1.033051488492551E-1
 1.922598413607715E5     8.890161037489158E-1    1.048421680780367E-1    1.119128293054701E-1   -1.058391847347909E-1    1.091535982763846E-1   -1.037596782982776E-1    8.917717769408230E-1    1.027956173558196E-1
 1.937267575428232E5     8.892783349944013E-1    1.043196798210109E-1    1.116788622482514E-1   -1.053259679462724E-1    1.089190492978394E-1   -1.032586725986617E-1    8.920098601286665E-1    1.022760256393583E-1
 1.952048660938581E5     8.895274515723571E-1    1.038275626174364E-1    1.114370230079011E-1   -1.048146504795855E-1    1.086879219890464E-1   -1.027599224713967E-1    8.922338775196470E-1    1.017779780038160E-1
 1.966942524101142E5     8.897658241071508E-1    1.033249488200678E-1    1.112067970293243E-1   -1.043124624953739E-1    1.084650589375830E-1   -1.022636141132267E-1    8.924804564231352E-1    1.012906489084069E-1
 1.981950025393913E5     8.900206175375053E-1    1.028210276654134E-1    1.109812174539985E-1   -1.038174993921122E-1    1.082357239373117E-1   -1.017725253948956E-1    8.927256896505970E-1    1.007980929088330E-1
