#  HZ   S   RI   R     50.00 
! Rohde & Schwarz Vector Network Analyzer 
! Rohde-Schwarz,ZNLE6-2Port,1323001256200024,1.71.1.10-23.02.1.238
! Created: UTC 4/8/2025, 5:39:36 AM
! freq[Hz]                re:S11                  im:S11                  re:S21                  im:S21                  re:S12                  im:S12                  re:S22                  im:S22
 1.000000000000000E5     8.959861103765064E-1    1.380460369334975E-1    1.050411884090086E-1   -1.389261784296321E-1    1.021288277335062E-1   -1.360455007432525E-1    8.988518824880538E-1    1.350234256340528E-1
 1.007629862646662E5     8.963470667021561E-1    1.371662852167054E-1    1.047037171352189E-1   -1.380533366646795E-1    1.018218403815446E-1   -1.352033370657400E-1    8.991674087861654E-1    1.341744936484283E-1
 1.015317940097331E5     8.966724140304122E-1    1.363017453093974E-1    1.044040325300536E-1   -1.372112219515963E-1    1.015236791405040E-1   -1.343669130346860E-1    8.994333952683052E-1    1.333629567633198E-1
 1.023064676522963E5     8.969149101823605E-1    1.354676652712950E-1    1.041049882743370E-1   -1.363838044503335E-1    1.012250342536704E-1   -1.335456101523339E-1    8.997653911356179E-1    1.325086673101756E-1
 1.030870519483485E5     8.972000075902244E-1    1.346446720432315E-1    1.038177460299963E-1   -1.355601959430978E-1    1.009294892801480E-1   -1.327231574636122E-1    9.000495960370868E-1    1.317087377803214E-1
 1.038735919953636E5     8.975047223537003E-1    1.338056770298411E-1    1.035085154260503E-1   -1.347273623586422E-1    1.006398171212272E-1   -1.319045894841010E-1    9.003441326332925E-1    1.308792596976267E-1
 1.046661332349037E5     8.978084552488313E-1    1.329565590655373E-1    1.031911453745471E-1   -1.338831219166500E-1    1.003478244129579E-1   -1.310909607771026E-1    9.006000207648118E-1    1.300725232521049E-1
 1.054647214552430E5     8.980998080585524E-1    1.321292705908581E-1    1.028843017801003E-1   -1.330484752454546E-1    1.000657373495079E-1   -1.302865689660951E-1    9.008795729814507E-1    1.292664251546141E-1
 1.062694027940149E5     8.984230792470438E-1    1.313168391031528E-1    1.025762657551415E-1   -1.322272245580882E-1    9.978746833834444E-2   -1.294936794866638E-1    9.011699157386602E-1    1.285091198045472E-1
 1.070802237408760E5     8.986861603159928E-1    1.305304162183131E-1    1.023050332311441E-1   -1.314332966146024E-1    9.951045093076255E-2   -1.287072385012794E-1    9.014449800505855E-1    1.277188613511515E-1
 1.078972311401927E5     8.989357434537374E-1    1.297505113264822E-1    1.020450844453461E-1   -1.306557362463107E-1    9.923079620663318E-2   -1.279165026121512E-1    9.017013167681435E-1    1.269409643269632E-1
 1.087204721937475E5     8.992004178049314E-1    1.289471199336584E-1    1.017558597064050E-1   -1.298605251966635E-1    9.896518419988465E-2   -1.271463309543389E-1    9.019629697916318E-1    1.261679739597084E-1
 1.095499944634658E5     8.994945418370226E-1    1.281497963644553E-1    1.014726043938459E-1   -1.290660616897341E-1    9.868835223932142E-2   -1.263647803646205E-1    9.022352522220672E-1    1.253845097498824E-1
 1.103858458741646E5     8.997840955117250E-1    1.273614331722573E-1    1.011807673624481E-1   -1.282713561654928E-1    9.842874156802890E-2   -1.256019986417845E-1    9.025075411350847E-1    1.246164089550245E-1
 1.112280747163201E5     9.000367859294404E-1    1.265671777802428E-1    1.008830989741663E-1   -1.274722326418304E-1    9.816061739711071E-2   -1.248382088252262E-1    9.027383975503542E-1    1.238628929088560E-1
 1.120767296488583E5     9.003022228884285E-1    1.257981523470706E-1    1.006117288194477E-1   -1.267104601353258E-1    9.789682563492266E-2   -1.240850830605396E-1    9.029987504813465E-1    1.230963961419101E-1
 1.129318597019661E5     9.005351907635194E-1    1.250595533332109E-1    1.003643539012938E-1   -1.259562866776444E-1    9.763535276613389E-2   -1.233335221987641E-1    9.032563345684818E-1    1.223678398231293E-1
 1.137935142799240E5     9.007923729656470E-1    1.243052948604355E-1    1.001115159173938E-1   -1.252169407399874E-1    9.738182890680444E-2   -1.225909494870793E-1    9.035258593443687E-1    1.216458940005865E-1
 1.146617431639607E5     9.010503058785159E-1    1.235516828546695E-1    9.984605295379444E-2   -1.244603883903342E-1    9.712858752419809E-2   -1.218529715001250E-1    9.037417541107441E-1    1.209068244151259E-1
 1.155365965151286E5     9.013474603814293E-1    1.227967803484876E-1    9.957337139539743E-2   -1.237039321886867E-1    9.687564281398756E-2   -1.211195603836865E-1    9.040092313591657E-1    1.201687615636894E-1
 1.164181248772018E5     9.016205057461711E-1    1.220518383130648E-1    9.929815191302749E-2   -1.229486014707166E-1    9.662821343308552E-2   -1.203934184607800E-1    9.042606932365750E-1    1.194536751716970E-1
 1.173063791795965E5     9.018482445418339E-1    1.213036688484898E-1    9.904475360109728E-2   -1.222109289979935E-1    9.638710332689032E-2   -1.196730184345774E-1    9.044737029158463E-1    1.187378880553445E-1
 1.182014107403141E5     9.021219624374784E-1    1.206086551425309E-1    9.879661509666823E-2   -1.214911348148627E-1    9.614004123837930E-2   -1.189575655583981E-1    9.047003198576365E-1    1.180369781662485E-1
 1.191032712689044E5     9.023232758439769E-1    1.198898211268198E-1    9.855976829408827E-2   -1.207740475001410E-1    9.589378936252135E-2   -1.182486895314700E-1    9.049773308051606E-1    1.173272472571871E-1
 1.200120128694542E5     9.025574944683822E-1    1.191663329629989E-1    9.831231445115318E-2   -1.200630395744302E-1    9.565708062651331E-2   -1.175467587122721E-1    9.052215125929890E-1    1.166274360955227E-1
 1.209276880435975E5     9.028238584549214E-1    1.184680663636246E-1    9.806444999937483E-2   -1.193493940558859E-1    9.541498107774474E-2   -1.168443949237249E-1    9.054654339117674E-1    1.159182819539398E-1
 1.218503496935483E5     9.030752949128700E-1    1.177440191972816E-1    9.781069159148877E-2   -1.186366606157511E-1    9.518363337667744E-2   -1.161590200817461E-1    9.057102840732937E-1    1.152303315070792E-1
 1.227800511251578E5     9.033379905153055E-1    1.170070226763176E-1    9.755506989821429E-2   -1.179262291933517E-1    9.494693080944212E-2   -1.154666470459001E-1    9.059190286021646E-1    1.145554348243480E-1
 1.237168460509929E5     9.035677881885599E-1    1.163247138213411E-1    9.731177815839669E-2   -1.172306427698750E-1    9.472183871075711E-2   -1.147898338961348E-1    9.061616863053048E-1    1.138825491427321E-1
 1.246607885934402E5     9.038007458844056E-1    1.156389285948533E-1    9.708703144363780E-2   -1.165506626448558E-1    9.449182869994693E-2   -1.141141840906865E-1    9.063560109385145E-1    1.132117046786722E-1
 1.256119332878327E5     9.040212891759762E-1    1.149885693650179E-1    9.686334960410468E-2   -1.158778205741062E-1    9.426369825602102E-2   -1.134403750609286E-1    9.065973386543448E-1    1.125502173130496E-1
 1.265703350856002E5     9.042353018772356E-1    1.142970440630272E-1    9.663515616556000E-2   -1.152008807460158E-1    9.403913207557581E-2   -1.127762009175667E-1    9.068150743904468E-1    1.118892224449515E-1
 1.275360493574453E5     9.044996214016285E-1    1.136221793278222E-1    9.639012302307354E-2   -1.145199907153614E-1    9.381557815649760E-2   -1.121161768862379E-1    9.070478779067841E-1    1.112396797135765E-1
 1.285091318965405E5     9.047224150822820E-1    1.129612181873732E-1    9.615249651688500E-2   -1.138459310716215E-1    9.359833794623718E-2   -1.114631031211515E-1    9.072606532146813E-1    1.105624282490950E-1
 1.294896389217529E5     9.049427151522733E-1    1.122922353723004E-1    9.592284610102661E-2   -1.131741970667041E-1    9.337418012425644E-2   -1.108104361767449E-1    9.074267264448602E-1    1.099082323974930E-1
 1.304776270808914E5     9.051973478982989E-1    1.116505881902611E-1    9.570425924418810E-2   -1.125283192705718E-1    9.315720575057028E-2   -1.101657900751451E-1    9.076711023890426E-1    1.092798893154169E-1
 1.314731534539810E5     9.053479022860221E-1    1.110415376919274E-1    9.552128038192438E-2   -1.119128969283309E-1    9.293778942397876E-2   -1.095295351519091E-1    9.078707066468613E-1    1.086336493521205E-1
 1.324762755565583E5     9.055372369643823E-1    1.104088370618615E-1    9.532198832510080E-2   -1.112901208797226E-1    9.273006628877216E-2   -1.088943764343736E-1    9.080670741109841E-1    1.080212335449789E-1
 1.334870513429962E5     9.057584868436439E-1    1.097674123433005E-1    9.510237598909778E-2   -1.106498584906899E-1    9.251600794453937E-2   -1.082653331538644E-1    9.082888496775767E-1    1.073701178048248E-1
 1.345055392098512E5     9.059936084550841E-1    1.091186875221649E-1    9.486554981301780E-2   -1.099958182478264E-1    9.231023303298973E-2   -1.076480116645116E-1    9.084978930070682E-1    1.067597162383326E-1
 1.355317979992373E5     9.062696860947671E-1    1.084279330656966E-1    9.459053044866646E-2   -1.093112198908841E-1    9.209828839767016E-2   -1.070236250768679E-1    9.087281410903388E-1    1.061450727453254E-1
 1.365658870022265E5     9.064822597849660E-1    1.077987142645694E-1    9.436373260758256E-2   -1.086770303515551E-1    9.189239428608559E-2   -1.064157784501622E-1    9.089248136488447E-1    1.055549572479439E-1
 1.376078659622731E5     9.066771157946185E-1    1.071977315687304E-1    9.414588493788466E-2   -1.080603879051902E-1    9.168513454766990E-2   -1.058070325545789E-1    9.091299837523444E-1    1.049295688727106E-1
 1.386577950786655E5     9.069175596954308E-1    1.065758973718959E-1    9.394201722050965E-2   -1.074501752051324E-1    9.148295366156589E-2   -1.052015544330842E-1    9.093384560415320E-1    1.043219758053971E-1
 1.397157350100044E5     9.071244110881816E-1    1.059664206791142E-1    9.373180161509623E-2   -1.068365905831871E-1    9.128167441031707E-2   -1.046052136060710E-1    9.095505382569808E-1    1.037431475026901E-1
 1.407817468777081E5     9.073080572649216E-1    1.053554995819713E-1    9.351425581454526E-2   -1.062236847991330E-1    9.107768997616469E-2   -1.040150976350566E-1    9.097251865778888E-1    1.031464935158527E-1
 1.418558922695422E5     9.075264330118237E-1    1.047482926131450E-1    9.329906148710794E-2   -1.056190355431360E-1    9.088072919808776E-2   -1.034245282020754E-1    9.099086346138270E-1    1.025506634282473E-1
 1.429382332431784E5     9.077327906289029E-1    1.041334777070803E-1    9.307883269163063E-2   -1.050114561783763E-1    9.069313264772563E-2   -1.028430696134947E-1    9.101529397913061E-1    1.019762000903933E-1
 1.440288323297804E5     9.079547488728569E-1    1.035681665988095E-1    9.287449061175473E-2   -1.044228215492891E-1    9.048692802079732E-2   -1.022608133843072E-1    9.103420041230899E-1    1.013916534389561E-1
 1.451277525376154E5     9.081751923501289E-1    1.029799204666583E-1    9.267117525761011E-2   -1.038355729606249E-1    9.028890601765459E-2   -1.016791277300556E-1    9.105024297958596E-1    1.008154205029983E-1
 1.462350573556962E5     9.083507677032832E-1    1.023968921043365E-1    9.247540188377441E-2   -1.032620492000646E-1    9.009422748936349E-2   -1.011204585903962E-1    9.107117967611774E-1    1.002510157969898E-1
 1.473508107574468E5     9.085337593877664E-1    1.018382802350752E-1    9.228356799308005E-2   -1.026915544952249E-1    8.990470455958022E-2   -1.005472021312108E-1    9.108920223160184E-1    9.969024224168660E-2
 1.484750772044004E5     9.087287779339680E-1    1.012374890071129E-1    9.206726861785942E-2   -1.021094211550173E-1    8.971284301682803E-2   -9.999093990607767E-2    9.110733046215290E-1    9.911964366674179E-2
 1.496079216499225E5     9.089455683137467E-1    1.006728664670299E-1    9.186904063597327E-2   -1.015380716526044E-1    8.952105766687361E-2   -9.943492437131310E-2    9.112545861778264E-1    9.856999700117737E-2
 1.507494095429637E5     9.091770177634465E-1    1.001059991863775E-1    9.166524602001945E-2   -1.009755238759033E-1    8.933677486503400E-2   -9.888975796100828E-2    9.114815956101232E-1    9.802106667205232E-2
 1.518996068318418E5     9.093487464544660E-1    9.957255757928708E-2    9.146983730777146E-2   -1.004179609587442E-1    8.913937056165872E-2   -9.834273562496550E-2    9.116890457504486E-1    9.748285527266486E-2
 1.530585799680507E5     9.095208140188886E-1    9.901352377656203E-2    9.129044696994168E-2   -9.988073395154234E-2    8.895640843836068E-2   -9.780128867552504E-2    9.118562901827767E-1    9.694056312338274E-2
 1.542263959101001E5     9.097364886043261E-1    9.847775219742677E-2    9.109693903973361E-2   -9.932973235912690E-2    8.876640340388096E-2   -9.726360902464676E-2    9.120352386062691E-1    9.640148623954255E-2
 1.554031221273835E5     9.099281630874564E-1    9.794084802518789E-2    9.090225553496832E-2   -9.878508364577533E-2    8.858511004637308E-2   -9.673427190276017E-2    9.122466277052165E-1    9.586801663277129E-2
 1.565888266040779E5     9.101149705147318E-1    9.738388306707356E-2    9.070332986174889E-2   -9.824545871642554E-2    8.840021904519157E-2   -9.620799616609807E-2    9.124364128648040E-1    9.534656451797989E-2
 1.577835778430689E5     9.103153738713951E-1    9.684883321266707E-2    9.050659067298482E-2   -9.770901842843066E-2    8.821516464565086E-2   -9.568386588086564E-2    9.126150109479094E-1    9.483283512155584E-2
 1.589874448699104E5     9.104666350683251E-1    9.631209788100517E-2    9.031705108702325E-2   -9.717295231103117E-2    8.803199777606030E-2   -9.516226262542073E-2    9.127761141173624E-1    9.430150221748092E-2
 1.602004972368116E5     9.106804553246549E-1    9.578891652623188E-2    9.013506186821001E-2   -9.665254086828398E-2    8.785134574101454E-2   -9.464920773280439E-2    9.129559234006329E-1    9.379817394723090E-2
 1.614228050266550E5     9.108639361198194E-1    9.527396765555010E-2    8.994913592039525E-2   -9.613655148288813E-2    8.767420766586767E-2   -9.413802354557427E-2    9.131497447022835E-1    9.328999664538475E-2
 1.626544388570473E5     9.110235712565042E-1    9.475160438196893E-2    8.976165598430999E-2   -9.561692690568564E-2    8.749087820112834E-2   -9.363143369110100E-2    9.133119644649506E-1    9.278599386338880E-2
 1.638954698843964E5     9.111758782165990E-1    9.423316813791197E-2    8.957941755239773E-2   -9.510469676909745E-2    8.730707326607445E-2   -9.312768036598101E-2    9.134862121781719E-1    9.228285196984623E-2
 1.651459698080244E5     9.113726053636635E-1    9.373784338506624E-2    8.938348634184336E-2   -9.459289815921659E-2    8.712992669278612E-2   -9.263095609709091E-2    9.136589463725739E-1    9.177911547323050E-2
 1.664060108743095E5     9.115912571545469E-1    9.321555048025576E-2    8.919774080095996E-2   -9.408697264078218E-2    8.695172902672625E-2   -9.213584369462167E-2    9.138354412948396E-1    9.127823510469740E-2
 1.676756658808590E5     9.118072011313095E-1    9.272060732585954E-2    8.901616922011833E-2   -9.359375380985209E-2    8.677499245621995E-2   -9.164950622647529E-2    9.140363977425228E-1    9.080373079363882E-2
 1.689550081807175E5     9.119736434672069E-1    9.223338389598316E-2    8.883391670167116E-2   -9.309801826029859E-2    8.660414411648427E-2   -9.117058623486911E-2    9.142241418334051E-1    9.032070296370553E-2
 1.702441116866020E5     9.121577659842987E-1    9.174543688151381E-2    8.866662328036319E-2   -9.261400573878617E-2    8.642795790917306E-2   -9.068435209805159E-2    9.143522751761922E-1    8.984039447771568E-2
 1.715430508751738E5     9.123337400366002E-1    9.126719996986674E-2    8.848651634619009E-2   -9.213183416387587E-2    8.624989968884314E-2   -9.020708314190930E-2    9.145062404007087E-1    8.935953131529675E-2
 1.728519007913403E5     9.125405843261264E-1    9.077752352051865E-2    8.829802604570040E-2   -9.164563678613667E-2    8.608052087393361E-2   -8.974103669758351E-2    9.147072199395236E-1    8.886514512304626E-2
 1.741707370525927E5     9.127009802655505E-1    9.030346632259274E-2    8.811771638344193E-2   -9.116208839614112E-2    8.590623777195767E-2   -8.926868284751141E-2    9.148606165648873E-1    8.841599309627733E-2
 1.754996358533718E5     9.128836820303059E-1    8.983655412438440E-2    8.794004076964004E-2   -9.068877947829379E-2    8.573257364739682E-2   -8.880701003878871E-2    9.150209588063067E-1    8.795054361520975E-2
 1.768386739694722E5     9.130658774789259E-1    8.934885615687359E-2    8.776370415087111E-2   -9.021644645405380E-2    8.556272923903235E-2   -8.833953357487770E-2    9.151812957984652E-1    8.747989862688499E-2
 1.781879287624771E5     9.132163991359064E-1    8.888957306158804E-2    8.758640098080892E-2   -8.975546837275175E-2    8.539676343970422E-2   -8.788925056673051E-2    9.153312541513607E-1    8.703119723585225E-2
 1.795474781842276E5     9.133842744935162E-1    8.841631184262612E-2    8.741725413794835E-2   -8.929775112137810E-2    8.522467349505407E-2   -8.743604559251371E-2    9.155400394168439E-1    8.657788247855831E-2
 1.809174007813277E5     9.135619330986282E-1    8.797395153532975E-2    8.724118086262179E-2   -8.883703616071101E-2    8.505778145199137E-2   -8.698897797785295E-2    9.157055522742690E-1    8.614490505090741E-2
 1.822977756996804E5     9.137255666855069E-1    8.750156136250850E-2    8.706039917364568E-2   -8.838283122750548E-2    8.488934555240754E-2   -8.654788455730722E-2    9.158975371169487E-1    8.568817055793294E-2
 1.836886826890609E5     9.139237502359875E-1    8.705606756065508E-2    8.688681312347343E-2   -8.793131060134232E-2    8.472179036085152E-2   -8.610504536323495E-2    9.160565580277168E-1    8.523305972535500E-2
 1.850902021077247E5     9.141203608915129E-1    8.660913770837489E-2    8.671206280020322E-2   -8.748164476423499E-2    8.455507930919971E-2   -8.566630995763720E-2    9.162354044302647E-1    8.482891313328458E-2
 1.865024149270491E5     9.142639431720184E-1    8.616884099183909E-2    8.653876508407171E-2   -8.704872259438648E-2    8.438300519120089E-2   -8.523197692121690E-2    9.163964065803590E-1    8.436900368926220E-2
 1.879254027362132E5     9.143995115558389E-1    8.572179202194385E-2    8.636769380952276E-2   -8.660840170282388E-2    8.421950034005234E-2   -8.480358988154839E-2    9.165848347096375E-1    8.394483041324423E-2
 1.893592477469092E5     9.146069224369210E-1    8.524918782600804E-2    8.618682813235967E-2   -8.617563927505885E-2    8.407465613037214E-2   -8.438098203374134E-2    9.167318620316275E-1    8.351790412224210E-2
 1.908040327980933E5     9.147621006726274E-1    8.483504380297349E-2    8.601546285637438E-2   -8.573774306791185E-2    8.387738034325368E-2   -8.394378246495787E-2    9.168727276545864E-1    8.309136884976852E-2
 1.922598413607715E5     9.149307891179528E-1    8.441731942970129E-2    8.584586479785414E-2   -8.530420791850686E-2    8.371766079254130E-2   -8.352723613027400E-2    9.170383614967100E-1    8.266565879080645E-2
 1.937267575428232E5     9.151256897631610E-1    8.399373805346962E-2    8.567368050810197E-2   -8.487914719857091E-2    8.355260162727787E-2   -8.311071714707352E-2    9.172283658993929E-1    8.224789141885230E-2
 1.952048660938581E5     9.152956170404706E-1    8.357369328611511E-2    8.550177911856850E-2   -8.446273418252992E-2    8.338734677778753E-2   -8.270304890998456E-2    9.173983800509733E-1    8.183585383668074E-2
 1.966942524101142E5     9.154725280855411E-1    8.316088937575018E-2    8.533940827924083E-2   -8.405098691760000E-2    8.322555336615990E-2   -8.229500852649770E-2    9.175322431933807E-1    8.142600394426969E-2
 1.981950025393913E5     9.156462928108273E-1    8.274794585273713E-2    8.517380192643841E-2   -8.364347367030366E-2    8.305986337240101E-2   -8.188991677401404E-2    9.177284256668218E-1    8.104085726564279E-2
