#  HZ   S   RI   R     50.00 
! Rohde & Schwarz Vector Network Analyzer 
! Rohde-Schwarz,ZNLE6-2Port,1323001256200024,1.71.1.10-23.02.1.238
! Created: UTC 4/8/2025, 5:30:26 AM
! freq[Hz]                re:S11                  im:S11                  re:S21                  im:S21                  re:S12                  im:S12                  re:S22                  im:S22
 1.000000000000000E5     9.194039178941219E-1    1.138763273659937E-1    8.148008811260193E-2   -1.146316177091345E-1    7.920338029958399E-2   -1.121290017042074E-1    9.215812241459685E-1    1.112478418409301E-1
 1.007629862646662E5     9.196306876290280E-1    1.131049681890209E-1    8.124577504176327E-2   -1.138928048702019E-1    7.899180721338397E-2   -1.114133484458317E-1    9.217448099153384E-1    1.105169697189338E-1
 1.015317940097331E5     9.198427105282613E-1    1.123986964651355E-1    8.103664717501173E-2   -1.131820781224311E-1    7.878939782324212E-2   -1.107134904625083E-1    9.219501687490612E-1    1.098410122235099E-1
 1.023064676522963E5     9.200054164002799E-1    1.116957393538779E-1    8.083543094419193E-2   -1.124852076076838E-1    7.858408782750770E-2   -1.100192845884851E-1    9.221397418907968E-1    1.091198875925925E-1
 1.030870519483485E5     9.201728309795080E-1    1.109853140111215E-1    8.063335282164880E-2   -1.117914606964534E-1    7.838600333410517E-2   -1.093295726868613E-1    9.223530924111828E-1    1.084676234696976E-1
 1.038735919953636E5     9.204058796059407E-1    1.102937312346917E-1    8.042564264079828E-2   -1.110871789833135E-1    7.818051656196105E-2   -1.086396466413449E-1    9.225739472806839E-1    1.077716597425412E-1
 1.046661332349037E5     9.206149257558063E-1    1.095794476893474E-1    8.020518903700197E-2   -1.103799388958888E-1    7.798588550146537E-2   -1.079593845053310E-1    9.227344256462914E-1    1.071027254838536E-1
 1.054647214552430E5     9.208189326104993E-1    1.088696659817446E-1    7.998731142334983E-2   -1.096760815108467E-1    7.778857597122205E-2   -1.072845223032033E-1    9.229214436603531E-1    1.064047182558832E-1
 1.062694027940149E5     9.210467340382060E-1    1.081892647083204E-1    7.977043459636680E-2   -1.089876482782830E-1    7.759730059542427E-2   -1.066191059201613E-1    9.231488924785142E-1    1.057761119332988E-1
 1.070802237408760E5     9.212437456619240E-1    1.075250532511803E-1    7.958563855774552E-2   -1.083215368819372E-1    7.740413085052132E-2   -1.059545558248866E-1    9.233289558387465E-1    1.051132106618980E-1
 1.078972311401927E5     9.214294765543493E-1    1.068684050107669E-1    7.940586000729109E-2   -1.076713998498602E-1    7.721609696089826E-2   -1.052925793704628E-1    9.235163492353993E-1    1.044565628016830E-1
 1.087204721937475E5     9.216061029484253E-1    1.062050566089114E-1    7.920713017915899E-2   -1.069996718766589E-1    7.703169767097416E-2   -1.046484954738398E-1    9.237307740363750E-1    1.038055346612115E-1
 1.095499944634658E5     9.218465825997313E-1    1.055378363892906E-1    7.900814353548920E-2   -1.063359353074663E-1    7.684068845626135E-2   -1.039914425377619E-1    9.238977912459199E-1    1.031690327220289E-1
 1.103858458741646E5     9.219848296077390E-1    1.048743957845748E-1    7.880580199925760E-2   -1.056635123808225E-1    7.665921797452184E-2   -1.033491782534072E-1    9.240989530661939E-1    1.025251435485000E-1
 1.112280747163201E5     9.222008847186839E-1    1.042115425881574E-1    7.859859535458232E-2   -1.049922676172471E-1    7.647000957487592E-2   -1.027084108856334E-1    9.242382908734907E-1    1.018960443191342E-1
 1.120767296488583E5     9.223615404490831E-1    1.035575433364001E-1    7.840763663204200E-2   -1.043543903271391E-1    7.629088026668733E-2   -1.020800104555494E-1    9.244265193021238E-1    1.012549358943348E-1
 1.129318597019661E5     9.225220011068559E-1    1.029311756541062E-1    7.823412582869599E-2   -1.037284672304822E-1    7.610712751423837E-2   -1.014440877713173E-1    9.245936360790450E-1    1.006374659073450E-1
 1.137935142799240E5     9.226885975129233E-1    1.023052059934935E-1    7.806180750791958E-2   -1.031040004655017E-1    7.593288657352631E-2   -1.008292861163249E-1    9.247888963956881E-1    1.000198162605620E-1
 1.146617431639607E5     9.228784391687507E-1    1.016688047638500E-1    7.787564486931471E-2   -1.024705321585369E-1    7.575915359245536E-2   -1.002151509554396E-1    9.249589806647029E-1    9.941170363793517E-2
 1.155365965151286E5     9.230735118785695E-1    1.010440552724896E-1    7.768444505076452E-2   -1.018349137656230E-1    7.557714591932026E-2   -9.959883441696063E-2    9.251270876783932E-1    9.879249305522311E-2
 1.164181248772018E5     9.233056043725140E-1    1.004191816370088E-1    7.749227775433717E-2   -1.012033788129777E-1    7.540870539541174E-2   -9.898987967672565E-2    9.253111719212885E-1    9.818421271798070E-2
 1.173063791795965E5     9.234432110868813E-1    9.980234458151015E-2    7.731429799764031E-2   -1.005867953174700E-1    7.523670895196211E-2   -9.839194883683534E-2    9.254752386640684E-1    9.758596628465381E-2
 1.182014107403141E5     9.236687478909144E-1    9.921961890483931E-2    7.714428690636764E-2   -9.998418852755803E-2    7.506337633200756E-2   -9.779039719292826E-2    9.256056998096248E-1    9.699381408640068E-2
 1.191032712689044E5     9.237929731954486E-1    9.860052398070304E-2    7.697739066635866E-2   -9.939212485436254E-2    7.489720411574140E-2   -9.720235456950696E-2    9.258074388863434E-1    9.639872781269011E-2
 1.200120128694542E5     9.239457718568368E-1    9.799706209942211E-2    7.679770313183625E-2   -9.879347182140159E-2    7.473070436297366E-2   -9.661370896087085E-2    9.259806606619793E-1    9.581612256230720E-2
 1.209276880435975E5     9.241388870302986E-1    9.740641006264113E-2    7.662703196007782E-2   -9.819534121124023E-2    7.456316979521081E-2   -9.602885221562588E-2    9.261634389325820E-1    9.522431622536122E-2
 1.218503496935483E5     9.243138390453606E-1    9.682191169208988E-2    7.644712463774024E-2   -9.759377480035661E-2    7.440234276970206E-2   -9.544754499184274E-2    9.263592000284403E-1    9.465535488934905E-2
 1.227800511251578E5     9.244949101050223E-1    9.620794513470683E-2    7.626542108602336E-2   -9.699933676960019E-2    7.423359583329139E-2   -9.487586566118257E-2    9.264920388803037E-1    9.409754326068334E-2
 1.237168460509929E5     9.246339688857250E-1    9.563606976145562E-2    7.610165178228898E-2   -9.642211415985047E-2    7.407427453356895E-2   -9.430461409922659E-2    9.266558042473144E-1    9.353209155220954E-2
 1.246607885934402E5     9.248222448317663E-1    9.507619920750485E-2    7.594162395909530E-2   -9.585171195446229E-2    7.391138179745767E-2   -9.374460005438526E-2    9.267836452167453E-1    9.298369026834286E-2
 1.256119332878327E5     9.249582093346994E-1    9.451268868123319E-2    7.578431245091838E-2   -9.528943436530952E-2    7.375668811951115E-2   -9.318085836103657E-2    9.269293344130678E-1    9.241905723439500E-2
 1.265703350856002E5     9.251095328657208E-1    9.394461493173421E-2    7.561768145889843E-2   -9.472504657716838E-2    7.359443927869544E-2   -9.263141194438665E-2    9.271226108325564E-1    9.186085671293950E-2
 1.275360493574453E5     9.252877789114063E-1    9.337389457711778E-2    7.545209349306481E-2   -9.415369012137274E-2    7.343898978354876E-2   -9.207840919900867E-2    9.272913080171736E-1    9.131934802965827E-2
 1.285091318965405E5     9.254597371823378E-1    9.281522365368020E-2    7.528067443535956E-2   -9.359498291648231E-2    7.328222694610720E-2   -9.153689610448190E-2    9.274618684921205E-1    9.075737446754883E-2
 1.294896389217529E5     9.256028896910855E-1    9.226390095541118E-2    7.511706839916397E-2   -9.302986009103831E-2    7.312588992584630E-2   -9.099360334181592E-2    9.276031767615605E-1    9.022357618159949E-2
 1.304776270808914E5     9.257733517254606E-1    9.170931937867353E-2    7.496673239645424E-2   -9.249374826057014E-2    7.297473817221707E-2   -9.045476940577150E-2    9.277583245276574E-1    8.970307500449207E-2
 1.314731534539810E5     9.258846434068180E-1    9.119298450844907E-2    7.483664989858282E-2   -9.198066842225326E-2    7.282013828482427E-2   -8.992527224419816E-2    9.279130152751900E-1    8.915991773498806E-2
 1.324762755565583E5     9.259991588917631E-1    9.068376332683620E-2    7.469717420567511E-2   -9.146048741226136E-2    7.267598220409975E-2   -8.939228285079739E-2    9.280200788703973E-1    8.863669766310567E-2
 1.334870513429962E5     9.261510649208687E-1    9.014165831898695E-2    7.454053735032304E-2   -9.092309664443915E-2    7.252372786943510E-2   -8.887169784684042E-2    9.281795520514300E-1    8.810248749650582E-2
 1.345055392098512E5     9.263184513559877E-1    8.959973829123644E-2    7.437097438444099E-2   -9.038032995552511E-2    7.237200301787837E-2   -8.835580274016785E-2    9.283116470806707E-1    8.760681772361394E-2
 1.355317979992373E5     9.265364180743112E-1    8.902727987326108E-2    7.417225556807418E-2   -8.980525207036505E-2    7.222407355428420E-2   -8.783743198517485E-2    9.284821283387342E-1    8.709787703176969E-2
 1.365658870022265E5     9.266812053031669E-1    8.847925999058141E-2    7.400793866986562E-2   -8.927537626212119E-2    7.207948405739167E-2   -8.732959836649491E-2    9.286212817504114E-1    8.658874392702029E-2
 1.376078659622731E5     9.268144991838122E-1    8.797943142039950E-2    7.385508603463285E-2   -8.875582147130431E-2    7.192808083567426E-2   -8.682168190275033E-2    9.287695002253574E-1    8.606863839756403E-2
 1.386577950786655E5     9.270059003255898E-1    8.747197541088284E-2    7.371393421339548E-2   -8.825436764046175E-2    7.178459075380114E-2   -8.631804098774740E-2    9.289010749543173E-1    8.556607616114019E-2
 1.397157350100044E5     9.271631828000237E-1    8.696624406419265E-2    7.355916155494892E-2   -8.774114067686659E-2    7.164160167745470E-2   -8.582203055008784E-2    9.290617347411032E-1    8.507826157282096E-2
 1.407817468777081E5     9.273199918655736E-1    8.645393385304395E-2    7.341054734145547E-2   -8.723494016593494E-2    7.150150434886779E-2   -8.532934206437381E-2    9.292036752559681E-1    8.457799302977778E-2
 1.418558922695422E5     9.274529822262817E-1    8.594662600746295E-2    7.325404470623091E-2   -8.672979679677875E-2    7.135629531067543E-2   -8.484364566498095E-2    9.293138214958171E-1    8.407264675803269E-2
 1.429382332431784E5     9.275897972531314E-1    8.545910589750753E-2    7.309279533254129E-2   -8.622187438367014E-2    7.121908700946353E-2   -8.435243723267545E-2    9.294731700553955E-1    8.359634265267989E-2
 1.440288323297804E5     9.277590009298224E-1    8.496878065802577E-2    7.294945437727077E-2   -8.572777361283340E-2    7.107366146165889E-2   -8.386907876526220E-2    9.296291751476186E-1    8.311564372973393E-2
 1.451277525376154E5     9.279212360050398E-1    8.448497199748153E-2    7.279907333737987E-2   -8.523751848072654E-2    7.093262174054234E-2   -8.339031379666373E-2    9.297344538635347E-1    8.263639743311198E-2
 1.462350573556962E5     9.280318757276215E-1    8.399182590805503E-2    7.266118933769235E-2   -8.476351419482092E-2    7.079090418575369E-2   -8.291679032522722E-2    9.298639817747678E-1    8.216255273405056E-2
 1.473508107574468E5     9.281702328267957E-1    8.351753481471681E-2    7.252708946445252E-2   -8.428906167484117E-2    7.065343671620641E-2   -8.244841064400370E-2    9.300011064693703E-1    8.168430591749921E-2
 1.484750772044004E5     9.283025498671388E-1    8.303392824933691E-2    7.237065920365617E-2   -8.380571566631759E-2    7.051624399892439E-2   -8.198027984925597E-2    9.301112204626576E-1    8.122514095106302E-2
 1.496079216499225E5     9.284392035247245E-1    8.256113399523383E-2    7.222612007729082E-2   -8.333109499059052E-2    7.037736077656685E-2   -8.152237411556437E-2    9.302615781986771E-1    8.076331903233919E-2
 1.507494095429637E5     9.285959839469319E-1    8.208802954800463E-2    7.207839933734587E-2   -8.285787828080855E-2    7.024634003475703E-2   -8.106478472136448E-2    9.304129374341434E-1    8.031535507001218E-2
 1.518996068318418E5     9.287224783208846E-1    8.163674617853313E-2    7.193927340749195E-2   -8.239445960718556E-2    7.010809274059179E-2   -8.061321912111344E-2    9.305734671559257E-1    7.986820473687323E-2
 1.530585799680507E5     9.288577161226854E-1    8.115559444311067E-2    7.180804639626970E-2   -8.195094561157250E-2    6.996486597114239E-2   -8.015827350605802E-2    9.306845823595520E-1    7.939316506127954E-2
 1.542263959101001E5     9.290154455188281E-1    8.071041832739484E-2    7.167206044310138E-2   -8.149155794375376E-2    6.983294895063270E-2   -7.971589911501087E-2    9.308318124829312E-1    7.895998831702662E-2
 1.554031221273835E5     9.291481352702898E-1    8.025510912085279E-2    7.152720183849547E-2   -8.103754239716736E-2    6.970350588680689E-2   -7.927554994029103E-2    9.309551785272859E-1    7.852181165721106E-2
 1.565888266040779E5     9.292918103689944E-1    7.980350601951119E-2    7.138904608029215E-2   -8.058440829945175E-2    6.957252021794412E-2   -7.883470202351560E-2    9.310828335216630E-1    7.810043859252978E-2
 1.577835778430689E5     9.294234862437453E-1    7.936007709175150E-2    7.123992968089553E-2   -8.013711802704382E-2    6.943671168373895E-2   -7.839760427088296E-2    9.311956874524686E-1    7.765822460303363E-2
 1.589874448699104E5     9.295492241469430E-1    7.891526853833451E-2    7.110322230528644E-2   -7.969423140950604E-2    6.930608120496769E-2   -7.796588426632747E-2    9.313555176731928E-1    7.722559010427379E-2
 1.602004972368116E5     9.296839287181884E-1    7.848260057363977E-2    7.097216009525005E-2   -7.926498058768500E-2    6.917130826663608E-2   -7.753994347627363E-2    9.314705194882191E-1    7.679265085830106E-2
 1.614228050266550E5     9.298327788510640E-1    7.804839405729026E-2    7.083958532681243E-2   -7.883154964084645E-2    6.903952170113595E-2   -7.711639368433097E-2    9.316132072407850E-1    7.636257854079083E-2
 1.626544388570473E5     9.299422392223932E-1    7.762986670837790E-2    7.069990600207630E-2   -7.839576630968566E-2    6.891089751164130E-2   -7.670014008551329E-2    9.317403656166375E-1    7.595435509015197E-2
 1.638954698843964E5     9.300790809566089E-1    7.719724938705678E-2    7.057236785182801E-2   -7.797445103572713E-2    6.878192009447565E-2   -7.627681837972280E-2    9.318278637641367E-1    7.555255681712597E-2
 1.651459698080244E5     9.302318859446324E-1    7.676074829896046E-2    7.042767213912351E-2   -7.754757490462841E-2    6.864652588342574E-2   -7.586616222580425E-2    9.319549364515314E-1    7.512128101263528E-2
 1.664060108743095E5     9.303731703584676E-1    7.635219651866910E-2    7.029081939901584E-2   -7.712846856755576E-2    6.851903308251782E-2   -7.545581459395699E-2    9.320941621590332E-1    7.471357462152856E-2
 1.676756658808590E5     9.304952691401250E-1    7.593372630880134E-2    7.016003451659530E-2   -7.671348615565106E-2    6.838699695447477E-2   -7.505238011389195E-2    9.322613152822108E-1    7.430726717441540E-2
 1.689550081807175E5     9.306248552474962E-1    7.551933477652775E-2    7.002396801882967E-2   -7.630177504706409E-2    6.826382503331516E-2   -7.465043502654614E-2    9.324013012558962E-1    7.391063946279826E-2
 1.702441116866020E5     9.307780706644101E-1    7.511615336339394E-2    6.989901895787209E-2   -7.590018658285567E-2    6.813493735077281E-2   -7.425561330288480E-2    9.325161966755953E-1    7.349358667675497E-2
 1.715430508751738E5     9.308861213617026E-1    7.470641553034106E-2    6.976938457382721E-2   -7.549904296676441E-2    6.800909351845205E-2   -7.385499359198379E-2    9.326400629281738E-1    7.310298438878442E-2
 1.728519007913403E5     9.310233872746629E-1    7.431365522026909E-2    6.962808783329891E-2   -7.509187706942672E-2    6.788137503166612E-2   -7.346439080823233E-2    9.327631068853233E-1    7.269884476545724E-2
 1.741707370525927E5     9.311391754015655E-1    7.390890635509816E-2    6.949871075517822E-2   -7.469443286293867E-2    6.775652408779541E-2   -7.307219115415885E-2    9.328966720293670E-1    7.231420787752316E-2
 1.754996358533718E5     9.312625346365698E-1    7.352620873474161E-2    6.936758471950759E-2   -7.429675521861334E-2    6.762658548501209E-2   -7.268990570470153E-2    9.330036380815928E-1    7.193234679864864E-2
 1.768386739694722E5     9.314179094435628E-1    7.312698643141916E-2    6.923736426719355E-2   -7.391047477006636E-2    6.750133939500429E-2   -7.230412802746786E-2    9.331318121168977E-1    7.154422577609464E-2
 1.781879287624771E5     9.315489614274026E-1    7.275626380058117E-2    6.911246331605622E-2   -7.352176613677038E-2    6.737839914184460E-2   -7.193000636273383E-2    9.332396697872496E-1    7.116063830144063E-2
 1.795474781842276E5     9.316856667934627E-1    7.234710500638961E-2    6.898537996629747E-2   -7.314170448336127E-2    6.725190788443922E-2   -7.155351741600219E-2    9.333808290027638E-1    7.079810299958558E-2
 1.809174007813277E5     9.317942489623843E-1    7.198215936985826E-2    6.885490849115285E-2   -7.276130176966865E-2    6.712858586527640E-2   -7.118122551755360E-2    9.335075914919706E-1    7.042962295791400E-2
 1.822977756996804E5     9.319299282224331E-1    7.158943748653665E-2    6.872176574962191E-2   -7.238058259128176E-2    6.700534989506790E-2   -7.081379972188882E-2    9.336301507541878E-1    7.004976097350457E-2
 1.836886826890609E5     9.320688030225760E-1    7.121811351908829E-2    6.859357041951032E-2   -7.200647419266878E-2    6.687467998420617E-2   -7.044581468131249E-2    9.337109860282184E-1    6.965640822714524E-2
 1.850902021077247E5     9.322285542481925E-1    7.084812052945881E-2    6.846516651298705E-2   -7.163953562498124E-2    6.675655091343217E-2   -7.008130926366711E-2    9.338867460259758E-1    6.933162978070380E-2
 1.865024149270491E5     9.323347992430838E-1    7.047093721204448E-2    6.833612027854997E-2   -7.126897137166489E-2    6.662494304010495E-2   -6.972068346316368E-2    9.339650385053355E-1    6.894640919214981E-2
 1.879254027362132E5     9.324544755384605E-1    7.009371070732134E-2    6.821241530925669E-2   -7.090802737849035E-2    6.650649042474469E-2   -6.936488561741380E-2    9.341466948994723E-1    6.860192376567265E-2
 1.893592477469092E5     9.326060386906363E-1    6.970612301606781E-2    6.806949420868016E-2   -7.054783076823946E-2    6.640371091072671E-2   -6.901678449471622E-2    9.342637135399021E-1    6.826170411155276E-2
 1.908040327980933E5     9.326964454017149E-1    6.937623366639573E-2    6.794587887203683E-2   -7.018097702876930E-2    6.625597555834997E-2   -6.865818268051353E-2    9.343911887610806E-1    6.789429980256029E-2
 1.922598413607715E5     9.328347100602771E-1    6.902968399622383E-2    6.782284251787656E-2   -6.982175893676483E-2    6.613666603274874E-2   -6.831019554866904E-2    9.345228140391247E-1    6.753758086944149E-2
 1.937267575428232E5     9.329538296095454E-1    6.866164962431739E-2    6.769532049354329E-2   -6.947203938142829E-2    6.600935317703291E-2   -6.796379498810289E-2    9.346324751604007E-1    6.718904598884368E-2
 1.952048660938581E5     9.330962440069138E-1    6.831080169762420E-2    6.756659730408868E-2   -6.912562172172475E-2    6.589115444390829E-2   -6.762246037051113E-2    9.347591334642205E-1    6.685344702294316E-2
 1.966942524101142E5     9.332465992445130E-1    6.796344157574544E-2    6.744728499752387E-2   -6.878350616258339E-2    6.576659181292069E-2   -6.728526188878850E-2    9.348313011793683E-1    6.650404817306227E-2
 1.981950025393913E5     9.333896360588819E-1    6.762725114125072E-2    6.731955299139732E-2   -6.844435631258196E-2    6.564157425615877E-2   -6.694790867733805E-2    9.349828611710737E-1    6.617854278081836E-2
