#  HZ   S   RI   R     50.00 
! Rohde & Schwarz Vector Network Analyzer 
! Rohde-Schwarz,ZNLE6-2Port,1323001256200024,1.71.1.10-23.02.1.238
! Created: UTC 4/8/2025, 5:21:41 AM
! freq[Hz]                re:S11                  im:S11                  re:S21                  im:S21                  re:S12                  im:S12                  re:S22                  im:S22
 1.000000000000000E5     9.358096720625531E-1    9.506066132475585E-2    6.492286063932003E-2   -9.573318783843446E-2    6.312776447703991E-2   -9.356235780647129E-2    9.374797828296902E-1    9.279068392362938E-2
 1.007629862646662E5     9.359738323374199E-1    9.442046014642179E-2    6.475155904978309E-2   -9.511101342712988E-2    6.297593824996905E-2   -9.295918552228170E-2    9.376312460097078E-1    9.218052715318520E-2
 1.015317940097331E5     9.361372816419889E-1    9.381803356490415E-2    6.460775583671914E-2   -9.451052907806079E-2    6.282592970377099E-2   -9.236837700033623E-2    9.377579183408548E-1    9.161121424162895E-2
 1.023064676522963E5     9.362192993738564E-1    9.321460908274255E-2    6.445901517718651E-2   -9.392061111083172E-2    6.268496904521009E-2   -9.177828587409567E-2    9.379128866514513E-1    9.101436292823695E-2
 1.030870519483485E5     9.363701730022084E-1    9.262216496942480E-2    6.432282313308425E-2   -9.333857876930342E-2    6.253807617222751E-2   -9.119968426933733E-2    9.380386326170883E-1    9.044399574335144E-2
 1.038735919953636E5     9.365163600432804E-1    9.202329926387186E-2    6.416925599245553E-2   -9.274106911428565E-2    6.239422647078784E-2   -9.061519857863751E-2    9.381988194651463E-1    8.985038207014963E-2
 1.046661332349037E5     9.366591195874387E-1    9.140649503879447E-2    6.400989857884092E-2   -9.214386303032908E-2    6.225244931230238E-2   -9.004134852314659E-2    9.382982614809954E-1    8.927829317163997E-2
 1.054647214552430E5     9.368375286178442E-1    9.081012565963387E-2    6.385528300250420E-2   -9.154793934125592E-2    6.211405996581468E-2   -8.947505672462149E-2    9.384696708253382E-1    8.872882005756140E-2
 1.062694027940149E5     9.369853721535178E-1    9.023614904893269E-2    6.369936675411204E-2   -9.096755734608354E-2    6.197591605668094E-2   -8.891235548061494E-2    9.386431942559025E-1    8.817714861488284E-2
 1.070802237408760E5     9.370969570901329E-1    8.967243460753417E-2    6.356450980844797E-2   -9.040265625668964E-2    6.183790565786489E-2   -8.835523977676449E-2    9.387949571573022E-1    8.761605931042721E-2
 1.078972311401927E5     9.372470007004026E-1    8.911347403412348E-2    6.344055237601144E-2   -8.985142581656234E-2    6.169889972143736E-2   -8.779308668989985E-2    9.388754440168954E-1    8.706130699549199E-2
 1.087204721937475E5     9.373714436262023E-1    8.856313855091977E-2    6.329732202081415E-2   -8.928544402570730E-2    6.156629305158717E-2   -8.724687916929151E-2    9.390272874349502E-1    8.651374599860696E-2
 1.095499944634658E5     9.375210235913559E-1    8.798092551663030E-2    6.315413619460794E-2   -8.872579182564279E-2    6.143165651230936E-2   -8.669547563039373E-2    9.391576794761320E-1    8.597045411750849E-2
 1.103858458741646E5     9.376280367252789E-1    8.743724035681499E-2    6.300270409248017E-2   -8.816092425671164E-2    6.129805972689395E-2   -8.615295508081455E-2    9.392954828444978E-1    8.542122946040655E-2
 1.112280747163201E5     9.377640973735817E-1    8.686436753224047E-2    6.285189994768541E-2   -8.759007695814847E-2    6.116436602113187E-2   -8.561765388643999E-2    9.393928211799741E-1    8.489218840614027E-2
 1.120767296488583E5     9.378814468468655E-1    8.631757371818652E-2    6.272101101111802E-2   -8.705174553302548E-2    6.103213547180323E-2   -8.508456542154261E-2    9.395259722366230E-1    8.435394628302890E-2
 1.129318597019661E5     9.379957528950706E-1    8.577466120530269E-2    6.259212612727157E-2   -8.652343908491548E-2    6.090166162014005E-2   -8.455474637886796E-2    9.396635581497522E-1    8.383670836453032E-2
 1.137935142799240E5     9.381263902796688E-1    8.525783115934787E-2    6.247259351471104E-2   -8.599847968424823E-2    6.077696956039467E-2   -8.403685068813137E-2    9.398287551847621E-1    8.331730214657170E-2
 1.146617431639607E5     9.382733501598419E-1    8.471636233517665E-2    6.233754472623354E-2   -8.546261877372845E-2    6.064893100659972E-2   -8.351516207768045E-2    9.399451551576807E-1    8.282058239457035E-2
 1.155365965151286E5     9.383959467249728E-1    8.418900620979619E-2    6.219557288441124E-2   -8.492719512068081E-2    6.052171672955518E-2   -8.299583929223245E-2    9.400342889043131E-1    8.227943715316252E-2
 1.164181248772018E5     9.385437642601585E-1    8.365621047283882E-2    6.205805867716091E-2   -8.439458526116822E-2    6.039377782946181E-2   -8.248674993002449E-2    9.401988299416680E-1    8.178259523872647E-2
 1.173063791795965E5     9.386674054668932E-1    8.312951474910174E-2    6.192880328155319E-2   -8.387555687031018E-2    6.027307946942313E-2   -8.197977888766450E-2    9.403051844969449E-1    8.125732888442437E-2
 1.182014107403141E5     9.388055177963192E-1    8.263746344402272E-2    6.180416754855479E-2   -8.336840521830229E-2    6.015518497893148E-2   -8.147361169742420E-2    9.404062513512140E-1    8.077328553270464E-2
 1.191032712689044E5     9.389054252382635E-1    8.211584519394553E-2    6.168459997911010E-2   -8.286272899574382E-2    6.002748773822276E-2   -8.097569759127661E-2    9.405425938483215E-1    8.027216023608544E-2
 1.200120128694542E5     9.390160934785929E-1    8.161981458240151E-2    6.156002153048244E-2   -8.235996745487661E-2    5.991018105224347E-2   -8.048484513497016E-2    9.406837740474938E-1    7.977288077622757E-2
 1.209276880435975E5     9.391456089408801E-1    8.112420329279624E-2    6.143136419456798E-2   -8.185842649380007E-2    5.978420764574695E-2   -7.999136274557804E-2    9.407990875518161E-1    7.928587434424443E-2
 1.218503496935483E5     9.392557349034776E-1    8.061924128522938E-2    6.130007067527581E-2   -8.134752398419466E-2    5.966559662733883E-2   -7.950594117835454E-2    9.409338139191514E-1    7.879598044815302E-2
 1.227800511251578E5     9.393857826590548E-1    8.009676021720091E-2    6.116743279889775E-2   -8.084801996787314E-2    5.954793943154291E-2   -7.902283211731280E-2    9.410496658412548E-1    7.832212654078687E-2
 1.237168460509929E5     9.395073016277552E-1    7.961665821514022E-2    6.104813332516615E-2   -8.036302436286871E-2    5.943291793986975E-2   -7.854273577091965E-2    9.411530779953148E-1    7.785367360392742E-2
 1.246607885934402E5     9.396341235352332E-1    7.913576489741875E-2    6.093301855140468E-2   -7.988037628416460E-2    5.930816520350939E-2   -7.806715912802463E-2    9.412171755431863E-1    7.737902937067305E-2
 1.256119332878327E5     9.397181488575955E-1    7.867323957734459E-2    6.081848550670512E-2   -7.940818644456442E-2    5.919276443303918E-2   -7.759434984962420E-2    9.413516583940075E-1    7.691868267671600E-2
 1.265703350856002E5     9.398106145690829E-1    7.819575195665726E-2    6.070181468133082E-2   -7.893253373037724E-2    5.908128605978144E-2   -7.713029549162191E-2    9.414936477320763E-1    7.643447494720157E-2
 1.275360493574453E5     9.399405091490101E-1    7.770525887368646E-2    6.057627316454021E-2   -7.845181560023713E-2    5.896824036802834E-2   -7.666512057285667E-2    9.416046482198577E-1    7.598469917767492E-2
 1.285091318965405E5     9.400879763755738E-1    7.722080228632250E-2    6.045302238411579E-2   -7.798057937087982E-2    5.885586542366859E-2   -7.620701981694586E-2    9.417294431393902E-1    7.552577734957326E-2
 1.294896389217529E5     9.402092176006718E-1    7.675671634526368E-2    6.033216864293649E-2   -7.750938332140331E-2    5.874237050207445E-2   -7.574879582984628E-2    9.418218683082017E-1    7.507195077727692E-2
 1.304776270808914E5     9.403268477870979E-1    7.631442473302441E-2    6.022533798313526E-2   -7.705483097267687E-2    5.862573837404926E-2   -7.529895269307033E-2    9.419294952491035E-1    7.462275238665106E-2
 1.314731534539810E5     9.404231532783739E-1    7.588277253683695E-2    6.013281469228760E-2   -7.662111771325635E-2    5.851480248863528E-2   -7.485352724094085E-2    9.420612210520359E-1    7.416794372184345E-2
 1.324762755565583E5     9.404788542713285E-1    7.544850836129535E-2    6.003006460666461E-2   -7.618303245422543E-2    5.840610105202197E-2   -7.440695995536213E-2    9.421395018201267E-1    7.372380932577982E-2
 1.334870513429962E5     9.406216794202275E-1    7.498694722416203E-2    5.991471332374370E-2   -7.573322372655769E-2    5.829689548874200E-2   -7.396677399299231E-2    9.422503535673841E-1    7.327549499566439E-2
 1.345055392098512E5     9.407389491294681E-1    7.453080497136609E-2    5.979221308286939E-2   -7.527473632883297E-2    5.818688846769192E-2   -7.353255831234916E-2    9.423370821076912E-1    7.285881391468242E-2
 1.355317979992373E5     9.408962559943752E-1    7.404115683763242E-2    5.963903500322842E-2   -7.479618635778790E-2    5.807779094475709E-2   -7.309696403712460E-2    9.425042594517463E-1    7.242840102068637E-2
 1.365658870022265E5     9.409865523277582E-1    7.359293316412617E-2    5.951919399165011E-2   -7.434905491795744E-2    5.797139162777450E-2   -7.267134117601542E-2    9.426109501976181E-1    7.200108547465352E-2
 1.376078659622731E5     9.410846437979945E-1    7.316941575948338E-2    5.940872889784559E-2   -7.391579230969916E-2    5.786642865539272E-2   -7.224638001348752E-2    9.427006520294196E-1    7.156152427546411E-2
 1.386577950786655E5     9.412420184926482E-1    7.275484019329546E-2    5.930375895139903E-2   -7.348771562233303E-2    5.775535232652700E-2   -7.182162669052918E-2    9.427941634933951E-1    7.114512919802747E-2
 1.397157350100044E5     9.413402067205907E-1    7.231543466961157E-2    5.919056923624651E-2   -7.305586501266351E-2    5.765256400685902E-2   -7.140519628781698E-2    9.429209363450630E-1    7.074011746852109E-2
 1.407817468777081E5     9.414426742318940E-1    7.188655140256110E-2    5.907646681249169E-2   -7.262920477053825E-2    5.754400314399914E-2   -7.099071183894783E-2    9.430398467781900E-1    7.031979973425834E-2
 1.418558922695422E5     9.415416753255197E-1    7.145486130487788E-2    5.896599725796791E-2   -7.220456598483024E-2    5.743896354153299E-2   -7.057928913706139E-2    9.431083060817032E-1    6.990104125983601E-2
 1.429382332431784E5     9.416633865678341E-1    7.104134621312123E-2    5.884308814141451E-2   -7.177729117536839E-2    5.733968349066981E-2   -7.017117901224895E-2    9.432247948238660E-1    6.949787846720144E-2
 1.440288323297804E5     9.417755191246543E-1    7.063927317814614E-2    5.873485263995683E-2   -7.136410705337565E-2    5.722822646909114E-2   -6.976837305942145E-2    9.433367126851271E-1    6.908898335088837E-2
 1.451277525376154E5     9.418971046039099E-1    7.022305315969704E-2    5.862884360058992E-2   -7.095090547292547E-2    5.712085542713610E-2   -6.936185847893570E-2    9.434440837351785E-1    6.868407157053866E-2
 1.462350573556962E5     9.419866935736279E-1    6.981347207337929E-2    5.852804628045616E-2   -7.055329560402444E-2    5.702036489718425E-2   -6.896809336265122E-2    9.435519843306002E-1    6.828609262940495E-2
 1.473508107574468E5     9.420923080868708E-1    6.941251917342924E-2    5.842529016193387E-2   -7.014985162622153E-2    5.691636346689595E-2   -6.857201141601754E-2    9.436596767445193E-1    6.789866215180511E-2
 1.484750772044004E5     9.422187405656032E-1    6.900551680898938E-2    5.830623559219840E-2   -6.974704240253116E-2    5.681734668925204E-2   -6.818112480201584E-2    9.437445603584461E-1    6.749199380833582E-2
 1.496079216499225E5     9.423039989374499E-1    6.859947126908704E-2    5.820315783476347E-2   -6.934285054939746E-2    5.671437668768466E-2   -6.779645847688028E-2    9.438282759164317E-1    6.711096288645517E-2
 1.507494095429637E5     9.424358943621068E-1    6.821124826897981E-2    5.809020273533757E-2   -6.894791879061656E-2    5.661623812892203E-2   -6.741009961665255E-2    9.439417421967569E-1    6.671838060369603E-2
 1.518996068318418E5     9.425113477746863E-1    6.782372782467946E-2    5.798458781497516E-2   -6.855986542097027E-2    5.650984829604414E-2   -6.702916215873590E-2    9.440658406572606E-1    6.633566188194494E-2
 1.530585799680507E5     9.426117600473158E-1    6.744081860643390E-2    5.788818558072156E-2   -6.818131320840884E-2    5.640830331253736E-2   -6.664864309514855E-2    9.441224242783183E-1    6.594896084835045E-2
 1.542263959101001E5     9.427289149631521E-1    6.706558026961802E-2    5.778329178568711E-2   -6.779873435537316E-2    5.630697361645036E-2   -6.627278382895328E-2    9.442056133826652E-1    6.557275419592884E-2
 1.554031221273835E5     9.428620862119895E-1    6.669207525120020E-2    5.768114771030539E-2   -6.741845065035634E-2    5.621225569809816E-2   -6.590157090383292E-2    9.443359642502691E-1    6.521664270419059E-2
 1.565888266040779E5     9.429464922988036E-1    6.630211623485809E-2    5.757543141280440E-2   -6.703514852209834E-2    5.611107249242844E-2   -6.553387515211279E-2    9.444406599641031E-1    6.485937298461988E-2
 1.577835778430689E5     9.430491795595235E-1    6.592735229702737E-2    5.746708021753195E-2   -6.666105682240830E-2    5.601244288135673E-2   -6.517137970392073E-2    9.445294044837753E-1    6.449788084003981E-2
 1.589874448699104E5     9.431446963290993E-1    6.554391406201597E-2    5.736514379340940E-2   -6.628789164717973E-2    5.591134897169300E-2   -6.481024692158405E-2    9.446531839446927E-1    6.412799586960377E-2
 1.602004972368116E5     9.432405859455028E-1    6.518618800196845E-2    5.726721065594127E-2   -6.592493112631806E-2    5.581070456820868E-2   -6.445198044169931E-2    9.447418992119233E-1    6.376571374556514E-2
 1.614228050266550E5     9.433513628973760E-1    6.482170499009622E-2    5.716797890501681E-2   -6.556320937108982E-2    5.571451000882267E-2   -6.409695081431961E-2    9.448379503294767E-1    6.340332856964437E-2
 1.626544388570473E5     9.434546478326377E-1    6.446301303550059E-2    5.706438117126178E-2   -6.520172303884968E-2    5.561574208497122E-2   -6.374122329053439E-2    9.449436436909832E-1    6.307102778037434E-2
 1.638954698843964E5     9.435408505862343E-1    6.410400697657523E-2    5.696708152462308E-2   -6.484416860289881E-2    5.551671205269683E-2   -6.339215721346511E-2    9.450261723509061E-1    6.271714724112708E-2
 1.651459698080244E5     9.436636189077123E-1    6.373948581042274E-2    5.685713774089421E-2   -6.448443347944062E-2    5.541757639314797E-2   -6.304187773301312E-2    9.451095709017707E-1    6.236657305166687E-2
 1.664060108743095E5     9.437523530448580E-1    6.340295112845491E-2    5.675388781574096E-2   -6.413292945344604E-2    5.531897495434341E-2   -6.270061291361184E-2    9.451821996300707E-1    6.200791552261950E-2
 1.676756658808590E5     9.438472197362328E-1    6.305188764050869E-2    5.665841036661090E-2   -6.378435322319795E-2    5.522296245315254E-2   -6.235981894974878E-2    9.453476491751865E-1    6.167088723424945E-2
 1.689550081807175E5     9.439278475012519E-1    6.271663615192030E-2    5.655201602110595E-2   -6.343636785974131E-2    5.513111203122554E-2   -6.202227710052501E-2    9.454540298658561E-1    6.134319839605987E-2
 1.702441116866020E5     9.440636504437759E-1    6.236009674082645E-2    5.646067782420489E-2   -6.310624807472405E-2    5.503234115954544E-2   -6.168821964009120E-2    9.455185166048489E-1    6.100350628087550E-2
 1.715430508751738E5     9.441376734441378E-1    6.200344952342372E-2    5.635931939446936E-2   -6.276470862273514E-2    5.493366038622504E-2   -6.135552097525170E-2    9.455915932871366E-1    6.067249021670978E-2
 1.728519007913403E5     9.442422170980602E-1    6.166518323179808E-2    5.625031316599333E-2   -6.241988772461191E-2    5.483658638453101E-2   -6.102729173276186E-2    9.456837514784904E-1    6.031941654873637E-2
 1.741707370525927E5     9.443311730689045E-1    6.133722122057175E-2    5.615487009275773E-2   -6.208393251646720E-2    5.474160140059047E-2   -6.070189440139970E-2    9.457740219941306E-1    6.000718679809650E-2
 1.754996358533718E5     9.444161297309536E-1    6.100697871623736E-2    5.605656427225882E-2   -6.175417918555264E-2    5.464615494027020E-2   -6.037629182797676E-2    9.458623530562237E-1    5.968990550653062E-2
 1.768386739694722E5     9.445375521002585E-1    6.067416084076305E-2    5.595801844965889E-2   -6.142864300731218E-2    5.455220101614774E-2   -6.005581751236318E-2    9.459612762548186E-1    5.936346521174814E-2
 1.781879287624771E5     9.446177281645290E-1    6.035755139346154E-2    5.586170736829876E-2   -6.110382727459578E-2    5.445719704130262E-2   -5.973972893884405E-2    9.460350799693331E-1    5.903748388955399E-2
 1.795474781842276E5     9.447436994417653E-1    6.004175057883248E-2    5.576435198418367E-2   -6.078615470278984E-2    5.435860920679535E-2   -5.942310793742626E-2    9.461619080282726E-1    5.872406782526140E-2
 1.809174007813277E5     9.448389975392237E-1    5.970556063972222E-2    5.566305583588414E-2   -6.046229613093122E-2    5.426572041260685E-2   -5.911027268041066E-2    9.462611246875395E-1    5.840982635355181E-2
 1.822977756996804E5     9.449069974548812E-1    5.937382343267088E-2    5.556062483483003E-2   -6.014571152571237E-2    5.416979415846076E-2   -5.879898876533608E-2    9.463605014544857E-1    5.810514737682118E-2
 1.836886826890609E5     9.450534471266935E-1    5.908094537692399E-2    5.546443094636065E-2   -5.982887537797010E-2    5.407418495123330E-2   -5.849544264321600E-2    9.464264719864823E-1    5.778377257264947E-2
 1.850902021077247E5     9.451819904687085E-1    5.875293540389164E-2    5.536422918990148E-2   -5.951918822367859E-2    5.398170108872365E-2   -5.819103814091093E-2    9.465513451292267E-1    5.750065882603739E-2
 1.865024149270491E5     9.452384339515749E-1    5.844736101610598E-2    5.526778262268787E-2   -5.921127701903057E-2    5.388044709414591E-2   -5.788960110695604E-2    9.466198072526024E-1    5.716746077132933E-2
 1.879254027362132E5     9.453192177031978E-1    5.812088627944780E-2    5.516982027138585E-2   -5.890317637510163E-2    5.378780544971443E-2   -5.758639905373473E-2    9.467383352339690E-1    5.687127137435316E-2
 1.893592477469092E5     9.454460750040442E-1    5.785541634137023E-2    5.510099528914888E-2   -5.860993841473793E-2    5.367387708042277E-2   -5.728103733027211E-2    9.468029339921745E-1    5.658482103407629E-2
 1.908040327980933E5     9.454936071935867E-1    5.750450325211735E-2    5.496781634244188E-2   -5.829004260336614E-2    5.359485188617485E-2   -5.698929628734597E-2    9.468999380740036E-1    5.628436980108417E-2
 1.922598413607715E5     9.455872509393187E-1    5.722465573568804E-2    5.487049643904254E-2   -5.799774985033916E-2    5.350373600053598E-2   -5.669938202457818E-2    9.469791513506740E-1    5.598023908102780E-2
 1.937267575428232E5     9.457131885905031E-1    5.692693150940583E-2    5.477325982932361E-2   -5.770135567487058E-2    5.340881948866488E-2   -5.641519142010652E-2    9.470888497964689E-1    5.568448413206446E-2
 1.952048660938581E5     9.458387399303760E-1    5.663495890980787E-2    5.467719621167439E-2   -5.740931151164301E-2    5.331205271605573E-2   -5.612721720694220E-2    9.472142300825385E-1    5.539545417446749E-2
 1.966942524101142E5     9.459134315196390E-1    5.632477772300516E-2    5.457767209046051E-2   -5.711942269417178E-2    5.321861357431593E-2   -5.584633480382196E-2    9.472986486071764E-1    5.511330095621549E-2
 1.981950025393913E5     9.459960628661851E-1    5.603574832989366E-2    5.448850532379675E-2   -5.683534757167867E-2    5.312322273893454E-2   -5.555897037757609E-2    9.474048619017003E-1    5.483877973838598E-2
