#  HZ   S   RI   R     50.00 
! Rohde & Schwarz Vector Network Analyzer 
! Rohde-Schwarz,ZNLE6-2Port,1323001256200024,1.71.1.10-23.02.1.238
! Created: UTC 4/8/2025, 5:10:16 AM
! freq[Hz]                re:S11                  im:S11                  re:S21                  im:S21                  re:S12                  im:S12                  re:S22                  im:S22
 1.000000000000000E5     9.476995208129394E-1    8.002399392016059E-2    5.291125364153838E-2   -8.060892705286743E-2    5.146290932686642E-2   -7.872832224529357E-2    9.491558116463479E-1    7.806927584304413E-2
 1.007629862646662E5     9.478303236170461E-1    7.946591045991573E-2    5.278756828578950E-2   -8.007905044549214E-2    5.135346521078761E-2   -7.822301957985842E-2    9.492351100269902E-1    7.754774207794989E-2
 1.015317940097331E5     9.479599561707334E-1    7.894796217375605E-2    5.268243754472476E-2   -7.957323980527307E-2    5.124331512360931E-2   -7.772093210965574E-2    9.493247077282005E-1    7.704850492674195E-2
 1.023064676522963E5     9.480215850745775E-1    7.843946653907546E-2    5.257706902975973E-2   -7.907011587077964E-2    5.113813502410140E-2   -7.722231777355652E-2    9.494431101056647E-1    7.653697799170070E-2
 1.030870519483485E5     9.481234913769709E-1    7.794803998185897E-2    5.247193331088490E-2   -7.857737435844166E-2    5.103241706806532E-2   -7.673197349758806E-2    9.495277214266701E-1    7.608948567634671E-2
 1.038735919953636E5     9.482245319152252E-1    7.743257671199241E-2    5.236508710950120E-2   -7.807167273261717E-2    5.092574373851798E-2   -7.623621429488223E-2    9.496509328179726E-1    7.557340587141123E-2
 1.046661332349037E5     9.483242361853472E-1    7.691991827513504E-2    5.224377414165779E-2   -7.756285735760865E-2    5.082299438381179E-2   -7.574995993298660E-2    9.497269145193333E-1    7.508306018084603E-2
 1.054647214552430E5     9.484291417757633E-1    7.641542485477172E-2    5.213485236858809E-2   -7.705592970445224E-2    5.072076841088655E-2   -7.526945167907825E-2    9.497994171703775E-1    7.459714111629548E-2
 1.062694027940149E5     9.485669924135623E-1    7.592649586089409E-2    5.201781944908783E-2   -7.656639890239404E-2    5.061747426551721E-2   -7.479520816691779E-2    9.499391450299776E-1    7.414704244442195E-2
 1.070802237408760E5     9.486606578926556E-1    7.543786351696523E-2    5.191931617276320E-2   -7.608859531987527E-2    5.051544490800225E-2   -7.431895466332671E-2    9.500286253531711E-1    7.367480930202430E-2
 1.078972311401927E5     9.487587098710877E-1    7.497707403324723E-2    5.182940826979211E-2   -7.562300135415198E-2    5.041557360207700E-2   -7.384655473189933E-2    9.501104342113993E-1    7.320661546651376E-2
 1.087204721937475E5     9.488431118796806E-1    7.449865365161164E-2    5.172179128329912E-2   -7.514231409988530E-2    5.031750116003118E-2   -7.338273058989611E-2    9.502404215975888E-1    7.275159400335848E-2
 1.095499944634658E5     9.489638269609781E-1    7.401352383845070E-2    5.161234461466049E-2   -7.466810484539281E-2    5.021691100805088E-2   -7.291747413302284E-2    9.503326520492249E-1    7.228968605889084E-2
 1.103858458741646E5     9.490324763054117E-1    7.354105359148044E-2    5.150227427007412E-2   -7.418726162599594E-2    5.011564490816931E-2   -7.245935077676627E-2    9.504362870966672E-1    7.182471411665332E-2
 1.112280747163201E5     9.491402728653806E-1    7.306122142543878E-2    5.139319759378121E-2   -7.370732719692398E-2    5.001795183522494E-2   -7.200325737824856E-2    9.505062818689681E-1    7.136583381387830E-2
 1.120767296488583E5     9.492145867671478E-1    7.259700849413127E-2    5.129534117411545E-2   -7.324739340698896E-2    4.992428343715356E-2   -7.155314119397790E-2    9.505924254797750E-1    7.091918558457620E-2
 1.129318597019661E5     9.493216077438871E-1    7.215728417213114E-2    5.119950029100954E-2   -7.280187048834796E-2    4.982478979285897E-2   -7.110724890137143E-2    9.507095516605041E-1    7.047796269107050E-2
 1.137935142799240E5     9.494199785804565E-1    7.171905223597892E-2    5.111208962310256E-2   -7.235844785043773E-2    4.973477606154224E-2   -7.066261648717503E-2    9.508204605179901E-1    7.004286730918906E-2
 1.146617431639607E5     9.495475921131126E-1    7.125836881075687E-2    5.101640152973171E-2   -7.190776793891518E-2    4.963927033366323E-2   -7.022891098358360E-2    9.509072551653662E-1    6.960551346479617E-2
 1.155365965151286E5     9.496573640477938E-1    7.079210987037196E-2    5.091218197687212E-2   -7.145278531309000E-2    4.954273254705804E-2   -6.978574010242210E-2    9.509603701622078E-1    6.914914522725657E-2
 1.164181248772018E5     9.497303019300679E-1    7.034158430807413E-2    5.080638358463401E-2   -7.099980473540009E-2    4.944942317262275E-2   -6.935542757447970E-2    9.510809156650479E-1    6.872045556982542E-2
 1.173063791795965E5     9.498122364028321E-1    6.990038810748052E-2    5.071179471838840E-2   -7.055714192659170E-2    4.935907284313221E-2   -6.892495284310557E-2    9.511078298421046E-1    6.830902585339084E-2
 1.182014107403141E5     9.499218593783215E-1    6.947410366976865E-2    5.061601866603056E-2   -7.012768734612485E-2    4.926557408238676E-2   -6.849963144174626E-2    9.511910490248316E-1    6.788467290134656E-2
 1.191032712689044E5     9.500057771662717E-1    6.904292359678420E-2    5.053115590151614E-2   -6.970666230876417E-2    4.917927037411074E-2   -6.807729687128344E-2    9.513314654778462E-1    6.745170910799492E-2
 1.200120128694542E5     9.500551770830906E-1    6.861710430551012E-2    5.043568365919954E-2   -6.927979674251446E-2    4.908615586136814E-2   -6.766021920907718E-2    9.514167417844235E-1    6.704576905540556E-2
 1.209276880435975E5     9.501555442351277E-1    6.820271324020519E-2    5.033771138505568E-2   -6.885454172981041E-2    4.899594476169326E-2   -6.724573777677238E-2    9.515130279381216E-1    6.661990745038483E-2
 1.218503496935483E5     9.502550090817191E-1    6.776638660328492E-2    5.024398396123842E-2   -6.842011724562398E-2    4.890695387174430E-2   -6.683292715719276E-2    9.515970969985851E-1    6.620665588808579E-2
 1.227800511251578E5     9.503799826842346E-1    6.732877801948994E-2    5.014349798365521E-2   -6.800112900381877E-2    4.881670822756363E-2   -6.642375667914041E-2    9.516767422064618E-1    6.580801995356333E-2
 1.237168460509929E5     9.504708905771153E-1    6.691687515342688E-2    5.005526679537126E-2   -6.759135217642991E-2    4.872657165583191E-2   -6.602063340774278E-2    9.517820821987144E-1    6.540665243934332E-2
 1.246607885934402E5     9.505396265002224E-1    6.650147303727055E-2    4.996711935021466E-2   -6.718540779507760E-2    4.864227295513071E-2   -6.561809522770515E-2    9.518239912441573E-1    6.500093961526006E-2
 1.256119332878327E5     9.506032463905388E-1    6.613549022878647E-2    4.988098626676497E-2   -6.677988516703541E-2    4.855713587540732E-2   -6.521955088429036E-2    9.519032393301304E-1    6.460538679952817E-2
 1.265703350856002E5     9.507141897896499E-1    6.572281164191698E-2    4.979629316809730E-2   -6.638466530204652E-2    4.846994906709547E-2   -6.483014487847642E-2    9.520539976867830E-1    6.421216212361244E-2
 1.275360493574453E5     9.508175426044102E-1    6.530450595803727E-2    4.970258813118919E-2   -6.597621861799241E-2    4.838196034922941E-2   -6.443474953704362E-2    9.521267376804891E-1    6.383080605582915E-2
 1.285091318965405E5     9.509015081135676E-1    6.492747139815612E-2    4.961177495754526E-2   -6.557707182037496E-2    4.830115620266968E-2   -6.404633389141172E-2    9.522408042430222E-1    6.343856090449139E-2
 1.294896389217529E5     9.509560615998552E-1    6.450151443345054E-2    4.951768257112692E-2   -6.517814020756239E-2    4.821411641599176E-2   -6.366134202345193E-2    9.522784112446071E-1    6.305061228003896E-2
 1.304776270808914E5     9.510558370466572E-1    6.412316406245490E-2    4.943848551389374E-2   -6.479364250852945E-2    4.813158369909484E-2   -6.328143726788281E-2    9.523637233844455E-1    6.268222802337381E-2
 1.314731534539810E5     9.511333818270501E-1    6.375612124051884E-2    4.937006765066622E-2   -6.443152882589086E-2    4.804238153290500E-2   -6.290435560402467E-2    9.524440224311601E-1    6.229059145775730E-2
 1.324762755565583E5     9.511811940313983E-1    6.340147636309852E-2    4.929577594220273E-2   -6.406066133930442E-2    4.796443546163145E-2   -6.252688821765456E-2    9.525207409458646E-1    6.192993335406007E-2
 1.334870513429962E5     9.512654980318923E-1    6.300773043753786E-2    4.920717048061272E-2   -6.367810601859010E-2    4.788165145878159E-2   -6.215703884691753E-2    9.525987155193225E-1    6.154493721805415E-2
 1.345055392098512E5     9.513727770568740E-1    6.263638773057495E-2    4.911424262916465E-2   -6.329073161451400E-2    4.779676283437968E-2   -6.179114131522127E-2    9.526731644689452E-1    6.117149590589696E-2
 1.355317979992373E5     9.514924909434344E-1    6.221075679340424E-2    4.899572907086679E-2   -6.288373102507562E-2    4.771264630234786E-2   -6.142260949184990E-2    9.527626411697823E-1    6.082323905234838E-2
 1.365658870022265E5     9.515792205952965E-1    6.182379113244059E-2    4.890590798058999E-2   -6.250694373839778E-2    4.763199998646440E-2   -6.106449817300466E-2    9.528394763783667E-1    6.046323029233882E-2
 1.376078659622731E5     9.516405120989470E-1    6.147304345476097E-2    4.882178133433408E-2   -6.213501159187872E-2    4.755274026352736E-2   -6.070218857722713E-2    9.529418816608620E-1    6.009199880552804E-2
 1.386577950786655E5     9.517342356456374E-1    6.109662402491414E-2    4.874356760979143E-2   -6.177696428494395E-2    4.747201758269107E-2   -6.034299778077443E-2    9.530018741944094E-1    5.973398153417563E-2
 1.397157350100044E5     9.518415769161613E-1    6.073298715279115E-2    4.865487651045380E-2   -6.141817469017197E-2    4.738816249307797E-2   -5.999075746800707E-2    9.530772742125960E-1    5.938073631232703E-2
 1.407817468777081E5     9.519418199579538E-1    6.038040245736055E-2    4.857193226615533E-2   -6.105208604130650E-2    4.730647160994170E-2   -5.964217137034356E-2    9.531453766429492E-1    5.903337411136061E-2
 1.418558922695422E5     9.519976810031712E-1    6.001125314352960E-2    4.848441238792498E-2   -6.069655287958454E-2    4.722682536323449E-2   -5.929665832300671E-2    9.532011972001100E-1    5.867430399108388E-2
 1.429382332431784E5     9.520740190615516E-1    5.964602184952807E-2    4.838931547174591E-2   -6.033151004103324E-2    4.715429684102984E-2   -5.895474404950284E-2    9.533136302645315E-1    5.835027875565676E-2
 1.440288323297804E5     9.521570315326341E-1    5.933038839959080E-2    4.830804837234724E-2   -5.998214901410345E-2    4.706810226337500E-2   -5.861026743625176E-2    9.533894518620289E-1    5.799612047581127E-2
 1.451277525376154E5     9.522551363852261E-1    5.897628398325849E-2    4.822625214071015E-2   -5.963322235309526E-2    4.698989874541201E-2   -5.827115348920049E-2    9.534509010347452E-1    5.766485346665953E-2
 1.462350573556962E5     9.523412629201791E-1    5.863408445616479E-2    4.814588248837422E-2   -5.929690932442751E-2    4.691215092306572E-2   -5.793320865009776E-2    9.535663972976729E-1    5.732784174167121E-2
 1.473508107574468E5     9.524077600938518E-1    5.829511297682606E-2    4.807289027248029E-2   -5.895660451595113E-2    4.683411493689306E-2   -5.760379719704670E-2    9.536173713400036E-1    5.697002102319144E-2
 1.484750772044004E5     9.524834320098619E-1    5.795590476241539E-2    4.798371807263344E-2   -5.861587426118033E-2    4.675593820836749E-2   -5.726848949959989E-2    9.536544235798824E-1    5.664770788219908E-2
 1.496079216499225E5     9.525720012129335E-1    5.762315988559186E-2    4.790606138643490E-2   -5.827698486648888E-2    4.667462629305576E-2   -5.694337577903021E-2    9.537209472172039E-1    5.631038377561592E-2
 1.507494095429637E5     9.526783465479634E-1    5.726652202685507E-2    4.781885648284200E-2   -5.794509534975364E-2    4.659969477502297E-2   -5.662366453289067E-2    9.538602524041547E-1    5.599398524739081E-2
 1.518996068318418E5     9.527415923415846E-1    5.694861363755735E-2    4.773768136721806E-2   -5.761675939516268E-2    4.652100474607895E-2   -5.629992872858051E-2    9.539383749115938E-1    5.567262394267034E-2
 1.530585799680507E5     9.527684782944780E-1    5.661997681782938E-2    4.766217458821891E-2   -5.729206039582262E-2    4.644392786433335E-2   -5.597962226512777E-2    9.540292984157721E-1    5.534677585589363E-2
 1.542263959101001E5     9.528867388065875E-1    5.630668356071146E-2    4.758328301193269E-2   -5.696942525089434E-2    4.636571142151636E-2   -5.566175787532420E-2    9.540780010762481E-1    5.503540116821876E-2
 1.554031221273835E5     9.529813284844423E-1    5.598076107377668E-2    4.750096800466787E-2   -5.664999034505955E-2    4.628883378557744E-2   -5.535091079237896E-2    9.541771665827421E-1    5.471565493033127E-2
 1.565888266040779E5     9.530222156152435E-1    5.564095998820499E-2    4.741794063389899E-2   -5.632778849267592E-2    4.621214859989085E-2   -5.503867582753733E-2    9.542532981336421E-1    5.442731934606596E-2
 1.577835778430689E5     9.531133410200885E-1    5.533530532911225E-2    4.733599870378486E-2   -5.601004983631205E-2    4.613379543796594E-2   -5.473216077874221E-2    9.543258959710222E-1    5.410544293695077E-2
 1.589874448699104E5     9.531987820430372E-1    5.503239881721637E-2    4.726013100771425E-2   -5.569775796079263E-2    4.605933403492950E-2   -5.442834629571849E-2    9.544086612395366E-1    5.378919648065446E-2
 1.602004972368116E5     9.532947035955546E-1    5.470836828454141E-2    4.717891299129828E-2   -5.539116585453097E-2    4.598007073228964E-2   -5.412197939958260E-2    9.544995032188386E-1    5.349778268397333E-2
 1.614228050266550E5     9.533704042557568E-1    5.439566648833909E-2    4.710516313305869E-2   -5.508689960765919E-2    4.590780813474180E-2   -5.382219619840781E-2    9.545615482009374E-1    5.318921267359543E-2
 1.626544388570473E5     9.534195311250092E-1    5.410007813426170E-2    4.702627626731463E-2   -5.477948554157782E-2    4.582859125219729E-2   -5.352514186696211E-2    9.546333161902125E-1    5.291329078101179E-2
 1.638954698843964E5     9.535059423182423E-1    5.379705315803564E-2    4.695170447991121E-2   -5.448159706975286E-2    4.575357614328636E-2   -5.322522584594867E-2    9.546785931464217E-1    5.261257418150997E-2
 1.651459698080244E5     9.535917858857007E-1    5.347901347255086E-2    4.686315166456191E-2   -5.417448688860559E-2    4.567289590336783E-2   -5.293932504533996E-2    9.547660988872980E-1    5.230664329914948E-2
 1.664060108743095E5     9.536954477957517E-1    5.317793772512084E-2    4.678422673550362E-2   -5.387651554795010E-2    4.559765146529026E-2   -5.264825874479499E-2    9.548321173759954E-1    5.200777609219091E-2
 1.676756658808590E5     9.537678929171131E-1    5.289023684432565E-2    4.670525475107709E-2   -5.358554893764941E-2    4.552434775567900E-2   -5.236002294191153E-2    9.549307321677728E-1    5.173203596264500E-2
 1.689550081807175E5     9.538228040993459E-1    5.260267933612826E-2    4.662747113864636E-2   -5.328932727338220E-2    4.544863214878030E-2   -5.207522647171026E-2    9.550413101649270E-1    5.145116200268701E-2
 1.702441116866020E5     9.539341593101716E-1    5.229622859089435E-2    4.655594711256668E-2   -5.301137914537987E-2    4.537103743587307E-2   -5.179419331745787E-2    9.550756182195029E-1    5.115350500108332E-2
 1.715430508751738E5     9.540169944255827E-1    5.200980395241553E-2    4.647910172957875E-2   -5.272056702359720E-2    4.529774676042086E-2   -5.151351634721003E-2    9.551859143347950E-1    5.087640423497874E-2
 1.728519007913403E5     9.540803854127874E-1    5.173278542298678E-2    4.639337335161804E-2   -5.243307464543134E-2    4.522338624900470E-2   -5.123778776400068E-2    9.552817504186311E-1    5.058024462828057E-2
 1.741707370525927E5     9.541361420468610E-1    5.143915541460295E-2    4.631356241094581E-2   -5.215004437328726E-2    4.514724321793438E-2   -5.095805063079897E-2    9.553158312991780E-1    5.031211094144528E-2
 1.754996358533718E5     9.542362600559876E-1    5.117629543208062E-2    4.623817332933537E-2   -5.186968975286499E-2    4.507095484578244E-2   -5.068806798532433E-2    9.553802805364153E-1    5.004406777552375E-2
 1.768386739694722E5     9.543352155116451E-1    5.089484778008016E-2    4.616099978269121E-2   -5.159409305064212E-2    4.499606506241237E-2   -5.041873839526387E-2    9.554660005246502E-1    4.977180988598955E-2
 1.781879287624771E5     9.543980837551674E-1    5.062672615218183E-2    4.608319239138776E-2   -5.131768435936528E-2    4.492443553470077E-2   -5.015056417627880E-2    9.555206785771482E-1    4.950762894460696E-2
 1.795474781842276E5     9.544733905213292E-1    5.034155286527044E-2    4.600976478181023E-2   -5.105060707736707E-2    4.484684226913083E-2   -4.988154332534986E-2    9.556263237825307E-1    4.923637318512779E-2
 1.809174007813277E5     9.545206035302216E-1    5.007315130406683E-2    4.593048507481846E-2   -5.077738641985281E-2    4.477333338491723E-2   -4.962001235630498E-2    9.557042429269370E-1    4.897361989758869E-2
 1.822977756996804E5     9.546139699530090E-1    4.979054718112831E-2    4.585440578847673E-2   -5.050817616073191E-2    4.469890126079083E-2   -4.936138084036895E-2    9.558007607463921E-1    4.870575643248592E-2
 1.836886826890609E5     9.547113102425761E-1    4.954351052605067E-2    4.577455998094616E-2   -5.024121691182151E-2    4.462197486697468E-2   -4.909735455431134E-2    9.558407860432681E-1    4.843397834090320E-2
 1.850902021077247E5     9.548113383508989E-1    4.927064601062699E-2    4.569352513158120E-2   -4.997856472834130E-2    4.455107155267832E-2   -4.884167954909231E-2    9.559207425468896E-1    4.820649036806507E-2
 1.865024149270491E5     9.548373722293896E-1    4.900298710390608E-2    4.561543425477729E-2   -4.971924401791637E-2    4.447472338668085E-2   -4.858779565274693E-2    9.559616000250406E-1    4.791045514039452E-2
 1.879254027362132E5     9.548843659955063E-1    4.872641898279472E-2    4.554181867710345E-2   -4.946224265271653E-2    4.439712187467091E-2   -4.833790077155897E-2    9.560773178764833E-1    4.766980742741336E-2
 1.893592477469092E5     9.549557348418590E-1    4.850181335861672E-2    4.548906746546433E-2   -4.920632461386556E-2    4.431848561905895E-2   -4.809290054630839E-2    9.561402996176296E-1    4.737755519782863E-2
 1.908040327980933E5     9.550496134231119E-1    4.822001909728702E-2    4.538394084445208E-2   -4.894878878073682E-2    4.424371264745439E-2   -4.782996091247609E-2    9.561891273569978E-1    4.717543380641241E-2
 1.922598413607715E5     9.551359160510815E-1    4.798134629565645E-2    4.530780347275139E-2   -4.869731412480421E-2    4.417251179451614E-2   -4.758554871550021E-2    9.562604428449035E-1    4.692536277601967E-2
 1.937267575428232E5     9.552292545149776E-1    4.771684724022822E-2    4.522726642253762E-2   -4.844586418459208E-2    4.410237068938383E-2   -4.734460122101367E-2    9.563682327252132E-1    4.668391332305973E-2
 1.952048660938581E5     9.552992964805133E-1    4.746769531265320E-2    4.515193826969475E-2   -4.819731701810577E-2    4.402485093693712E-2   -4.710342832604938E-2    9.564790345192623E-1    4.643219710360882E-2
 1.966942524101142E5     9.553712703981893E-1    4.722262215131796E-2    4.507253447305250E-2   -4.795151344805671E-2    4.395203081336688E-2   -4.686570395202900E-2    9.565202637306468E-1    4.619248392276719E-2
 1.981950025393913E5     9.554778035546034E-1    4.697267674156672E-2    4.500065460755314E-2   -4.771282980972146E-2    4.387290438039314E-2   -4.662517073728300E-2    9.566121399780149E-1    4.596035289332524E-2
