#  HZ   S   RI   R     50.00 
! Rohde & Schwarz Vector Network Analyzer 
! Rohde-Schwarz,ZNLE6-2Port,1323001256200024,1.71.1.10-23.02.1.238
! Created: UTC 4/8/2025, 4:56:58 AM
! freq[Hz]                re:S11                  im:S11                  re:S21                  im:S21                  re:S12                  im:S12                  re:S22                  im:S22
 1.000000000000000E5     9.565678006515163E-1    6.855323197216427E-2    4.394314294443519E-2   -6.906041245761267E-2    4.274452498108015E-2   -6.741369808137132E-2    9.577079836945716E-1    6.679355032058847E-2
 1.007629862646662E5     9.566666192039053E-1    6.807311281329748E-2    4.384359792035997E-2   -6.860105646222933E-2    4.266003965455326E-2   -6.697429291884727E-2    9.577499107318298E-1    6.633761355422976E-2
 1.015317940097331E5     9.567632308289508E-1    6.765473333235957E-2    4.376702624390068E-2   -6.816490236022395E-2    4.257980490466090E-2   -6.654139693884853E-2    9.578504044612631E-1    6.592283787140460E-2
 1.023064676522963E5     9.567725159780210E-1    6.718309385158412E-2    4.368763785606741E-2   -6.773291441873791E-2    4.249757058137044E-2   -6.611457480579983E-2    9.579452561209389E-1    6.547274583640474E-2
 1.030870519483485E5     9.568543378914970E-1    6.676320439437322E-2    4.360874676321090E-2   -6.730119659660394E-2    4.242013940210707E-2   -6.568981675999508E-2    9.580165379913325E-1    6.507932320173584E-2
 1.038735919953636E5     9.569656027129715E-1    6.630697406146019E-2    4.352593875817895E-2   -6.686912174565740E-2    4.233774628643623E-2   -6.526719334770489E-2    9.581258104743952E-1    6.464010821194920E-2
 1.046661332349037E5     9.570148403757746E-1    6.586974706021624E-2    4.343745792162669E-2   -6.643014385801324E-2    4.225871255432865E-2   -6.484657229505425E-2    9.581491360498335E-1    6.422662168758171E-2
 1.054647214552430E5     9.570999549065514E-1    6.542789735590974E-2    4.335005349693544E-2   -6.599556958859751E-2    4.217985891713635E-2   -6.443243636931256E-2    9.582276307028536E-1    6.380803174534169E-2
 1.062694027940149E5     9.571756092232016E-1    6.500675846525758E-2    4.326301920628736E-2   -6.556980941872059E-2    4.210610595977689E-2   -6.402213385176682E-2    9.583432731918090E-1    6.342511228621199E-2
 1.070802237408760E5     9.572439304360199E-1    6.459568938559095E-2    4.318608928348883E-2   -6.515746853657579E-2    4.202706999053629E-2   -6.361532543213486E-2    9.584414896806124E-1    6.299475402776548E-2
 1.078972311401927E5     9.573430393149234E-1    6.418842805215329E-2    4.311728432838249E-2   -6.475707349501984E-2    4.195111729282956E-2   -6.320632851668553E-2    9.584727640641554E-1    6.261795065132511E-2
 1.087204721937475E5     9.574019120142836E-1    6.377515100363644E-2    4.303960194359313E-2   -6.434571875650415E-2    4.187824318266561E-2   -6.280777707043878E-2    9.585895014292324E-1    6.220515458591804E-2
 1.095499944634658E5     9.575329053355216E-1    6.336592337586230E-2    4.295790891756741E-2   -6.393147125579511E-2    4.179940377029537E-2   -6.240875831851209E-2    9.586702436037869E-1    6.181078990709205E-2
 1.103858458741646E5     9.575580342470771E-1    6.296129071678425E-2    4.286981915212279E-2   -6.352206551057213E-2    4.172159402786228E-2   -6.200964645481393E-2    9.587369317165421E-1    6.141010840926401E-2
 1.112280747163201E5     9.576653812816277E-1    6.254315765924970E-2    4.278612217780638E-2   -6.310661648417785E-2    4.164832351787359E-2   -6.161902274518119E-2    9.587942594743246E-1    6.102376237737245E-2
 1.120767296488583E5     9.577152683034945E-1    6.213885767996081E-2    4.271111565402951E-2   -6.271558278817377E-2    4.157655461046837E-2   -6.123304910126224E-2    9.588603055992022E-1    6.062743794062162E-2
 1.129318597019661E5     9.577797612038869E-1    6.176148591562122E-2    4.264337726613012E-2   -6.232691390572278E-2    4.150272436907698E-2   -6.084445639129223E-2    9.589429795157556E-1    6.024397453003375E-2
 1.137935142799240E5     9.578580533925830E-1    6.136501320140971E-2    4.257445861224612E-2   -6.194458830641508E-2    4.143498651371205E-2   -6.046424412823755E-2    9.589937969389760E-1    5.986213309887164E-2
 1.146617431639607E5     9.579320198279165E-1    6.095661289773829E-2    4.249436312215458E-2   -6.155605491574494E-2    4.135960406633928E-2   -6.008522991181246E-2    9.590722966096463E-1    5.950405477717306E-2
 1.155365965151286E5     9.580372988786310E-1    6.058913815562860E-2    4.242274692361656E-2   -6.116409851112999E-2    4.128818419319837E-2   -5.970936112158607E-2    9.591437305855157E-1    5.912077340853533E-2
 1.164181248772018E5     9.580819447982967E-1    6.018744915232165E-2    4.233613101317367E-2   -6.077594123367894E-2    4.121522159114802E-2   -5.933799971046445E-2    9.592286926592279E-1    5.875425721183893E-2
 1.173063791795965E5     9.581333976398235E-1    5.980871533629856E-2    4.226643809856992E-2   -6.039329101427340E-2    4.114481355121564E-2   -5.896725861496870E-2    9.592433459166755E-1    5.837964433168515E-2
 1.182014107403141E5     9.582363748663437E-1    5.944685122890866E-2    4.218839246589932E-2   -6.002320960840064E-2    4.107494377647710E-2   -5.859820751351135E-2    9.593010085161153E-1    5.801163475159141E-2
 1.191032712689044E5     9.582803363235096E-1    5.908288515697713E-2    4.213132978284929E-2   -5.965621157544789E-2    4.100859397638384E-2   -5.823305408649679E-2    9.594014266289570E-1    5.765250923726249E-2
 1.200120128694542E5     9.583498155957547E-1    5.869022006673195E-2    4.205997907064433E-2   -5.928928576382354E-2    4.093629737993235E-2   -5.787806597321422E-2    9.594786601199642E-1    5.730100782607706E-2
 1.209276880435975E5     9.584433249643952E-1    5.835396265190521E-2    4.198436453717362E-2   -5.891914320187561E-2    4.086923770587029E-2   -5.752155879844525E-2    9.595627572185719E-1    5.692746544354452E-2
 1.218503496935483E5     9.585145129163574E-1    5.796500645876269E-2    4.190851703491202E-2   -5.855261267207339E-2    4.079710477722136E-2   -5.716603217543054E-2    9.596636352235965E-1    5.656691809337568E-2
 1.227800511251578E5     9.585920177269617E-1    5.758435273750120E-2    4.183271430922421E-2   -5.819070542377774E-2    4.072979017417269E-2   -5.681058545401482E-2    9.596919465082526E-1    5.622981667017967E-2
 1.237168460509929E5     9.586511132901806E-1    5.724540464844103E-2    4.176128955304522E-2   -5.783520858961545E-2    4.066058910706143E-2   -5.646528244817322E-2    9.597632629910549E-1    5.588608809736718E-2
 1.246607885934402E5     9.587210838201171E-1    5.689880254323969E-2    4.169490003022704E-2   -5.748608570549427E-2    4.059366421910687E-2   -5.611998158407429E-2    9.597827927365838E-1    5.555746743288338E-2
 1.256119332878327E5     9.587712248630992E-1    5.654116928819249E-2    4.162997230998425E-2   -5.713681066566716E-2    4.052664186059579E-2   -5.577404913975353E-2    9.598708792405669E-1    5.520610368383451E-2
 1.265703350856002E5     9.588500410011620E-1    5.621301779230368E-2    4.155953740665323E-2   -5.679243516397237E-2    4.046079343028877E-2   -5.543518404848857E-2    9.599710450007866E-1    5.487283132565154E-2
 1.275360493574453E5     9.589275058641475E-1    5.584600558489500E-2    4.149203456004635E-2   -5.644557671184754E-2    4.039602116567095E-2   -5.510025033117691E-2    9.600338927796485E-1    5.453223017862752E-2
 1.285091318965405E5     9.590136680131205E-1    5.552103073957710E-2    4.141777897618175E-2   -5.609585685272361E-2    4.033088282285907E-2   -5.476558521280945E-2    9.600850485914022E-1    5.418062171423094E-2
 1.294896389217529E5     9.590806341900574E-1    5.515585730922751E-2    4.134781673480006E-2   -5.575715706917145E-2    4.026272926592458E-2   -5.443377859355449E-2    9.601379364342422E-1    5.385131696903445E-2
 1.304776270808914E5     9.591565563513886E-1    5.483321722413340E-2    4.128232322491028E-2   -5.542422053979548E-2    4.019756101518467E-2   -5.410451969509603E-2    9.602010300601466E-1    5.352612881149734E-2
 1.314731534539810E5     9.591679022446018E-1    5.452085304231062E-2    4.123639877155741E-2   -5.510810489465832E-2    4.013338385717267E-2   -5.378060936786550E-2    9.602779185535917E-1    5.319124979058760E-2
 1.324762755565583E5     9.592139403920598E-1    5.419991065970122E-2    4.117414037091569E-2   -5.478945557386351E-2    4.006799264772525E-2   -5.345744178635707E-2    9.603206138219379E-1    5.285974951201004E-2
 1.334870513429962E5     9.592959743967646E-1    5.386652368492146E-2    4.110793001641182E-2   -5.446185029328431E-2    4.000649187163873E-2   -5.313886573250611E-2    9.603972350477610E-1    5.255130693858659E-2
 1.345055392098512E5     9.593570998813760E-1    5.354619329757090E-2    4.103244253388456E-2   -5.412513119811209E-2    3.994217365020450E-2   -5.282174131847796E-2    9.604528720518448E-1    5.224442366948463E-2
 1.355317979992373E5     9.594494101878094E-1    5.317045794149152E-2    4.094312576159576E-2   -5.377807414791504E-2    3.987523042835035E-2   -5.250666998010634E-2    9.605376929698409E-1    5.192384566606258E-2
 1.365658870022265E5     9.595006631958306E-1    5.283976547926113E-2    4.087183574581971E-2   -5.345176094305825E-2    3.981191818747058E-2   -5.219612149758900E-2    9.605913498408115E-1    5.162338361807486E-2
 1.376078659622731E5     9.595612732148568E-1    5.253614119602740E-2    4.080434353502516E-2   -5.313412019712932E-2    3.974980747495305E-2   -5.188380600986585E-2    9.606524373318467E-1    5.131159856035442E-2
 1.386577950786655E5     9.596711105041849E-1    5.222575472477789E-2    4.074322703972905E-2   -5.282569487304829E-2    3.968421335815385E-2   -5.157749996073077E-2    9.607103532129725E-1    5.099581106571185E-2
 1.397157350100044E5     9.597246011047698E-1    5.192056594909274E-2    4.067787364683636E-2   -5.251347296741167E-2    3.962265311518684E-2   -5.127875055054682E-2    9.608160404070513E-1    5.068594703826584E-2
 1.407817468777081E5     9.597950736400652E-1    5.161693992031434E-2    4.060856887570348E-2   -5.220197718443566E-2    3.956116523643240E-2   -5.097699840513880E-2    9.608704010976387E-1    5.039839782772942E-2
 1.418558922695422E5     9.598408478130812E-1    5.128970040305026E-2    4.054234583245872E-2   -5.188843108488105E-2    3.949712856704641E-2   -5.067537713524534E-2    9.609242436397224E-1    5.008548166713181E-2
 1.429382332431784E5     9.599119559286228E-1    5.098076921136292E-2    4.047017145570719E-2   -5.158146135758261E-2    3.943732732394548E-2   -5.037972474907787E-2    9.609953093539437E-1    4.979772179052386E-2
 1.440288323297804E5     9.599772128716140E-1    5.069709749884398E-2    4.040445784555109E-2   -5.127842667467378E-2    3.937252689545380E-2   -5.008555936492932E-2    9.610684439722503E-1    4.950738989732682E-2
 1.451277525376154E5     9.600534868834892E-1    5.038812590813779E-2    4.033970037601663E-2   -5.097880603866081E-2    3.930897542599460E-2   -4.979119849530131E-2    9.611275462374379E-1    4.921741048535996E-2
 1.462350573556962E5     9.601172281125286E-1    5.010487053626923E-2    4.028266000258005E-2   -5.068790030220467E-2    3.924784144716271E-2   -4.950642088505295E-2    9.612220746035066E-1    4.893798720454837E-2
 1.473508107574468E5     9.601685295759855E-1    4.980889402893480E-2    4.022116268262522E-2   -5.039631010011942E-2    3.918727826218089E-2   -4.921605823352634E-2    9.612445107966160E-1    4.862930614247726E-2
 1.484750772044004E5     9.602208181029769E-1    4.949258747027951E-2    4.014692178034952E-2   -5.009895070886424E-2    3.912524475007675E-2   -4.893417100244319E-2    9.612775509095685E-1    4.833042777722918E-2
 1.496079216499225E5     9.603170042770479E-1    4.920755822362571E-2    4.008841972727142E-2   -4.981082071170038E-2    3.906331080363191E-2   -4.865086072294725E-2    9.613418916370359E-1    4.805842018285771E-2
 1.507494095429637E5     9.603967017249763E-1    4.890958097747228E-2    4.002067074315813E-2   -4.952608795819189E-2    3.900446562165260E-2   -4.837292457102139E-2    9.614284094582535E-1    4.778370579406575E-2
 1.518996068318418E5     9.604387975979376E-1    4.863136248261236E-2    3.995547393063113E-2   -4.924107888167339E-2    3.894289052275212E-2   -4.809562821615580E-2    9.614709379162054E-1    4.748992186840149E-2
 1.530585799680507E5     9.604975861191389E-1    4.834546940214969E-2    3.989447873826861E-2   -4.896515629259991E-2    3.887945577223702E-2   -4.782027228386156E-2    9.615111257272582E-1    4.721742889591102E-2
 1.542263959101001E5     9.605752555132049E-1    4.808254028279627E-2    3.983079207332928E-2   -4.868666225579314E-2    3.881730660009238E-2   -4.754643543220346E-2    9.615725894174006E-1    4.694091959812632E-2
 1.554031221273835E5     9.606314626785523E-1    4.780938001612231E-2    3.976979636336772E-2   -4.840781059356392E-2    3.875749696508988E-2   -4.727707581352922E-2    9.616234826272918E-1    4.667727448702324E-2
 1.565888266040779E5     9.606823863567381E-1    4.752372087786320E-2    3.970665203161897E-2   -4.813366230321599E-2    3.870020373821127E-2   -4.701072475546609E-2    9.617109309104119E-1    4.642616183967948E-2
 1.577835778430689E5     9.607465315965420E-1    4.726383084023163E-2    3.963756945486172E-2   -4.785619647694731E-2    3.863717552998714E-2   -4.674354960419706E-2    9.617710765569877E-1    4.615610703963885E-2
 1.589874448699104E5     9.607707502818665E-1    4.698439110862755E-2    3.957342420167657E-2   -4.758705605082102E-2    3.857562492388723E-2   -4.648413528326362E-2    9.618207622229529E-1    4.587979406026723E-2
 1.602004972368116E5     9.608719380595545E-1    4.670436597516663E-2    3.951403366254135E-2   -4.732038212994539E-2    3.851078023669089E-2   -4.622153952881599E-2    9.618845915923849E-1    4.562032747001798E-2
 1.614228050266550E5     9.609181514593271E-1    4.643425301564517E-2    3.945262183936664E-2   -4.705853920325254E-2    3.845815464752030E-2   -4.596407903548447E-2    9.619471677855821E-1    4.536059896043712E-2
 1.626544388570473E5     9.609733732750672E-1    4.616345781464414E-2    3.939077207398259E-2   -4.679890314798026E-2    3.839480347735787E-2   -4.570855990799598E-2    9.620090626503561E-1    4.510736697711114E-2
 1.638954698843964E5     9.610005352620762E-1    4.590251817077023E-2    3.932626649027432E-2   -4.653675825412520E-2    3.833147390691301E-2   -4.544777336357753E-2    9.620604671692730E-1    4.485798046509773E-2
 1.651459698080244E5     9.610788235018767E-1    4.564659620669818E-2    3.926392513741157E-2   -4.627719486293908E-2    3.827098862987464E-2   -4.520027842237465E-2    9.621068629679816E-1    4.457807904369814E-2
 1.664060108743095E5     9.611594806162675E-1    4.538521386789101E-2    3.919813070907794E-2   -4.601923008944808E-2    3.820752091882250E-2   -4.494761928036241E-2    9.621807961387651E-1    4.434300205027726E-2
 1.676756658808590E5     9.612360759414271E-1    4.514741024902140E-2    3.913716220949905E-2   -4.576913988528052E-2    3.815015987828505E-2   -4.470421955364190E-2    9.622669492864503E-1    4.410615161638168E-2
 1.689550081807175E5     9.612922078920096E-1    4.490181857528631E-2    3.907290167706386E-2   -4.551175723509508E-2    3.809208964496138E-2   -4.445626262617395E-2    9.623539134257738E-1    4.387398530257951E-2
 1.702441116866020E5     9.613427952789985E-1    4.463021114758896E-2    3.901791861018529E-2   -4.527178796813431E-2    3.803099279256088E-2   -4.421891793834126E-2    9.623657901894181E-1    4.360899269119144E-2
 1.715430508751738E5     9.613740914004019E-1    4.439259590388354E-2    3.895277062147066E-2   -4.502279903181317E-2    3.796740852841485E-2   -4.397513081218207E-2    9.624178923297029E-1    4.337163180425616E-2
 1.728519007913403E5     9.614530757833527E-1    4.412822979165807E-2    3.889116019503080E-2   -4.477213026086054E-2    3.791018521536318E-2   -4.373389154572498E-2    9.624935584461013E-1    4.310155870282473E-2
 1.741707370525927E5     9.615302280806507E-1    4.388387376260873E-2    3.882858624004704E-2   -4.453237923773078E-2    3.785123113529248E-2   -4.349613860748208E-2    9.625303985982636E-1    4.288524893259065E-2
 1.754996358533718E5     9.616147816085764E-1    4.365647002091416E-2    3.876375246454824E-2   -4.429319922461006E-2    3.778953165309105E-2   -4.326201091294991E-2    9.625925656998870E-1    4.264775761113869E-2
 1.768386739694722E5     9.616978629424681E-1    4.340200372898011E-2    3.870517326510731E-2   -4.405256545838306E-2    3.773216222279694E-2   -4.302989815079410E-2    9.626524360822636E-1    4.240161438103996E-2
 1.781879287624771E5     9.617487249613520E-1    4.317974876823169E-2    3.864143433259520E-2   -4.381972252003238E-2    3.766953342245918E-2   -4.279899681904767E-2    9.626770325341215E-1    4.217803700116893E-2
 1.795474781842276E5     9.617946576479945E-1    4.293589168049772E-2    3.857914435041430E-2   -4.358739445114982E-2    3.761116029473247E-2   -4.257198966732572E-2    9.628005662959458E-1    4.195750088095152E-2
 1.809174007813277E5     9.618608925757944E-1    4.271068865098958E-2    3.852097719929169E-2   -4.335385857164979E-2    3.754851869907055E-2   -4.234480520351993E-2    9.628377075069522E-1    4.174163535081254E-2
 1.822977756996804E5     9.619163409309949E-1    4.245644912844415E-2    3.845396193517100E-2   -4.312101768672102E-2    3.749176353770177E-2   -4.212346934016444E-2    9.629444913413463E-1    4.150001884856735E-2
 1.836886826890609E5     9.619769473428230E-1    4.225414276793505E-2    3.839393218005115E-2   -4.288922644998804E-2    3.742989235023227E-2   -4.189561042893077E-2    9.629498041851543E-1    4.126887386992822E-2
 1.850902021077247E5     9.620716609419679E-1    4.200678743609049E-2    3.832968469452918E-2   -4.266331231093259E-2    3.737136944225483E-2   -4.167538754375540E-2    9.630358326206423E-1    4.107747302355690E-2
 1.865024149270491E5     9.620720770289451E-1    4.177937844232182E-2    3.826485926033395E-2   -4.244105983346646E-2    3.731074245544286E-2   -4.145722868016476E-2    9.630842040012357E-1    4.082676974229211E-2
 1.879254027362132E5     9.621318619238817E-1    4.153487682863759E-2    3.820291065204161E-2   -4.221726159054316E-2    3.724825728314488E-2   -4.124131486282177E-2    9.632158601783879E-1    4.060515275011083E-2
 1.893592477469092E5     9.622358608538558E-1    4.134893189258677E-2    3.816855366466585E-2   -4.201503465191841E-2    3.717454098923632E-2   -4.101368602469513E-2    9.632217094350719E-1    4.041377109013299E-2
 1.908040327980933E5     9.622503288349524E-1    4.108526578562648E-2    3.807693746592000E-2   -4.177227051078565E-2    3.712848724456883E-2   -4.080241517230222E-2    9.632580580218857E-1    4.018471703030269E-2
 1.922598413607715E5     9.623296881181211E-1    4.088875017656236E-2    3.801539653886954E-2   -4.155849107493152E-2    3.706861611239366E-2   -4.059358774701496E-2    9.633050833054674E-1    3.995325647376037E-2
 1.937267575428232E5     9.624144205398485E-1    4.067063259583723E-2    3.795408274040268E-2   -4.134101707968265E-2    3.700553376973328E-2   -4.038347667642499E-2    9.633737266606947E-1    3.974692619297848E-2
 1.952048660938581E5     9.624857093157707E-1    4.045535032437601E-2    3.788821377551202E-2   -4.112941952147267E-2    3.694218740896355E-2   -4.017849790768384E-2    9.634492049664669E-1    3.953138916232948E-2
 1.966942524101142E5     9.625357242134691E-1    4.022297950970345E-2    3.782772911394752E-2   -4.092317196464461E-2    3.688572490617319E-2   -3.996997694409777E-2    9.634776009158413E-1    3.932477173459371E-2
 1.981950025393913E5     9.625989813800196E-1    4.001545680792794E-2    3.776604356954931E-2   -4.071410767205621E-2    3.682555146539036E-2   -3.976278585290067E-2    9.635777679388041E-1    3.913475847768440E-2
