#  HZ   S   RI   R     50.00 
! Rohde & Schwarz Vector Network Analyzer 
! Rohde-Schwarz,ZNLE6-2Port,1323001256200024,1.71.1.10-23.02.1.238
! Created: UTC 4/8/2025, 4:46:19 AM
! freq[Hz]                re:S11                  im:S11                  re:S21                  im:S21                  re:S12                  im:S12                  re:S22                  im:S22
 1.000000000000000E5     9.634150130364380E-1    5.912918004368541E-2    3.707522905995391E-2   -5.959461360666275E-2    3.607567811825047E-2   -5.815492245181249E-2    9.643334189899490E-1    5.761409022744342E-2
 1.007629862646662E5     9.634903081139715E-1    5.872115933462833E-2    3.700385470100848E-2   -5.919426021833896E-2    3.601048416650843E-2   -5.777533371023068E-2    9.643904726597785E-1    5.721591386860391E-2
 1.015317940097331E5     9.635676971814050E-1    5.833089929101293E-2    3.694055708421096E-2   -5.881536630340514E-2    3.594927530762940E-2   -5.740033613287828E-2    9.644482819732242E-1    5.686763038466572E-2
 1.023064676522963E5     9.635559291290892E-1    5.795257174084873E-2    3.687894735229776E-2   -5.843974695784906E-2    3.588757941931400E-2   -5.703243331721069E-2    9.645264358921942E-1    5.647553143749882E-2
 1.030870519483485E5     9.636148322727710E-1    5.757290998828924E-2    3.682562302342010E-2   -5.807398673523950E-2    3.582736032586050E-2   -5.666100449042055E-2    9.645813041700203E-1    5.613458820693963E-2
 1.038735919953636E5     9.636909759349079E-1    5.719840242134614E-2    3.675567218903358E-2   -5.769343699959114E-2    3.575984771575712E-2   -5.629260550748003E-2    9.646611149204224E-1    5.573806166510029E-2
 1.046661332349037E5     9.637629238644361E-1    5.680524687912016E-2    3.668867551008878E-2   -5.731497853486794E-2    3.569578165195310E-2   -5.592663741831048E-2    9.646719158246357E-1    5.537814129556567E-2
 1.054647214552430E5     9.638293461730498E-1    5.642340533904986E-2    3.662207767308939E-2   -5.693646645063082E-2    3.563407723883068E-2   -5.557085129950970E-2    9.647545500628504E-1    5.500456270318166E-2
 1.062694027940149E5     9.639294112843845E-1    5.606821902883607E-2    3.655192273414233E-2   -5.656521000032722E-2    3.558390834515567E-2   -5.521198811026328E-2    9.648275042261381E-1    5.467799225694858E-2
 1.070802237408760E5     9.639620837722989E-1    5.570953985296163E-2    3.649368375842816E-2   -5.621873259319218E-2    3.552121390058990E-2   -5.486346773256705E-2    9.649035787068673E-1    5.433342626792650E-2
 1.078972311401927E5     9.640103113790185E-1    5.534104276470119E-2    3.643860820806523E-2   -5.586691698295005E-2    3.546260768729666E-2   -5.451206098493502E-2    9.649293450386383E-1    5.397933036416543E-2
 1.087204721937475E5     9.640527742990064E-1    5.499040982167470E-2    3.638273059543930E-2   -5.550806839954787E-2    3.540358526815854E-2   -5.416469116732905E-2    9.650011090599203E-1    5.362829615009680E-2
 1.095499944634658E5     9.641313737954610E-1    5.464024253697707E-2    3.631886235282645E-2   -5.515402241891178E-2    3.534351834054238E-2   -5.381531370734523E-2    9.650604000414177E-1    5.329259101226035E-2
 1.103858458741646E5     9.641724003231198E-1    5.426548123728437E-2    3.624789036948487E-2   -5.479410595444440E-2    3.528543474070960E-2   -5.347619513858609E-2    9.651263194621325E-1    5.293875067152563E-2
 1.112280747163201E5     9.642457188924072E-1    5.390145732702471E-2    3.618248639643189E-2   -5.443602191609613E-2    3.522665156013972E-2   -5.313843059764311E-2    9.651691068805429E-1    5.261071895118225E-2
 1.120767296488583E5     9.642696394502833E-1    5.356185621773758E-2    3.612387614619025E-2   -5.409419913620868E-2    3.517099720437784E-2   -5.279870966596693E-2    9.651944480852680E-1    5.224674638379973E-2
 1.129318597019661E5     9.643173292881579E-1    5.322900387587945E-2    3.607174997464582E-2   -5.375757581726463E-2    3.511284571285589E-2   -5.246355434389480E-2    9.652837502812519E-1    5.193993874594197E-2
 1.137935142799240E5     9.643718540964809E-1    5.288791031221871E-2    3.601906797384528E-2   -5.342791039041158E-2    3.505810553706499E-2   -5.213675439577337E-2    9.653189792868961E-1    5.160278034065077E-2
 1.146617431639607E5     9.644308349863100E-1    5.254368451567198E-2    3.596201275612376E-2   -5.309060810646927E-2    3.500264820051287E-2   -5.180856302064339E-2    9.653800838736445E-1    5.128207319441037E-2
 1.155365965151286E5     9.644932636206076E-1    5.220683471400236E-2    3.589620046753023E-2   -5.275051699729443E-2    3.494131795910441E-2   -5.148263371367306E-2    9.654321221176074E-1    5.095073417338105E-2
 1.164181248772018E5     9.645529966471057E-1    5.187064477661581E-2    3.583148025154186E-2   -5.241358310854366E-2    3.488666825475577E-2   -5.116189907652460E-2    9.654935868255462E-1    5.062490629216661E-2
 1.173063791795965E5     9.646007530499132E-1    5.152826316151985E-2    3.577482192103677E-2   -5.208523687735104E-2    3.483621089861984E-2   -5.083874325159304E-2    9.655377566804955E-1    5.030658848992571E-2
 1.182014107403141E5     9.646636282099138E-1    5.121475485366701E-2    3.571992163899152E-2   -5.176719294224354E-2    3.477925723375694E-2   -5.052380904480577E-2    9.656009743549556E-1    4.999813238574601E-2
 1.191032712689044E5     9.647221487046417E-1    5.089873560453977E-2    3.566915537733902E-2   -5.144737703941098E-2    3.472679576013432E-2   -5.020843858003119E-2    9.656556673235710E-1    4.968733743594811E-2
 1.200120128694542E5     9.647734041791901E-1    5.058396145935178E-2    3.561574465461965E-2   -5.113289366288420E-2    3.466983027249733E-2   -4.989592821554509E-2    9.657080992554106E-1    4.937257727291475E-2
 1.209276880435975E5     9.648222769991504E-1    5.027910538867284E-2    3.555582604702022E-2   -5.081090205734793E-2    3.461439694610470E-2   -4.958571512022288E-2    9.657879202152233E-1    4.906022131740963E-2
 1.218503496935483E5     9.648746249259155E-1    4.994751097562849E-2    3.549662985917428E-2   -5.049177260765721E-2    3.455778341928101E-2   -4.927865610953031E-2    9.658434477903868E-1    4.874159519563192E-2
 1.227800511251578E5     9.649515335559591E-1    4.962081684617353E-2    3.543429137919577E-2   -5.017611784853097E-2    3.450552256225196E-2   -4.897499802522773E-2    9.658969003006752E-1    4.844105597626834E-2
 1.237168460509929E5     9.649910835876381E-1    4.930340038619431E-2    3.538323982152820E-2   -4.986912633024557E-2    3.445535274567744E-2   -4.867285781017442E-2    9.659655681705169E-1    4.815764476536254E-2
 1.246607885934402E5     9.650328815937820E-1    4.899794045731550E-2    3.532660324227344E-2   -4.956776525275496E-2    3.439965798077353E-2   -4.837216481019077E-2    9.659613433058578E-1    4.785454204414535E-2
 1.256119332878327E5     9.650737487740941E-1    4.871574401156692E-2    3.527738663286725E-2   -4.926681321791718E-2    3.434780147808267E-2   -4.807747848206440E-2    9.660318421479691E-1    4.757220210545900E-2
 1.265703350856002E5     9.651352664588339E-1    4.842499449752098E-2    3.522839886046562E-2   -4.896659853214671E-2    3.429742821353559E-2   -4.778108031798217E-2    9.661175079286360E-1    4.728166589678157E-2
 1.275360493574453E5     9.652215634386453E-1    4.810251676973598E-2    3.517019031491248E-2   -4.866757299741065E-2    3.424090636608156E-2   -4.749313607043749E-2    9.661777607950486E-1    4.698072053729328E-2
 1.285091318965405E5     9.652614985783546E-1    4.780876940699052E-2    3.510985150795519E-2   -4.836183257770947E-2    3.419182344464636E-2   -4.720169340996672E-2    9.662362741190919E-1    4.668127780167196E-2
 1.294896389217529E5     9.652857421861903E-1    4.749955586901366E-2    3.505172118467835E-2   -4.807000368192410E-2    3.413753508291451E-2   -4.691653932877823E-2    9.662614985297935E-1    4.640025518090018E-2
 1.304776270808914E5     9.653564851549408E-1    4.723263584376197E-2    3.500537130894439E-2   -4.777742958128072E-2    3.408626553956851E-2   -4.662931590520598E-2    9.662944852610815E-1    4.611711532890089E-2
 1.314731534539810E5     9.653943464334627E-1    4.695539444430209E-2    3.496419906690845E-2   -4.750707005441656E-2    3.403692194026180E-2   -4.634736164847012E-2    9.663283920198706E-1    4.582317193652160E-2
 1.324762755565583E5     9.654037366993697E-1    4.666805112449939E-2    3.492022277018562E-2   -4.723569073410631E-2    3.398173772867202E-2   -4.607033525645972E-2    9.663862247983386E-1    4.553550945758115E-2
 1.334870513429962E5     9.654661275606657E-1    4.638430535780381E-2    3.486641173815416E-2   -4.695450476638915E-2    3.393564192507502E-2   -4.579404448036228E-2    9.664497929149416E-1    4.526543026933382E-2
 1.345055392098512E5     9.655360806646800E-1    4.610753620684428E-2    3.480900363815363E-2   -4.665911156081276E-2    3.388522394475030E-2   -4.552117590397398E-2    9.664932461168718E-1    4.500709680080867E-2
 1.355317979992373E5     9.656137323486319E-1    4.578015765524263E-2    3.473646883981162E-2   -4.635629316753997E-2    3.383139398849458E-2   -4.524613504629181E-2    9.665481273306991E-1    4.473073918629222E-2
 1.365658870022265E5     9.656352124125708E-1    4.549170099438905E-2    3.467504687444743E-2   -4.607380258647048E-2    3.377933492440315E-2   -4.497673048374241E-2    9.666248639246334E-1    4.446265007321646E-2
 1.376078659622731E5     9.657003661929504E-1    4.523738848445198E-2    3.462821779587100E-2   -4.580064853428075E-2    3.373042417178940E-2   -4.470845728896260E-2    9.666574654372114E-1    4.419067319694862E-2
 1.386577950786655E5     9.657676998170585E-1    4.497078000710113E-2    3.457103817538986E-2   -4.553288879598874E-2    3.367649917057784E-2   -4.444247205485802E-2    9.667230173856475E-1    4.392210454008354E-2
 1.397157350100044E5     9.658387895623386E-1    4.469441082766418E-2    3.452150197868525E-2   -4.526180755227332E-2    3.363064266752357E-2   -4.418040496138360E-2    9.667585888993634E-1    4.366249391061940E-2
 1.407817468777081E5     9.658680992122983E-1    4.441518707836037E-2    3.446436583233835E-2   -4.498730897807153E-2    3.357810841371127E-2   -4.391793474114609E-2    9.668313587251552E-1    4.340388326252152E-2
 1.418558922695422E5     9.659283227296160E-1    4.413614611786527E-2    3.441330678811554E-2   -4.472322408652564E-2    3.352887305925834E-2   -4.366322307899755E-2    9.668628111926197E-1    4.313308107084926E-2
 1.429382332431784E5     9.659991793885054E-1    4.387520582875302E-2    3.435371954376470E-2   -4.445135002331582E-2    3.347965621431961E-2   -4.340467120946283E-2    9.669196218515324E-1    4.288316831227997E-2
 1.440288323297804E5     9.660687734354186E-1    4.362937076123994E-2    3.430294481921615E-2   -4.419346394869830E-2    3.342581234797579E-2   -4.315177813491580E-2    9.670090038921008E-1    4.262171799009526E-2
 1.451277525376154E5     9.661365473181204E-1    4.336280681240563E-2    3.425176782133186E-2   -4.393606497171821E-2    3.337840088142692E-2   -4.289403910890636E-2    9.670164718984828E-1    4.237650144819134E-2
 1.462350573556962E5     9.661552072295291E-1    4.311530355089232E-2    3.419929300869589E-2   -4.367894523305436E-2    3.332789340165036E-2   -4.264277170281018E-2    9.670813380650285E-1    4.212151497469521E-2
 1.473508107574468E5     9.661943998942102E-1    4.285444792608503E-2    3.415285457238004E-2   -4.342898259501303E-2    3.327866103089954E-2   -4.239679827682789E-2    9.671245674457133E-1    4.188514586254962E-2
 1.484750772044004E5     9.662293397434137E-1    4.259334501002973E-2    3.409660503262869E-2   -4.317150408583879E-2    3.323022690592018E-2   -4.215582138281005E-2    9.671360199754606E-1    4.162078338112452E-2
 1.496079216499225E5     9.662961153891471E-1    4.233844597559978E-2    3.405007270563024E-2   -4.292246391775208E-2    3.318260854087141E-2   -4.190963027497076E-2    9.671758169485251E-1    4.136160192934044E-2
 1.507494095429637E5     9.663582525484493E-1    4.208763653894548E-2    3.399124930405953E-2   -4.267084111314717E-2    3.313016057789830E-2   -4.166579359093960E-2    9.672549419730685E-1    4.112837180029320E-2
 1.518996068318418E5     9.663709204856233E-1    4.184836389071714E-2    3.394058123795305E-2   -4.242847757342673E-2    3.308011564376884E-2   -4.143083676028032E-2    9.673057065989802E-1    4.089582514404293E-2
 1.530585799680507E5     9.664215560474489E-1    4.160265216344336E-2    3.389277204377718E-2   -4.218777961235838E-2    3.303130570549050E-2   -4.119113496493243E-2    9.673460631669353E-1    4.064857492213709E-2
 1.542263959101001E5     9.664923222170049E-1    4.135978412961743E-2    3.383987583042903E-2   -4.194677351482206E-2    3.298442439842301E-2   -4.095413647179375E-2    9.673872740256827E-1    4.040064519196902E-2
 1.554031221273835E5     9.665300818605944E-1    4.110862006060176E-2    3.378932100480367E-2   -4.171005311960945E-2    3.293447337784308E-2   -4.072252954705859E-2    9.674691436542416E-1    4.018194726234978E-2
 1.565888266040779E5     9.665817682552259E-1    4.087981398061361E-2    3.373684912252435E-2   -4.146748133300642E-2    3.288841125461375E-2   -4.048938325908898E-2    9.674694093444519E-1    3.995191922815113E-2
 1.577835778430689E5     9.666446346895076E-1    4.063978128831258E-2    3.368306295875637E-2   -4.122914205879379E-2    3.283820748071761E-2   -4.026239068948193E-2    9.675256632004224E-1    3.972574620211246E-2
 1.589874448699104E5     9.666738684007687E-1    4.039630326584847E-2    3.363567537933607E-2   -4.099663559757317E-2    3.278581245334374E-2   -4.003462815550178E-2    9.675734729516108E-1    3.950199927978341E-2
 1.602004972368116E5     9.667320884509174E-1    4.016974192513693E-2    3.358268133181537E-2   -4.077003788076859E-2    3.273606028149633E-2   -3.980732516268142E-2    9.676259529860523E-1    3.926073929810266E-2
 1.614228050266550E5     9.668066201813581E-1    3.994523704529004E-2    3.353538560570164E-2   -4.053909214099500E-2    3.268622672758617E-2   -3.958495615395663E-2    9.676749822804281E-1    3.902121456579841E-2
 1.626544388570473E5     9.668185702116767E-1    3.972499261144463E-2    3.348285883960639E-2   -4.031050099719059E-2    3.263907134724048E-2   -3.936519889230114E-2    9.677458163344954E-1    3.881429082673692E-2
 1.638954698843964E5     9.668321280363472E-1    3.947218551686076E-2    3.343678693276243E-2   -4.009036410502406E-2    3.258885295266032E-2   -3.914690509507646E-2    9.677795195685012E-1    3.860717874071078E-2
 1.651459698080244E5     9.669185707144611E-1    3.925489816814549E-2    3.337618394402728E-2   -3.986192687535935E-2    3.254390134378131E-2   -3.892521057960555E-2    9.678220544412248E-1    3.837587849340141E-2
 1.664060108743095E5     9.669694183130373E-1    3.902879450769566E-2    3.332705746637813E-2   -3.964102228873571E-2    3.248960648146985E-2   -3.870894437264758E-2    9.678848418535936E-1    3.815392155593723E-2
 1.676756658808590E5     9.670096868267440E-1    3.880658571258692E-2    3.327575936247303E-2   -3.941758615676318E-2    3.244471679492757E-2   -3.849718350713386E-2    9.679585442976603E-1    3.794334416068156E-2
 1.689550081807175E5     9.670445454851343E-1    3.859775724448328E-2    3.322688727491908E-2   -3.920022817017543E-2    3.239586893318668E-2   -3.828431214070719E-2    9.680024173110988E-1    3.773087848911978E-2
 1.702441116866020E5     9.671222370803435E-1    3.837797749182150E-2    3.317840313602196E-2   -3.899256568493887E-2    3.234723246374423E-2   -3.807504229518827E-2    9.680245761055569E-1    3.751457884020145E-2
 1.715430508751738E5     9.671460817346982E-1    3.816966851284653E-2    3.312602267354393E-2   -3.877605561698932E-2    3.229698408723935E-2   -3.786511598271493E-2    9.680564152373852E-1    3.729804939898559E-2
 1.728519007913403E5     9.672290517850786E-1    3.794340027713791E-2    3.307446436580595E-2   -3.856169520965750E-2    3.224645141742396E-2   -3.765557599727280E-2    9.680996727412176E-1    3.707772557582715E-2
 1.741707370525927E5     9.672838468542015E-1    3.773716386066182E-2    3.302336784223402E-2   -3.835351021666298E-2    3.219832944205929E-2   -3.745417682558729E-2    9.681590910032927E-1    3.687971364544929E-2
 1.754996358533718E5     9.673265965528736E-1    3.754456017739778E-2    3.297336199065869E-2   -3.814512213395145E-2    3.214642963313418E-2   -3.724964475251059E-2    9.681598714328316E-1    3.666725709418418E-2
 1.768386739694722E5     9.673835069827247E-1    3.731278727897571E-2    3.291878208539843E-2   -3.793771382596044E-2    3.210159486918238E-2   -3.704758616924201E-2    9.682329003100777E-1    3.645985502559315E-2
 1.781879287624771E5     9.674383817740534E-1    3.711362492056338E-2    3.287341148918477E-2   -3.773534131144302E-2    3.205216027886120E-2   -3.685124952432409E-2    9.682539705828336E-1    3.626123791581323E-2
 1.795474781842276E5     9.674960461130444E-1    3.689839704014805E-2    3.282068801242927E-2   -3.753164848932995E-2    3.200011684029922E-2   -3.665147959457622E-2    9.683405409416588E-1    3.607669602876006E-2
 1.809174007813277E5     9.675123426769440E-1    3.670781788670913E-2    3.277263535011795E-2   -3.732820468578462E-2    3.195330882069274E-2   -3.645364935329108E-2    9.684095529296121E-1    3.587812691539250E-2
 1.822977756996804E5     9.675734467662431E-1    3.648948889712512E-2    3.271900652247294E-2   -3.712877635738742E-2    3.189982606135529E-2   -3.626248273608720E-2    9.684718571449308E-1    3.567677424444971E-2
 1.836886826890609E5     9.676364889560620E-1    3.629302573320065E-2    3.266487502651293E-2   -3.693429501759600E-2    3.185202774246012E-2   -3.606475194819194E-2    9.684934546564914E-1    3.547238709320851E-2
 1.850902021077247E5     9.677132468370639E-1    3.609762216746640E-2    3.261500023950036E-2   -3.673538475070577E-2    3.180489814329165E-2   -3.587550316477005E-2    9.685701962521491E-1    3.528888007137600E-2
 1.865024149270491E5     9.677470194429155E-1    3.589707665854942E-2    3.256455506958170E-2   -3.654472223050749E-2    3.175284581749925E-2   -3.568308979764249E-2    9.685869149659916E-1    3.508150013645455E-2
 1.879254027362132E5     9.677791820672866E-1    3.569452361718545E-2    3.251447602279559E-2   -3.635305851040824E-2    3.170543033071101E-2   -3.549713149441781E-2    9.686842648637812E-1    3.490123870004516E-2
 1.893592477469092E5     9.678087346898858E-1    3.553750540178000E-2    3.247613261049867E-2   -3.614263194357273E-2    3.164998589807422E-2   -3.531528796283539E-2    9.687302157510211E-1    3.467808093363002E-2
 1.908040327980933E5     9.678783123797983E-1    3.530859926964833E-2    3.240618651030364E-2   -3.596857342311757E-2    3.160400038942274E-2   -3.511997023887598E-2    9.687658919181583E-1    3.452200473604505E-2
 1.922598413607715E5     9.679271683572399E-1    3.513313931180438E-2    3.235829796624604E-2   -3.577533773332764E-2    3.155401638974019E-2   -3.494197046855946E-2    9.688007988143783E-1    3.433550315947873E-2
 1.937267575428232E5     9.680080459773075E-1    3.494280693284470E-2    3.230256430264939E-2   -3.559197480441356E-2    3.150128627437954E-2   -3.475688990722231E-2    9.688657932112883E-1    3.415286331332882E-2
 1.952048660938581E5     9.680946228947617E-1    3.475768586870293E-2    3.225501728722172E-2   -3.540834125795156E-2    3.145426164792555E-2   -3.457696134576684E-2    9.689204153860219E-1    3.396488444935266E-2
 1.966942524101142E5     9.681202080462502E-1    3.456563448425292E-2    3.220083487307018E-2   -3.523024189968282E-2    3.140537374488005E-2   -3.440172533111240E-2    9.689448251490037E-1    3.378286111315242E-2
 1.981950025393913E5     9.681697914899834E-1    3.438056026905182E-2    3.215661702527823E-2   -3.504650655115239E-2    3.135541887829628E-2   -3.421867742443108E-2    9.689974851518686E-1    3.362146028603050E-2
