#  HZ   S   RI   R     50.00 
! Rohde & Schwarz Vector Network Analyzer 
! Rohde-Schwarz,ZNLE6-2Port,1323001256200024,1.71.1.10-23.02.1.238
! Created: UTC 4/8/2025, 4:34:17 AM
! freq[Hz]                re:S11                  im:S11                  re:S21                  im:S21                  re:S12                  im:S12                  re:S22                  im:S22
 1.000000000000000E5     9.686494341830240E-1    5.130748168341248E-2    3.172182617892493E-2   -5.171577926680977E-2    3.086948826377586E-2   -5.046213120468798E-2    9.695214570288713E-1    4.995508850791214E-2
 1.007629862646662E5     9.687307043297152E-1    5.093548597390257E-2    3.166333875612383E-2   -5.136951548403414E-2    3.081432101191625E-2   -5.012591991635285E-2    9.695552513725535E-1    4.961332894324888E-2
 1.015317940097331E5     9.687821306595598E-1    5.060056225079630E-2    3.161308133305033E-2   -5.103771325225031E-2    3.076652808496140E-2   -4.980635717334705E-2    9.695985548179780E-1    4.930276461802627E-2
 1.023064676522963E5     9.687926269717457E-1    5.026504359984228E-2    3.156602311218263E-2   -5.071845893229401E-2    3.071802689038744E-2   -4.947969503706628E-2    9.696606328112406E-1    4.897991072548404E-2
 1.030870519483485E5     9.688238304404085E-1    4.994593416398163E-2    3.152538146997248E-2   -5.039707571927741E-2    3.067616650065448E-2   -4.916012026567903E-2    9.696949600641815E-1    4.866286250653051E-2
 1.038735919953636E5     9.688710353909985E-1    4.960856981682706E-2    3.147025317253617E-2   -5.006685997621722E-2    3.062178938422829E-2   -4.884021019369304E-2    9.697671642205729E-1    4.832874411445450E-2
 1.046661332349037E5     9.689426247852113E-1    4.925954311125604E-2    3.141355265377376E-2   -4.973950137604190E-2    3.057154936326022E-2   -4.852086601518877E-2    9.697580214443201E-1    4.801733065862308E-2
 1.054647214552430E5     9.690097178808140E-1    4.892725919399842E-2    3.136157508374457E-2   -4.940890731382933E-2    3.052608801104211E-2   -4.821312737291992E-2    9.698089696813503E-1    4.770016420791060E-2
 1.062694027940149E5     9.690748774654423E-1    4.861415103586570E-2    3.130708259612042E-2   -4.908755986420845E-2    3.048114633703196E-2   -4.790655561546282E-2    9.699119913606929E-1    4.740897658202571E-2
 1.070802237408760E5     9.690875826826285E-1    4.829491828684702E-2    3.126171854850346E-2   -4.878198262385069E-2    3.043139936909507E-2   -4.759799017760383E-2    9.699678824725529E-1    4.709070693507799E-2
 1.078972311401927E5     9.691537675786049E-1    4.798861521828595E-2    3.122162491359958E-2   -4.847497268307480E-2    3.038578511585971E-2   -4.728837402937480E-2    9.700015284959952E-1    4.679758175955708E-2
 1.087204721937475E5     9.691688398996510E-1    4.767573719988797E-2    3.117402236122255E-2   -4.816812394412746E-2    3.033871228346952E-2   -4.698863008751035E-2    9.700589289253774E-1    4.649695739065765E-2
 1.095499944634658E5     9.692512762381054E-1    4.736824997122498E-2    3.112321489725623E-2   -4.785809917266154E-2    3.029003651754450E-2   -4.668505937431311E-2    9.700868470518696E-1    4.619355455262038E-2
 1.103858458741646E5     9.692570770833019E-1    4.706184722333218E-2    3.107011329132765E-2   -4.754400240323800E-2    3.024287457605060E-2   -4.639232950286907E-2    9.701557016744289E-1    4.589229115675789E-2
 1.112280747163201E5     9.693133207651567E-1    4.674000506318144E-2    3.101650806926973E-2   -4.723172149701578E-2    3.019736488164741E-2   -4.609465642159895E-2    9.701693309148365E-1    4.561052936724667E-2
 1.120767296488583E5     9.693276436314674E-1    4.643110800750973E-2    3.096746101358053E-2   -4.693491750970143E-2    3.015160452308981E-2   -4.580395948304888E-2    9.702049278687959E-1    4.531030318096427E-2
 1.129318597019661E5     9.693737462010082E-1    4.614081655476194E-2    3.092623545468515E-2   -4.664281571143212E-2    3.010897209828187E-2   -4.550728656193859E-2    9.702478826252469E-1    4.502410792322069E-2
 1.137935142799240E5     9.693994470721670E-1    4.585015350582333E-2    3.088198295602796E-2   -4.635574691595105E-2    3.006371679602015E-2   -4.522663541071836E-2    9.703222483604940E-1    4.474749085938158E-2
 1.146617431639607E5     9.694386865485277E-1    4.554264959018010E-2    3.083601708571651E-2   -4.605994669731289E-2    3.001739519775826E-2   -4.493887500562241E-2    9.703631601355682E-1    4.445788429328618E-2
 1.155365965151286E5     9.695008667659998E-1    4.524361585334637E-2    3.078539708233025E-2   -4.576723788475171E-2    2.997401736921741E-2   -4.465613081088245E-2    9.703698813254227E-1    4.418154258378919E-2
 1.164181248772018E5     9.695628799074762E-1    4.495755442857127E-2    3.073410642570743E-2   -4.547428788364506E-2    2.992446305586833E-2   -4.437934968898351E-2    9.704724513636979E-1    4.389333277810215E-2
 1.173063791795965E5     9.695886612204037E-1    4.466960528053018E-2    3.069027569137617E-2   -4.518654057559262E-2    2.988248716419990E-2   -4.409806845005424E-2    9.704718341810801E-1    4.361334629167413E-2
 1.182014107403141E5     9.696550010503421E-1    4.439468239715918E-2    3.064502344059208E-2   -4.490906845745415E-2    2.984143575820358E-2   -4.382079639514584E-2    9.704757310771301E-1    4.334523144702085E-2
 1.191032712689044E5     9.696646833824089E-1    4.412367488640759E-2    3.060362460389432E-2   -4.463243426150441E-2    2.979648207970903E-2   -4.354972281311248E-2    9.705640018481533E-1    4.306597112469122E-2
 1.200120128694542E5     9.696937493210718E-1    4.382374446203697E-2    3.056073820629299E-2   -4.435679117029481E-2    2.975371725261800E-2   -4.327697642135086E-2    9.706346030577924E-1    4.280430591476974E-2
 1.209276880435975E5     9.697700136039610E-1    4.356199266301342E-2    3.051433705751873E-2   -4.407878899278812E-2    2.970983689860305E-2   -4.300854831646778E-2    9.706927537728074E-1    4.252318270932795E-2
 1.218503496935483E5     9.697993885371292E-1    4.328845649155653E-2    3.046889574499284E-2   -4.380261425665500E-2    2.966786407404321E-2   -4.274055617389443E-2    9.707451264982984E-1    4.225198136417085E-2
 1.227800511251578E5     9.698458154699152E-1    4.299294188566283E-2    3.042118623998395E-2   -4.352861326350188E-2    2.962206819413483E-2   -4.247826652600282E-2    9.707884914590441E-1    4.199137200679450E-2
 1.237168460509929E5     9.698909511288885E-1    4.274102033264048E-2    3.037268156065371E-2   -4.325998709019677E-2    2.957981784274257E-2   -4.221954539148035E-2    9.708357951711779E-1    4.173320719065478E-2
 1.246607885934402E5     9.699717827105803E-1    4.247091690111942E-2    3.033150530828040E-2   -4.299609937091450E-2    2.953960285240446E-2   -4.195728118164446E-2    9.708305460993966E-1    4.148817200468403E-2
 1.256119332878327E5     9.699741909791126E-1    4.221425371234971E-2    3.029033065796336E-2   -4.273884525465099E-2    2.949658771172046E-2   -4.169853697718662E-2    9.708696635722868E-1    4.122067663986016E-2
 1.265703350856002E5     9.700136946055671E-1    4.194863120568141E-2    3.024701082010425E-2   -4.247591004776356E-2    2.945361786931155E-2   -4.144459323852897E-2    9.709416600886465E-1    4.096916643667193E-2
 1.275360493574453E5     9.700689735868756E-1    4.166070820512244E-2    3.020386709126934E-2   -4.221408870303936E-2    2.941443981325114E-2   -4.119178801417469E-2    9.710032721176147E-1    4.071458483248292E-2
 1.285091318965405E5     9.701326217533313E-1    4.143230342491950E-2    3.015760565143035E-2   -4.195408620015419E-2    2.937050944855453E-2   -4.093936265725723E-2    9.710655558960457E-1    4.045039635719959E-2
 1.294896389217529E5     9.701381972015968E-1    4.115464434132864E-2    3.010994560654804E-2   -4.169681983698278E-2    2.932682651774580E-2   -4.069071095797933E-2    9.710572238673935E-1    4.019893019633559E-2
 1.304776270808914E5     9.701960202697925E-1    4.091137936968844E-2    3.007290808860390E-2   -4.144628576690655E-2    2.928245854370823E-2   -4.044395942942510E-2    9.710845469159343E-1    3.996598028630807E-2
 1.314731534539810E5     9.702033120865401E-1    4.067699310861549E-2    3.004243620425737E-2   -4.121121409008268E-2    2.924598026317739E-2   -4.020158927912606E-2    9.711633407765413E-1    3.971106082337216E-2
 1.324762755565583E5     9.702204092397183E-1    4.043398870869055E-2    3.000150696657158E-2   -4.097292589156321E-2    2.920278139957863E-2   -3.995460470641894E-2    9.711861648314689E-1    3.947282419006446E-2
 1.334870513429962E5     9.702762608011651E-1    4.019033746145870E-2    2.996021596874852E-2   -4.072394752283044E-2    2.916190104231128E-2   -3.971371592677399E-2    9.712136216409626E-1    3.922829632851816E-2
 1.345055392098512E5     9.703374582068558E-1    3.994863724329441E-2    2.991694012445891E-2   -4.047417049407829E-2    2.912266810653762E-2   -3.948156603856510E-2    9.712763379985597E-1    3.898718627165223E-2
 1.355317979992373E5     9.704188334428393E-1    3.966615224687311E-2    2.985017639946370E-2   -4.021053453891347E-2    2.907844620794716E-2   -3.924052512581341E-2    9.713159083696464E-1    3.875435357429839E-2
 1.365658870022265E5     9.704494747493623E-1    3.942428284138583E-2    2.980408501811733E-2   -3.996271267901718E-2    2.903946143240368E-2   -3.901150301414791E-2    9.713795329542397E-1    3.852905175470919E-2
 1.376078659622731E5     9.704804997016416E-1    3.918518935263311E-2    2.976404021857470E-2   -3.972779112024628E-2    2.899478344202264E-2   -3.877329159196552E-2    9.713916564650914E-1    3.827818211277066E-2
 1.386577950786655E5     9.705255326665059E-1    3.895941356620963E-2    2.972217001595032E-2   -3.949424279678779E-2    2.895605311525469E-2   -3.854381384171823E-2    9.714338451712333E-1    3.804825442651319E-2
 1.397157350100044E5     9.706028115609491E-1    3.872203368286724E-2    2.968011306453146E-2   -3.925781159925248E-2    2.891539041251927E-2   -3.831340645694690E-2    9.715090490365967E-1    3.782952084469372E-2
 1.407817468777081E5     9.706540525590595E-1    3.848618831158897E-2    2.963552853365961E-2   -3.902293215552134E-2    2.887552672390678E-2   -3.808698920427731E-2    9.715174487050079E-1    3.761057002985410E-2
 1.418558922695422E5     9.706739383265461E-1    3.824192611470881E-2    2.959064035211872E-2   -3.878936206530036E-2    2.883232489344860E-2   -3.786229157306573E-2    9.715548702214415E-1    3.735316057479283E-2
 1.429382332431784E5     9.707279263963371E-1    3.801512887852350E-2    2.954588609989591E-2   -3.855540703657605E-2    2.879160000896369E-2   -3.764017109222371E-2    9.715939259843038E-1    3.715640268405682E-2
 1.440288323297804E5     9.708072822533210E-1    3.780778265504232E-2    2.950367286222762E-2   -3.832883788153648E-2    2.875215998317969E-2   -3.741624370732874E-2    9.716348806071953E-1    3.691976015057864E-2
 1.451277525376154E5     9.708596481323402E-1    3.756302918939772E-2    2.946067957352897E-2   -3.810229819341313E-2    2.871076734146871E-2   -3.720042891197081E-2    9.716513280597975E-1    3.670399944552868E-2
 1.462350573556962E5     9.708794262808396E-1    3.734877731494655E-2    2.942025092377448E-2   -3.788183916726991E-2    2.866867737488689E-2   -3.697810676412809E-2    9.716912632945854E-1    3.647679382079982E-2
 1.473508107574468E5     9.709155105691339E-1    3.714141881801793E-2    2.938025893395523E-2   -3.766676277087254E-2    2.862662093488488E-2   -3.676333477921170E-2    9.717201004382149E-1    3.625905023084231E-2
 1.484750772044004E5     9.709661835253238E-1    3.689039201013592E-2    2.932854535670968E-2   -3.744301720997756E-2    2.858671640366213E-2   -3.655161678330013E-2    9.717494221217967E-1    3.604491599037277E-2
 1.496079216499225E5     9.710273849269607E-1    3.667308978271717E-2    2.929379740522759E-2   -3.722402978187524E-2    2.854724161939594E-2   -3.633827601261075E-2    9.717685919564277E-1    3.581798641230981E-2
 1.507494095429637E5     9.710375663243748E-1    3.645033302024458E-2    2.924958941830905E-2   -3.700702491288674E-2    2.850540462429349E-2   -3.613148861706408E-2    9.718338147131449E-1    3.562330691855323E-2
 1.518996068318418E5     9.710311797044363E-1    3.624150096827826E-2    2.920531298538107E-2   -3.679330255304072E-2    2.846720590722427E-2   -3.592206108878391E-2    9.718813080393581E-1    3.540161021519487E-2
 1.530585799680507E5     9.710816527777286E-1    3.602571856146434E-2    2.916705444486758E-2   -3.658744889333514E-2    2.842022679205051E-2   -3.571637833535198E-2    9.719391155452380E-1    3.519543595088193E-2
 1.542263959101001E5     9.711407981291349E-1    3.582219121847767E-2    2.912225933098553E-2   -3.637909099518188E-2    2.838325658093411E-2   -3.551059762982289E-2    9.719502660353304E-1    3.498692504567066E-2
 1.554031221273835E5     9.711870696201959E-1    3.561616960298136E-2    2.907898414935211E-2   -3.617191433059674E-2    2.834321162882833E-2   -3.530615129824281E-2    9.720053995292113E-1    3.479247051531153E-2
 1.565888266040779E5     9.712115464648394E-1    3.537810229660898E-2    2.903552941114146E-2   -3.596108478189474E-2    2.830736873473609E-2   -3.510824684359094E-2    9.720242299580224E-1    3.459671452727491E-2
 1.577835778430689E5     9.712639226522828E-1    3.518256221199872E-2    2.899222378047484E-2   -3.575743670260939E-2    2.825933032380656E-2   -3.490696767211598E-2    9.720563698823645E-1    3.439486311267254E-2
 1.589874448699104E5     9.712678540874131E-1    3.497697285782479E-2    2.895529512519941E-2   -3.554914212147892E-2    2.822260733570869E-2   -3.470887962780642E-2    9.721176667590967E-1    3.419180092180349E-2
 1.602004972368116E5     9.713180365248790E-1    3.478360240863525E-2    2.891075655915834E-2   -3.535357924262225E-2    2.817832440618677E-2   -3.451054868980562E-2    9.721275288873150E-1    3.399950121109786E-2
 1.614228050266550E5     9.713834525059031E-1    3.456458556525185E-2    2.887274136679333E-2   -3.515367980441561E-2    2.813882093130169E-2   -3.431724127461353E-2    9.721833526320438E-1    3.380696639417366E-2
 1.626544388570473E5     9.714011269988453E-1    3.437505361430952E-2    2.882863460487076E-2   -3.495857410284740E-2    2.809944130602637E-2   -3.412840240239728E-2    9.722446286330426E-1    3.361469274183781E-2
 1.638954698843964E5     9.714229499131661E-1    3.416529164413862E-2    2.878597214315632E-2   -3.476294276395441E-2    2.805921104906019E-2   -3.393507209734134E-2    9.722668069268864E-1    3.342712515869029E-2
 1.651459698080244E5     9.714890783735437E-1    3.398227975563189E-2    2.874218753424807E-2   -3.456795493008371E-2    2.801527942076381E-2   -3.374645406896495E-2    9.723118419471146E-1    3.321713791797552E-2
 1.664060108743095E5     9.715433289983431E-1    3.378163375873752E-2    2.869694339083101E-2   -3.437112752402627E-2    2.797454282913830E-2   -3.355604267831115E-2    9.723645031244494E-1    3.304171510273973E-2
 1.676756658808590E5     9.715976455764348E-1    3.358832121054739E-2    2.865710181392147E-2   -3.418172070008349E-2    2.793784440093832E-2   -3.337036753393355E-2    9.724391520563532E-1    3.284585085240535E-2
 1.689550081807175E5     9.716218210981926E-1    3.341535645415407E-2    2.861403595627216E-2   -3.399272421412807E-2    2.789597494041746E-2   -3.319104712611203E-2    9.724654868281249E-1    3.264885416387203E-2
 1.702441116866020E5     9.716820484968453E-1    3.321296851160515E-2    2.857716922553059E-2   -3.380771974075331E-2    2.785230253039067E-2   -3.300393413183642E-2    9.724759902271018E-1    3.247657047505577E-2
 1.715430508751738E5     9.717143723992345E-1    3.303796911350947E-2    2.853218174711480E-2   -3.362505452300396E-2    2.781221824598111E-2   -3.281894602748538E-2    9.725076835665361E-1    3.228770836183361E-2
 1.728519007913403E5     9.717680137965011E-1    3.285189677864359E-2    2.848699306657688E-2   -3.343796547299709E-2    2.777241085881839E-2   -3.264329529324116E-2    9.725528973432274E-1    3.210214614904534E-2
 1.741707370525927E5     9.718452533412355E-1    3.265364232053607E-2    2.844779310704609E-2   -3.325161516218061E-2    2.773055388489966E-2   -3.246404566170935E-2    9.725805425900728E-1    3.191336703885179E-2
 1.754996358533718E5     9.718952295236958E-1    3.248409626272056E-2    2.840257597066636E-2   -3.307149107772057E-2    2.768944686899743E-2   -3.228714787551595E-2    9.726036604325958E-1    3.174239073326644E-2
 1.768386739694722E5     9.719217487795564E-1    3.229717642934059E-2    2.836218051180334E-2   -3.288997373467564E-2    2.764620773257056E-2   -3.211255565243452E-2    9.726326868824013E-1    3.154849985088822E-2
 1.781879287624771E5     9.719682793175085E-1    3.212548713390335E-2    2.832012337555466E-2   -3.271541765279701E-2    2.760767862786295E-2   -3.194032429179940E-2    9.726693920915980E-1    3.136448631430441E-2
 1.795474781842276E5     9.720278793399825E-1    3.192833165763129E-2    2.827959515659803E-2   -3.254113184909570E-2    2.756680259745536E-2   -3.176529094842411E-2    9.727162379065328E-1    3.120763782224481E-2
 1.809174007813277E5     9.720185699348667E-1    3.176064843203074E-2    2.823624812080231E-2   -3.236328799100255E-2    2.752415588336208E-2   -3.159513201742703E-2    9.727855993014680E-1    3.104979826610835E-2
 1.822977756996804E5     9.720824341671404E-1    3.157494436417019E-2    2.819017458114044E-2   -3.219143434446129E-2    2.748307180613403E-2   -3.143023818112735E-2    9.728802288216042E-1    3.087689662310203E-2
 1.836886826890609E5     9.721201556094903E-1    3.139751043356496E-2    2.814893708053499E-2   -3.201808220592749E-2    2.744128794471120E-2   -3.126092651285651E-2    9.728679192584345E-1    3.067775568168419E-2
 1.850902021077247E5     9.721882589446440E-1    3.123205541168135E-2    2.810701179733132E-2   -3.184593974364072E-2    2.740135088075328E-2   -3.109375837262137E-2    9.729379478626136E-1    3.053884125074490E-2
 1.865024149270491E5     9.721771403294283E-1    3.105113701561967E-2    2.806111622588064E-2   -3.168184765509208E-2    2.735568123607493E-2   -3.092726181783587E-2    9.729352947105131E-1    3.035237833434468E-2
 1.879254027362132E5     9.722302710831736E-1    3.087122176877194E-2    2.801786506478872E-2   -3.151028957831809E-2    2.731594527874119E-2   -3.076460918578084E-2    9.730415563408230E-1    3.018322636364939E-2
 1.893592477469092E5     9.722738024929043E-1    3.072685640237673E-2    2.799512832839563E-2   -3.136645256688758E-2    2.726107456702550E-2   -3.059313141197040E-2    9.730410967082301E-1    3.003726076225833E-2
 1.908040327980933E5     9.722863996396582E-1    3.053284038323557E-2    2.793033517600626E-2   -3.117585573799656E-2    2.723005183480195E-2   -3.043660515193847E-2    9.730856306158993E-1    2.985757861758436E-2
 1.922598413607715E5     9.723073106680931E-1    3.037816786836195E-2    2.788808328791715E-2   -3.101588461252836E-2    2.719014349343207E-2   -3.027796161858422E-2    9.731297996239826E-1    2.970561367035157E-2
 1.937267575428232E5     9.724035739065694E-1    3.020587080950851E-2    2.784166179037098E-2   -3.085470718715789E-2    2.714953316767392E-2   -3.012412753734469E-2    9.731734919027086E-1    2.953805120204073E-2
 1.952048660938581E5     9.724500689028249E-1    3.005310335428921E-2    2.779924532151314E-2   -3.069289255034295E-2    2.710420377583982E-2   -2.996542067601723E-2    9.732290267124396E-1    2.937214360398930E-2
 1.966942524101142E5     9.724957672645437E-1    2.988384141233100E-2    2.775676179098739E-2   -3.053544340060953E-2    2.706598707706012E-2   -2.981056418089275E-2    9.732451351710327E-1    2.922775012923069E-2
 1.981950025393913E5     9.725330848157885E-1    2.971323882169367E-2    2.771693333965671E-2   -3.038321120465244E-2    2.702088068133515E-2   -2.965735445175130E-2    9.732801266262345E-1    2.907410350931256E-2
