#  HZ   S   RI   R     50.00 
! Rohde & Schwarz Vector Network Analyzer 
! Rohde-Schwarz,ZNLE6-2Port,1323001256200024,1.71.1.10-23.02.1.238
! Created: UTC 4/8/2025, 4:22:38 AM
! freq[Hz]                re:S11                  im:S11                  re:S21                  im:S21                  re:S12                  im:S12                  re:S22                  im:S22
 1.000000000000000E5     9.728712736706024E-1    4.475435288362072E-2    2.744716636576388E-2   -4.513159016054658E-2    2.671776849405582E-2   -4.403035465051774E-2    9.736344028263685E-1    4.355797990641349E-2
 1.007629862646662E5     9.729473320447155E-1    4.444935585082135E-2    2.740820907254427E-2   -4.483388446096011E-2    2.667940783189294E-2   -4.373981933698414E-2    9.736993127934142E-1    4.326219914218782E-2
 1.015317940097331E5     9.729992006581916E-1    4.414300976035729E-2    2.736886552003907E-2   -4.453940089645949E-2    2.664392521427629E-2   -4.345378736629042E-2    9.737040030374811E-1    4.300210184879593E-2
 1.023064676522963E5     9.729995570290931E-1    4.384237260012767E-2    2.732829985025481E-2   -4.425733396622767E-2    2.660170303001833E-2   -4.317426337434294E-2    9.737599398957597E-1    4.268383776187141E-2
 1.030870519483485E5     9.730329787077074E-1    4.355910315638227E-2    2.729238949562056E-2   -4.398094454365217E-2    2.656135137192764E-2   -4.289332963434433E-2    9.738074809471696E-1    4.244010041253467E-2
 1.038735919953636E5     9.730821644625592E-1    4.326929276144117E-2    2.725176408962272E-2   -4.369483970886197E-2    2.652149968059304E-2   -4.261573822951952E-2    9.738558870626045E-1    4.213497455216956E-2
 1.046661332349037E5     9.731070661459158E-1    4.297591920447476E-2    2.721058931276779E-2   -4.340383526415566E-2    2.648066490902700E-2   -4.234093021158990E-2    9.738506453202276E-1    4.186282104969730E-2
 1.054647214552430E5     9.731494890617277E-1    4.267549199745892E-2    2.716435046197595E-2   -4.311530345618183E-2    2.644407639082050E-2   -4.206541549138037E-2    9.738888603081652E-1    4.158677800586560E-2
 1.062694027940149E5     9.732046830870035E-1    4.239805864779281E-2    2.712031744745348E-2   -4.283536555058667E-2    2.640895210847806E-2   -4.180099748765693E-2    9.739471124414207E-1    4.132456482898342E-2
 1.070802237408760E5     9.732280376804229E-1    4.213188004036780E-2    2.708457626847059E-2   -4.256766438972569E-2    2.636870692747448E-2   -4.152849107228306E-2    9.739886839817171E-1    4.105120638704336E-2
 1.078972311401927E5     9.732310828349605E-1    4.186387730155122E-2    2.704775315180676E-2   -4.230089696423781E-2    2.633126932614753E-2   -4.126136096580459E-2    9.740137007063004E-1    4.079271172246362E-2
 1.087204721937475E5     9.732984069743238E-1    4.158881919468612E-2    2.701407237229429E-2   -4.203801277662514E-2    2.629383651420286E-2   -4.100166128267690E-2    9.740602603739507E-1    4.053902505796101E-2
 1.095499944634658E5     9.733569163163458E-1    4.130218716010792E-2    2.696945274972024E-2   -4.176477850012172E-2    2.625791457450212E-2   -4.073517942870072E-2    9.741212113510122E-1    4.027563757500759E-2
 1.103858458741646E5     9.733700742542613E-1    4.103454089658261E-2    2.692866033328450E-2   -4.149116598124749E-2    2.622016687853704E-2   -4.048063084919114E-2    9.741612416991324E-1    4.000539221319484E-2
 1.112280747163201E5     9.734100702823484E-1    4.076921850304597E-2    2.688464994233451E-2   -4.122079794689906E-2    2.618430851072400E-2   -4.022231893573100E-2    9.741835349538750E-1    3.976096779334350E-2
 1.120767296488583E5     9.734375043475945E-1    4.050316786423779E-2    2.684691319449795E-2   -4.095936651548470E-2    2.614482152534122E-2   -3.996694774524985E-2    9.741820906803945E-1    3.949204897537926E-2
 1.129318597019661E5     9.734639865857968E-1    4.024177645276356E-2    2.681440799934955E-2   -4.070496111940392E-2    2.610718640375746E-2   -3.971259335018906E-2    9.742538425257697E-1    3.925134916790084E-2
 1.137935142799240E5     9.734885214383636E-1    3.998964888364252E-2    2.677688499069555E-2   -4.045486012684144E-2    2.607245677708953E-2   -3.946441114607367E-2    9.743088024180526E-1    3.899879733562779E-2
 1.146617431639607E5     9.735425261425997E-1    3.972986208664659E-2    2.674057516624536E-2   -4.019986786746423E-2    2.604041027519432E-2   -3.921459966178954E-2    9.743278628496208E-1    3.873986549255093E-2
 1.155365965151286E5     9.735994842659468E-1    3.947032994091702E-2    2.670030965161922E-2   -3.993810509238283E-2    2.600031500525954E-2   -3.896621043215057E-2    9.743074573941148E-1    3.850791473678370E-2
 1.164181248772018E5     9.736211153334193E-1    3.921047120439413E-2    2.666272750057066E-2   -3.968582382385787E-2    2.596080963824807E-2   -3.872381358747393E-2    9.743877690593420E-1    3.824857931948221E-2
 1.173063791795965E5     9.736493443859747E-1    3.896771465598392E-2    2.662055011523047E-2   -3.943316894860811E-2    2.593013348503106E-2   -3.847893038320350E-2    9.743937601266457E-1    3.802487148260821E-2
 1.182014107403141E5     9.736970008191210E-1    3.873578231958960E-2    2.658514380991678E-2   -3.919278452353266E-2    2.589291165320601E-2   -3.823772203980629E-2    9.744139271082559E-1    3.777963817474742E-2
 1.191032712689044E5     9.737283003052176E-1    3.847928185427945E-2    2.655180739189067E-2   -3.895070885986793E-2    2.585536115561496E-2   -3.800179116260954E-2    9.744599232399381E-1    3.753236815719176E-2
 1.200120128694542E5     9.737440265090611E-1    3.822372858318229E-2    2.651722238869949E-2   -3.870861722533319E-2    2.582394117870824E-2   -3.776570269733308E-2    9.745109362502835E-1    3.730070290007251E-2
 1.209276880435975E5     9.737794448928320E-1    3.800167999997017E-2    2.648122774044305E-2   -3.847029656759892E-2    2.578401955076461E-2   -3.753004162916367E-2    9.745590442192837E-1    3.703918750267256E-2
 1.218503496935483E5     9.738221645598393E-1    3.775779745800577E-2    2.643992412333224E-2   -3.822660629034708E-2    2.574778684005287E-2   -3.729456855419466E-2    9.745929117524416E-1    3.682876448445829E-2
 1.227800511251578E5     9.738665744645822E-1    3.749794492521126E-2    2.640136661527771E-2   -3.798624906888030E-2    2.571209950930552E-2   -3.706591941097764E-2    9.746425579774465E-1    3.660074165385831E-2
 1.237168460509929E5     9.738896837216596E-1    3.725495861872049E-2    2.636241612124516E-2   -3.775047778636109E-2    2.567766473058002E-2   -3.683654386758060E-2    9.746589689625224E-1    3.638007163606585E-2
 1.246607885934402E5     9.739169184424630E-1    3.702879031933595E-2    2.633187718788197E-2   -3.752451737171039E-2    2.564235050725728E-2   -3.661127411110832E-2    9.746714447071932E-1    3.615231529914074E-2
 1.256119332878327E5     9.739303738240953E-1    3.682005152803359E-2    2.629693718864431E-2   -3.729703123967078E-2    2.561145925407861E-2   -3.638171830748990E-2    9.747121646487898E-1    3.593431392492553E-2
 1.265703350856002E5     9.739779877497492E-1    3.657934948820925E-2    2.626376272379917E-2   -3.706702311990372E-2    2.556877679341022E-2   -3.616160112721353E-2    9.747597071005391E-1    3.569010891861499E-2
 1.275360493574453E5     9.740180066128122E-1    3.635029269581881E-2    2.622347577179316E-2   -3.684214076459705E-2    2.554049420547901E-2   -3.593878809257103E-2    9.747958927147513E-1    3.547824331450213E-2
 1.285091318965405E5     9.740601222696779E-1    3.613173132321071E-2    2.618650893828334E-2   -3.661566722260561E-2    2.550648629062767E-2   -3.572363711065656E-2    9.748546220722334E-1    3.525023462895972E-2
 1.294896389217529E5     9.740809084825039E-1    3.589517996982795E-2    2.614673332972480E-2   -3.638130735416800E-2    2.547171461343902E-2   -3.550310034380759E-2    9.748774495679241E-1    3.505222302536641E-2
 1.304776270808914E5     9.741298362664623E-1    3.568461536338532E-2    2.611300971769415E-2   -3.616885011292075E-2    2.543590769079620E-2   -3.528963229531935E-2    9.749209009478935E-1    3.481732896762828E-2
 1.314731534539810E5     9.741441465669206E-1    3.545806651948771E-2    2.609138685509498E-2   -3.596316122052753E-2    2.540476486582770E-2   -3.507333935312952E-2    9.749698525638071E-1    3.460678260631848E-2
 1.324762755565583E5     9.741462666951377E-1    3.527436754097304E-2    2.606137824622426E-2   -3.575375659561462E-2    2.536986018995298E-2   -3.486566945826707E-2    9.749669519641877E-1    3.439378596706984E-2
 1.334870513429962E5     9.741819508843430E-1    3.504003501177950E-2    2.602584962401964E-2   -3.554398899964312E-2    2.533036579024497E-2   -3.465091655127082E-2    9.750002541861031E-1    3.417340437121139E-2
 1.345055392098512E5     9.742281565290841E-1    3.482370498890736E-2    2.598475781698471E-2   -3.531724255623930E-2    2.529709016298437E-2   -3.444581212353606E-2    9.750234945111445E-1    3.398648066510924E-2
 1.355317979992373E5     9.742931121073305E-1    3.457783418944774E-2    2.593531163236093E-2   -3.509034615541479E-2    2.526641887014209E-2   -3.423949625083565E-2    9.750925638962245E-1    3.378469389587152E-2
 1.365658870022265E5     9.743325441317555E-1    3.437016612226684E-2    2.589886650516297E-2   -3.487621048882177E-2    2.523280514153030E-2   -3.403676442607480E-2    9.751435058855322E-1    3.358584081208951E-2
 1.376078659622731E5     9.743496093499583E-1    3.416963649177600E-2    2.585727735116151E-2   -3.466565024634969E-2    2.519545154798636E-2   -3.383160927451653E-2    9.751450126603374E-1    3.334744402034408E-2
 1.386577950786655E5     9.744297627891032E-1    3.396009822876234E-2    2.582715577628179E-2   -3.446502807073817E-2    2.516074777179308E-2   -3.363035597885781E-2    9.751841871243444E-1    3.315483079077237E-2
 1.397157350100044E5     9.744578721802849E-1    3.376036361520013E-2    2.579269961285995E-2   -3.426312748296392E-2    2.512896855498698E-2   -3.342999656092991E-2    9.752119730199934E-1    3.296011147410071E-2
 1.407817468777081E5     9.744959056752294E-1    3.353726877257074E-2    2.575878938823987E-2   -3.405577534159877E-2    2.509343867613913E-2   -3.323319787960533E-2    9.752372322286145E-1    3.276090271822222E-2
 1.418558922695422E5     9.745084543600988E-1    3.334062674500365E-2    2.571578672472891E-2   -3.385287725686174E-2    2.505903498995256E-2   -3.303647528385813E-2    9.752468361723425E-1    3.256002103217918E-2
 1.429382332431784E5     9.745393961113166E-1    3.314167879143329E-2    2.567820736826529E-2   -3.364661844647913E-2    2.502525352037927E-2   -3.284241776859897E-2    9.753273299797438E-1    3.237064027894886E-2
 1.440288323297804E5     9.746257248907729E-1    3.294787896693099E-2    2.563936785936505E-2   -3.344907184168993E-2    2.498976067275015E-2   -3.265083466042815E-2    9.753520922412082E-1    3.216949052909635E-2
 1.451277525376154E5     9.746561546556223E-1    3.274278380115637E-2    2.560547706868671E-2   -3.325448945209249E-2    2.496018380441482E-2   -3.245756146024972E-2    9.753737790956145E-1    3.196766591984447E-2
 1.462350573556962E5     9.746764936666094E-1    3.255478776816946E-2    2.557435999886462E-2   -3.306170613005606E-2    2.492532139870727E-2   -3.226705551565570E-2    9.753954488026571E-1    3.178641934956926E-2
 1.473508107574468E5     9.746880987937666E-1    3.236454299701655E-2    2.553866715961369E-2   -3.287280931515427E-2    2.489050024284147E-2   -3.207778360882516E-2    9.754271115344094E-1    3.159396139516888E-2
 1.484750772044004E5     9.747427683316013E-1    3.216702176324178E-2    2.550068578231240E-2   -3.267575021129936E-2    2.485263876306141E-2   -3.189485496808240E-2    9.754413806105705E-1    3.140234312742025E-2
 1.496079216499225E5     9.747915126150839E-1    3.198942341455988E-2    2.546823665232347E-2   -3.248403935831629E-2    2.482161433897774E-2   -3.171082942260559E-2    9.754635306859276E-1    3.120327555635676E-2
 1.507494095429637E5     9.748302655572221E-1    3.176906476932233E-2    2.543029064815585E-2   -3.229432985301987E-2    2.479375411486790E-2   -3.152505805916598E-2    9.755473920521781E-1    3.103477332638578E-2
 1.518996068318418E5     9.748547095730717E-1    3.159632379247682E-2    2.539123925763640E-2   -3.211345538862736E-2    2.475483677425750E-2   -3.134249532875692E-2    9.755712362045809E-1    3.085036211042305E-2
 1.530585799680507E5     9.748590604237726E-1    3.140857464584623E-2    2.536051871842307E-2   -3.192929638763806E-2    2.471714441336298E-2   -3.116758955542425E-2    9.755838570390328E-1    3.065621944727646E-2
 1.542263959101001E5     9.749473119603295E-1    3.123003561505582E-2    2.532684330844436E-2   -3.174664357849393E-2    2.468582493186232E-2   -3.098831012406314E-2    9.756094649075115E-1    3.048774157141152E-2
 1.554031221273835E5     9.749637889536764E-1    3.106090196622565E-2    2.529262111893376E-2   -3.156552204945066E-2    2.465050701207433E-2   -3.081220518483139E-2    9.756605797809134E-1    3.030561177711840E-2
 1.565888266040779E5     9.749963380674105E-1    3.085954786662396E-2    2.525465868701597E-2   -3.138168454865598E-2    2.461648046205508E-2   -3.063279632121866E-2    9.756685260642379E-1    3.014164036579654E-2
 1.577835778430689E5     9.750450780218295E-1    3.068389833120984E-2    2.521576077382941E-2   -3.120250923265994E-2    2.458366610569031E-2   -3.046387294514313E-2    9.757279595093536E-1    2.996446175639328E-2
 1.589874448699104E5     9.750303187028726E-1    3.050550568576155E-2    2.518047607345928E-2   -3.102863620139512E-2    2.454648981431011E-2   -3.028993015272076E-2    9.757765160106833E-1    2.977927688458791E-2
 1.602004972368116E5     9.750774015311137E-1    3.032035068279321E-2    2.514809736111205E-2   -3.085172258472105E-2    2.451288684369066E-2   -3.011703766675614E-2    9.757715458436758E-1    2.961552238398852E-2
 1.614228050266550E5     9.751196156845328E-1    3.014310329000156E-2    2.511165758431970E-2   -3.068169001788661E-2    2.448082990312228E-2   -2.995184499041264E-2    9.758171947909572E-1    2.942851367351342E-2
 1.626544388570473E5     9.751164910747148E-1    2.997319555110781E-2    2.507245139616068E-2   -3.050912075353920E-2    2.444788220746037E-2   -2.977940096108144E-2    9.758691580236778E-1    2.927324131509093E-2
 1.638954698843964E5     9.751385011212004E-1    2.977609570087052E-2    2.503655087634923E-2   -3.033582203973970E-2    2.441398682578199E-2   -2.961452254529802E-2    9.758714839434774E-1    2.912046969212161E-2
 1.651459698080244E5     9.751874357675036E-1    2.961141084085639E-2    2.500075350099945E-2   -3.016777166927997E-2    2.437701818662149E-2   -2.945158243844627E-2    9.759119545213722E-1    2.893990140963851E-2
 1.664060108743095E5     9.752238724337136E-1    2.943910042839325E-2    2.496406378549032E-2   -2.999744371226637E-2    2.434124207465167E-2   -2.928052788705993E-2    9.759498458390736E-1    2.877794460077811E-2
 1.676756658808590E5     9.752581166608791E-1    2.928133140366541E-2    2.492946054621564E-2   -2.983145655443675E-2    2.430542123156722E-2   -2.912122495732519E-2    9.760133347019797E-1    2.860110805811502E-2
 1.689550081807175E5     9.752952273663140E-1    2.911705097437522E-2    2.489445175788580E-2   -2.966373429199376E-2    2.427313563865798E-2   -2.896287312430169E-2    9.760816945383128E-1    2.845312344793091E-2
 1.702441116866020E5     9.753414956156879E-1    2.893465456358447E-2    2.486142026929945E-2   -2.950494337652775E-2    2.423666449148565E-2   -2.880184539704206E-2    9.760822468282968E-1    2.828954338872291E-2
 1.715430508751738E5     9.753612026826031E-1    2.878274419659434E-2    2.482624434016709E-2   -2.934316666253294E-2    2.420020959510464E-2   -2.864563642867060E-2    9.760891497280969E-1    2.810817178061696E-2
 1.728519007913403E5     9.754117357133693E-1    2.860264528474510E-2    2.478395800812187E-2   -2.917803832700995E-2    2.416694557756269E-2   -2.848761399881970E-2    9.761458943128047E-1    2.794759683959154E-2
 1.741707370525927E5     9.754365758234641E-1    2.844752596565093E-2    2.475262445174781E-2   -2.902209551966053E-2    2.413110289068609E-2   -2.833340014656082E-2    9.761410438410649E-1    2.778967935142341E-2
 1.754996358533718E5     9.754997516401768E-1    2.830161122407560E-2    2.471193826379036E-2   -2.886219881658136E-2    2.409758633534437E-2   -2.817785236926545E-2    9.761887803859256E-1    2.763295285743964E-2
 1.768386739694722E5     9.755452906575826E-1    2.813647407340037E-2    2.467956035239939E-2   -2.870662827068850E-2    2.406250357951353E-2   -2.802167041236371E-2    9.762195411846368E-1    2.747888785052578E-2
 1.781879287624771E5     9.755935332327880E-1    2.798268083759173E-2    2.464004557950119E-2   -2.855030501609499E-2    2.402732600543878E-2   -2.787376948932941E-2    9.762611553409508E-1    2.733109585447150E-2
 1.795474781842276E5     9.756183480573958E-1    2.780667804606625E-2    2.460811002339012E-2   -2.839814069589615E-2    2.399282390056982E-2   -2.771922572368613E-2    9.762991873292491E-1    2.719299743199970E-2
 1.809174007813277E5     9.756490488813834E-1    2.766740926228063E-2    2.457447621533964E-2   -2.824649751805858E-2    2.395663441049846E-2   -2.757174508351068E-2    9.763552296098605E-1    2.703840886918338E-2
 1.822977756996804E5     9.756903808653264E-1    2.749946837990624E-2    2.453305443571614E-2   -2.809263483924932E-2    2.392394220906200E-2   -2.742860258283727E-2    9.764375197461581E-1    2.688487015579398E-2
 1.836886826890609E5     9.757296958869895E-1    2.736022371186100E-2    2.449645909153552E-2   -2.794484076307022E-2    2.388560633470761E-2   -2.728090311779172E-2    9.764054181165425E-1    2.672708513159892E-2
 1.850902021077247E5     9.757899789058462E-1    2.721060818405898E-2    2.445962835998394E-2   -2.779331279163310E-2    2.385258666394457E-2   -2.713681380951765E-2    9.764777875332098E-1    2.661691999915921E-2
 1.865024149270491E5     9.757764675046067E-1    2.705247383032169E-2    2.442115706865271E-2   -2.764863977930698E-2    2.381598329421180E-2   -2.699378845136835E-2    9.765028452904169E-1    2.642520156710258E-2
 1.879254027362132E5     9.757971448973412E-1    2.688296326611636E-2    2.438657898853760E-2   -2.750251193624472E-2    2.378207210963958E-2   -2.684880935412236E-2    9.765787089661020E-1    2.628260199791521E-2
 1.893592477469092E5     9.758563077317932E-1    2.678064535438161E-2    2.437306913643757E-2   -2.735615900601018E-2    2.374012838006131E-2   -2.671424013152369E-2    9.765993128143381E-1    2.611898696873684E-2
 1.908040327980933E5     9.758799996472666E-1    2.658972461681006E-2    2.430866935002532E-2   -2.720940061920810E-2    2.371173592197139E-2   -2.656298157241537E-2    9.766045217893178E-1    2.601426512202139E-2
 1.922598413607715E5     9.759421162194996E-1    2.646911567193415E-2    2.427524898942800E-2   -2.706849304470603E-2    2.366827594980489E-2   -2.642808433319104E-2    9.766367239352175E-1    2.587375099431216E-2
 1.937267575428232E5     9.759970145577779E-1    2.630951677390029E-2    2.423533097964113E-2   -2.692937061231324E-2    2.363737644918276E-2   -2.628739211325733E-2    9.766725192160755E-1    2.572744588736217E-2
 1.952048660938581E5     9.760245027098939E-1    2.618514663012177E-2    2.419758405666406E-2   -2.678848526376083E-2    2.360007272088399E-2   -2.615099526083118E-2    9.767123532470873E-1    2.558183602604920E-2
 1.966942524101142E5     9.760723974345393E-1    2.602582547843672E-2    2.416158831075903E-2   -2.665005916740936E-2    2.356640643651498E-2   -2.601768559233632E-2    9.767418993309568E-1    2.544032564801858E-2
 1.981950025393913E5     9.761167274533076E-1    2.588931946678519E-2    2.412767001952649E-2   -2.651668268506451E-2    2.352564288103747E-2   -2.588105181723252E-2    9.767583656727188E-1    2.530698560563048E-2
