#  HZ   S   RI   R     50.00 
! Rohde & Schwarz Vector Network Analyzer 
! Rohde-Schwarz,ZNLE6-2Port,1323001256200024,1.71.1.10-23.02.1.238
! Created: UTC 4/8/2025, 4:01:54 AM
! freq[Hz]                re:S11                  im:S11                  re:S21                  im:S21                  re:S12                  im:S12                  re:S22                  im:S22
 1.000000000000000E5     9.763161793735086E-1    4.004178905904549E-2    2.396888962729304E-2   -4.036655124971116E-2    2.332831704076969E-2   -3.936984175004579E-2    9.770082709904599E-1    3.895003369930017E-2
 1.007629862646662E5     9.763543070135063E-1    3.974551052904038E-2    2.393072211730270E-2   -4.009479517124313E-2    2.329846270525497E-2   -3.911271678018285E-2    9.770316088596883E-1    3.867408089051962E-2
 1.015317940097331E5     9.764096100915640E-1    3.947078529604531E-2    2.389919657027416E-2   -3.983654876466940E-2    2.326705242010338E-2   -3.885511869485453E-2    9.770574577236142E-1    3.842749886701883E-2
 1.023064676522963E5     9.763909973818454E-1    3.919312184038512E-2    2.386742073469529E-2   -3.957889970221364E-2    2.323446139973879E-2   -3.860388551412010E-2    9.771005032628269E-1    3.816284281481703E-2
 1.030870519483485E5     9.764084469537818E-1    3.894410810346149E-2    2.383500700243390E-2   -3.932985580196441E-2    2.320029139560428E-2   -3.835140943153376E-2    9.771099211700053E-1    3.792532504462635E-2
 1.038735919953636E5     9.764439547331706E-1    3.865379259197472E-2    2.380585232876654E-2   -3.906729071945332E-2    2.316947705164654E-2   -3.810084715444858E-2    9.771745763464252E-1    3.764950071090605E-2
 1.046661332349037E5     9.764588847084930E-1    3.839601531500064E-2    2.376398759779646E-2   -3.880912150075206E-2    2.313590684456373E-2   -3.784612886558220E-2    9.771488922281515E-1    3.740417541409082E-2
 1.054647214552430E5     9.764949451911646E-1    3.812572997916247E-2    2.373155529975302E-2   -3.855175624272512E-2    2.310635077721459E-2   -3.760548501681315E-2    9.772025919146761E-1    3.716129177509356E-2
 1.062694027940149E5     9.765313244476369E-1    3.788642582572758E-2    2.369538951304473E-2   -3.830073974458871E-2    2.307533319857027E-2   -3.736208217305880E-2    9.772816215481953E-1    3.692768648703960E-2
 1.070802237408760E5     9.765574161984274E-1    3.763854445434373E-2    2.366403264506984E-2   -3.805764722721660E-2    2.304177950875232E-2   -3.712253314897626E-2    9.772860870380118E-1    3.668019151528219E-2
 1.078972311401927E5     9.766096320568430E-1    3.739276069125356E-2    2.363944957750130E-2   -3.781597578678844E-2    2.301018404951248E-2   -3.688407073378756E-2    9.773125507159715E-1    3.644932761008897E-2
 1.087204721937475E5     9.766388975843511E-1    3.714131522545317E-2    2.360796927803006E-2   -3.757716604778277E-2    2.298224673390028E-2   -3.664469300987645E-2    9.773380280680120E-1    3.622114534538960E-2
 1.095499944634658E5     9.767284114434445E-1    3.691607647547551E-2    2.357591654269746E-2   -3.733281994250250E-2    2.294598656291750E-2   -3.640729916167594E-2    9.773606958364863E-1    3.597764709384096E-2
 1.103858458741646E5     9.767060516236117E-1    3.666455143448564E-2    2.353949245513754E-2   -3.708651315647686E-2    2.291864004547263E-2   -3.617455617152286E-2    9.773991737217533E-1    3.572954862898639E-2
 1.112280747163201E5     9.767238523829950E-1    3.641534384983124E-2    2.350397497358410E-2   -3.684145056600168E-2    2.288810730254621E-2   -3.594117705642531E-2    9.774003164169596E-1    3.550829254931454E-2
 1.120767296488583E5     9.767312094245530E-1    3.616776067547815E-2    2.347301797169664E-2   -3.660971685050976E-2    2.285935706219096E-2   -3.571236255134984E-2    9.774305861336645E-1    3.526983531195480E-2
 1.129318597019661E5     9.767579402957199E-1    3.594709423552060E-2    2.344310961745094E-2   -3.637942496098597E-2    2.282907027251087E-2   -3.548342923157229E-2    9.774869438827567E-1    3.504346225682004E-2
 1.137935142799240E5     9.767906962371014E-1    3.571719855780092E-2    2.341726167760632E-2   -3.615295248875511E-2    2.279760221430445E-2   -3.525815497252839E-2    9.775130204355575E-1    3.482345947810211E-2
 1.146617431639607E5     9.768275010970631E-1    3.548346912677904E-2    2.338342785164204E-2   -3.592568679967256E-2    2.276558346096105E-2   -3.503589495595126E-2    9.775673622871778E-1    3.461302990247148E-2
 1.155365965151286E5     9.768884466921400E-1    3.523604644009005E-2    2.334880274559718E-2   -3.569384398081596E-2    2.273462173381560E-2   -3.481077797892448E-2    9.775583311444047E-1    3.437687948575899E-2
 1.164181248772018E5     9.768998096819226E-1    3.500823609387329E-2    2.331610020126884E-2   -3.545851377565822E-2    2.270443590239709E-2   -3.459087150475311E-2    9.776121859798704E-1    3.416516686448058E-2
 1.173063791795965E5     9.769129995419361E-1    3.479015477289507E-2    2.328612178871781E-2   -3.523353447350392E-2    2.267691655430295E-2   -3.437040074221931E-2    9.776212507288641E-1    3.394731702095768E-2
 1.182014107403141E5     9.769543789318614E-1    3.457657542062167E-2    2.325135407546010E-2   -3.501590094118655E-2    2.264743195179390E-2   -3.415352189885579E-2    9.776429524881801E-1    3.372915506794999E-2
 1.191032712689044E5     9.769433999368184E-1    3.434048662411810E-2    2.322724610420248E-2   -3.479883574390340E-2    2.261731339085808E-2   -3.394363777636712E-2    9.776861179809718E-1    3.352008910680065E-2
 1.200120128694542E5     9.769695357315445E-1    3.411348800143250E-2    2.319743069838986E-2   -3.458411482896084E-2    2.258441236646671E-2   -3.372900499364376E-2    9.777404749893127E-1    3.329584093542836E-2
 1.209276880435975E5     9.770329906402404E-1    3.390795287174130E-2    2.316596679629467E-2   -3.436528884676655E-2    2.255756063130809E-2   -3.351486846697964E-2    9.777666415385036E-1    3.307786543937886E-2
 1.218503496935483E5     9.770571463885978E-1    3.368725418411109E-2    2.313644217703933E-2   -3.414597298276059E-2    2.252577026994275E-2   -3.330874140333089E-2    9.777649191890921E-1    3.285085714138481E-2
 1.227800511251578E5     9.770821635737762E-1    3.345422350368243E-2    2.309753951859840E-2   -3.393178753342725E-2    2.250189599958956E-2   -3.309929001153800E-2    9.778341314863640E-1    3.266697638602468E-2
 1.237168460509929E5     9.771282284806461E-1    3.325414174972720E-2    2.306896986705189E-2   -3.372277029763157E-2    2.247000767144664E-2   -3.289537169339211E-2    9.778662953743975E-1    3.245580182104128E-2
 1.246607885934402E5     9.771655212862420E-1    3.303691790445545E-2    2.304316453131521E-2   -3.351349174220527E-2    2.243894968980136E-2   -3.269168542308448E-2    9.778366529453965E-1    3.225984856924784E-2
 1.256119332878327E5     9.771943876028375E-1    3.286224299679329E-2    2.301543156020415E-2   -3.331069138891285E-2    2.241126254379566E-2   -3.248357777146473E-2    9.778822915631418E-1    3.205637610335148E-2
 1.265703350856002E5     9.771998437178062E-1    3.263336698047370E-2    2.298783111327841E-2   -3.310053185877006E-2    2.238184155254279E-2   -3.228346315859928E-2    9.779059631811119E-1    3.186078188686416E-2
 1.275360493574453E5     9.772615014947275E-1    3.242193025027411E-2    2.295309571954459E-2   -3.289524684240198E-2    2.235413227943024E-2   -3.209166339562635E-2    9.779597392965019E-1    3.166413456038081E-2
 1.285091318965405E5     9.772889777484558E-1    3.222121023796393E-2    2.291891911107156E-2   -3.269354675574827E-2    2.232638501683528E-2   -3.189050517145568E-2    9.779598489684554E-1    3.145330652978728E-2
 1.294896389217529E5     9.772905758460667E-1    3.202228877822837E-2    2.289253613369450E-2   -3.248817575162080E-2    2.229692462952438E-2   -3.169393058776086E-2    9.779925417142754E-1    3.125813651547478E-2
 1.304776270808914E5     9.773266946890373E-1    3.182623679289577E-2    2.286116837618822E-2   -3.229469139309684E-2    2.226693931266403E-2   -3.150047471642677E-2    9.780180287811979E-1    3.107615563111156E-2
 1.314731534539810E5     9.773281493207582E-1    3.162998182956512E-2    2.284149688671765E-2   -3.210851979431562E-2    2.224174753538834E-2   -3.130749675132424E-2    9.780562798973357E-1    3.087465656976408E-2
 1.324762755565583E5     9.773384041734895E-1    3.144015089731375E-2    2.281916650818233E-2   -3.192175946489927E-2    2.221215638593332E-2   -3.111697020560530E-2    9.780983836879086E-1    3.067385373805046E-2
 1.334870513429962E5     9.773482689769099E-1    3.123377483592603E-2    2.279140186129256E-2   -3.172586098294382E-2    2.218261777833481E-2   -3.093093439016380E-2    9.781025344910499E-1    3.048708389131183E-2
 1.345055392098512E5     9.774233282059924E-1    3.105147575449621E-2    2.275585489302464E-2   -3.152907038401254E-2    2.215282942872674E-2   -3.074732917933497E-2    9.781280318540824E-1    3.031389729779703E-2
 1.355317979992373E5     9.774475364797901E-1    3.082778295495792E-2    2.271206354007528E-2   -3.131828802799297E-2    2.212277720848143E-2   -3.055457477160247E-2    9.781857124634477E-1    3.013292920990789E-2
 1.365658870022265E5     9.774725278064081E-1    3.062517351039521E-2    2.267820967156603E-2   -3.112799469496531E-2    2.209948696610941E-2   -3.036882257164361E-2    9.781899201584605E-1    2.993482022744081E-2
 1.376078659622731E5     9.774985241407576E-1    3.046048274924954E-2    2.264819477156433E-2   -3.094097903678986E-2    2.206650328621435E-2   -3.018831505586268E-2    9.782527687620806E-1    2.974221240260451E-2
 1.386577950786655E5     9.775710992054322E-1    3.027380766370607E-2    2.262494514774276E-2   -3.075705543687857E-2    2.204014656348793E-2   -3.000907697208095E-2    9.782712008183014E-1    2.956061317184026E-2
 1.397157350100044E5     9.776083163318738E-1    3.008541728810190E-2    2.259315235916000E-2   -3.057324794612783E-2    2.201118630658090E-2   -2.982928774655217E-2    9.782971488558456E-1    2.938968491998529E-2
 1.407817468777081E5     9.776589960041256E-1    2.990221727242154E-2    2.256278443762567E-2   -3.039017745501424E-2    2.198473756024396E-2   -2.964905185813838E-2    9.783371774771242E-1    2.920548797986223E-2
 1.418558922695422E5     9.776615956109121E-1    2.970347029157691E-2    2.253280105191958E-2   -3.020629210808296E-2    2.195864013845663E-2   -2.947386971364001E-2    9.783361543050790E-1    2.901709454850289E-2
 1.429382332431784E5     9.776632426360345E-1    2.952767154795878E-2    2.249608484016500E-2   -3.002035969263706E-2    2.192632989147749E-2   -2.929987606118787E-2    9.783864649105098E-1    2.884562490722586E-2
 1.440288323297804E5     9.777309105124868E-1    2.935557113932903E-2    2.246680838814079E-2   -2.984365723965976E-2    2.189710502008441E-2   -2.912261572962498E-2    9.784281782478141E-1    2.867136220053159E-2
 1.451277525376154E5     9.777713458143610E-1    2.917802035534544E-2    2.244020784024825E-2   -2.966694099276919E-2    2.187138235354016E-2   -2.895295134108149E-2    9.784625435192585E-1    2.851095530133566E-2
 1.462350573556962E5     9.777936655813769E-1    2.899972556169738E-2    2.240888473061779E-2   -2.949482292193767E-2    2.184299574589715E-2   -2.878118972320852E-2    9.784969971823045E-1    2.832876697325764E-2
 1.473508107574468E5     9.778269866592253E-1    2.882697055736608E-2    2.238435847262397E-2   -2.932025679224313E-2    2.181121287033897E-2   -2.860956414325328E-2    9.785133680624012E-1    2.814816746042877E-2
 1.484750772044004E5     9.778261430023021E-1    2.864966950945502E-2    2.235309621653255E-2   -2.914717450234450E-2    2.178451752466520E-2   -2.844293660113513E-2    9.785263379085054E-1    2.797932623343062E-2
 1.496079216499225E5     9.778648152836714E-1    2.846203483004390E-2    2.231778123538984E-2   -2.897862441684433E-2    2.175504605763997E-2   -2.827844713073588E-2    9.785616480326369E-1    2.779502755849197E-2
 1.507494095429637E5     9.779101004511040E-1    2.829927245537876E-2    2.229155929734221E-2   -2.880493510875797E-2    2.173119886538751E-2   -2.811242275834286E-2    9.785894847878938E-1    2.762401383709560E-2
 1.518996068318418E5     9.779253957968048E-1    2.814062173746353E-2    2.225980591654285E-2   -2.863631412150263E-2    2.170119775091172E-2   -2.794827974302960E-2    9.786374005429813E-1    2.746084952757228E-2
 1.530585799680507E5     9.779565233024392E-1    2.796957509089214E-2    2.223158981705406E-2   -2.847561235115541E-2    2.167084742103463E-2   -2.778654088125202E-2    9.786601749748536E-1    2.730625653805706E-2
 1.542263959101001E5     9.780118148791206E-1    2.781084566813995E-2    2.220152791457876E-2   -2.830950572988487E-2    2.163960672670817E-2   -2.762449730677136E-2    9.786528656934228E-1    2.715402515243989E-2
 1.554031221273835E5     9.780391248214324E-1    2.764726985431440E-2    2.217274444035164E-2   -2.814741530466549E-2    2.161255146735503E-2   -2.746708272929951E-2    9.786618067580557E-1    2.698164627702735E-2
 1.565888266040779E5     9.780554527702031E-1    2.746382832485251E-2    2.214009294248848E-2   -2.798622466846907E-2    2.158380960114811E-2   -2.730608850582408E-2    9.786928830023693E-1    2.683973177979752E-2
 1.577835778430689E5     9.780699860228607E-1    2.730509155757824E-2    2.210742974273506E-2   -2.782212515670984E-2    2.155218457608974E-2   -2.715113664601445E-2    9.787185428477030E-1    2.666672586196440E-2
 1.589874448699104E5     9.780883920463125E-1    2.713237042255203E-2    2.208099572303800E-2   -2.765968553827594E-2    2.152400699760417E-2   -2.699716466551157E-2    9.787356983858706E-1    2.650778274705735E-2
 1.602004972368116E5     9.781189421522412E-1    2.696799464435611E-2    2.205160335520611E-2   -2.750195412152670E-2    2.149275909985683E-2   -2.684125015254022E-2    9.787799825838546E-1    2.636053387533296E-2
 1.614228050266550E5     9.781598101780105E-1    2.681814982934686E-2    2.202152258480271E-2   -2.735182292639752E-2    2.146879133460687E-2   -2.668730795682932E-2    9.788146548678189E-1    2.619399887199392E-2
 1.626544388570473E5     9.781902279403041E-1    2.665677958713990E-2    2.199013374807351E-2   -2.719350112796872E-2    2.143575132931536E-2   -2.653864503933433E-2    9.788402120841948E-1    2.605302311586941E-2
 1.638954698843964E5     9.782022929897998E-1    2.650064960407065E-2    2.196448319458505E-2   -2.704087827413357E-2    2.140880734460103E-2   -2.638701561397456E-2    9.788729208299566E-1    2.591523552534188E-2
 1.651459698080244E5     9.782364593704882E-1    2.634916983696576E-2    2.193257156344014E-2   -2.688537162315734E-2    2.137823823467146E-2   -2.623782473497983E-2    9.788656295385324E-1    2.574229893985030E-2
 1.664060108743095E5     9.782645478085726E-1    2.617943516163819E-2    2.189590396272457E-2   -2.673488142940437E-2    2.135122315575323E-2   -2.608993787170122E-2    9.789037354811122E-1    2.559239281334715E-2
 1.676756658808590E5     9.783032332343772E-1    2.601964129155932E-2    2.186809930178564E-2   -2.658398533780180E-2    2.132139610810790E-2   -2.594128346709714E-2    9.790094321423973E-1    2.545404064849258E-2
 1.689550081807175E5     9.783147721639308E-1    2.589419691076602E-2    2.184213217032089E-2   -2.643093819724109E-2    2.129166963920609E-2   -2.580600455837426E-2    9.790289364901467E-1    2.530906076440451E-2
 1.702441116866020E5     9.783596934863545E-1    2.571849867392051E-2    2.181104743166533E-2   -2.628944268415561E-2    2.126405502265243E-2   -2.565380213429143E-2    9.790117602554170E-1    2.516307402217944E-2
 1.715430508751738E5     9.783777970787900E-1    2.558384105218437E-2    2.178325058711423E-2   -2.614083975317015E-2    2.123280992923392E-2   -2.550993271357638E-2    9.790338209545932E-1    2.500779267987789E-2
 1.728519007913403E5     9.784365816867995E-1    2.544038824958019E-2    2.174899950802844E-2   -2.599439887810515E-2    2.120270116041485E-2   -2.537208623743794E-2    9.791068884748967E-1    2.485942447004690E-2
 1.741707370525927E5     9.784831639844339E-1    2.530537822991965E-2    2.172005283361680E-2   -2.585431041550742E-2    2.117305244911307E-2   -2.523113218683798E-2    9.790838014812270E-1    2.472433046172383E-2
 1.754996358533718E5     9.784751677323745E-1    2.516566845600583E-2    2.168590175192443E-2   -2.570952155100451E-2    2.114455487126875E-2   -2.509045270033929E-2    9.791196731831445E-1    2.457568463931353E-2
 1.768386739694722E5     9.785032008546657E-1    2.500503979770023E-2    2.165540822466615E-2   -2.556761025577649E-2    2.111545148062169E-2   -2.495612220555656E-2    9.791225252196212E-1    2.443502936005966E-2
 1.781879287624771E5     9.785472533485841E-1    2.487571656632666E-2    2.162667679856111E-2   -2.543124614531617E-2    2.108621138573896E-2   -2.481791530764347E-2    9.791789507829595E-1    2.430555086448231E-2
 1.795474781842276E5     9.785774169638715E-1    2.471541253297335E-2    2.159761466253046E-2   -2.528939035577540E-2    2.105263108172880E-2   -2.468390987529433E-2    9.792361155346235E-1    2.416504856472654E-2
 1.809174007813277E5     9.786068658109877E-1    2.458729627362727E-2    2.156944045614861E-2   -2.515527187114494E-2    2.102343439302785E-2   -2.455037254048621E-2    9.792623068111853E-1    2.404724188999436E-2
 1.822977756996804E5     9.786253106047784E-1    2.444487096190581E-2    2.153664079188117E-2   -2.501518276343239E-2    2.099677118123943E-2   -2.441673817027598E-2    9.793241467047219E-1    2.390768098238678E-2
 1.836886826890609E5     9.786967970390766E-1    2.431866898681502E-2    2.150535289336742E-2   -2.487960292341141E-2    2.096718952095099E-2   -2.428434825631803E-2    9.793111584993651E-1    2.374421320391358E-2
 1.850902021077247E5     9.787448902608792E-1    2.417882682709476E-2    2.146985746001371E-2   -2.474630987387268E-2    2.093452736133661E-2   -2.415183635795081E-2    9.793491131345707E-1    2.363534643893912E-2
 1.865024149270491E5     9.787328301460479E-1    2.403681659591841E-2    2.144100821721507E-2   -2.461513913202324E-2    2.090538189452573E-2   -2.402462669049526E-2    9.793551655746775E-1    2.349133034278410E-2
 1.879254027362132E5     9.787493725188554E-1    2.388943731667627E-2    2.141183075125805E-2   -2.448439635135125E-2    2.087293257875336E-2   -2.389959043893656E-2    9.794086674451158E-1    2.336555441117390E-2
 1.893592477469092E5     9.787912473267935E-1    2.378488143248270E-2    2.138884952109959E-2   -2.433397746640965E-2    2.083818717693385E-2   -2.377553952405718E-2    9.794124318405437E-1    2.320842266667825E-2
 1.908040327980933E5     9.788198675659215E-1    2.362599422594757E-2    2.134525758220884E-2   -2.421767605850120E-2    2.081235835408836E-2   -2.363362052661660E-2    9.794439808753836E-1    2.309631781979755E-2
 1.922598413607715E5     9.788546824083787E-1    2.351456649021664E-2    2.131433728157215E-2   -2.409114130864163E-2    2.078367651438987E-2   -2.351266721198734E-2    9.794677087379677E-1    2.296539013085110E-2
 1.937267575428232E5     9.789159110132208E-1    2.337267190606465E-2    2.128618027420598E-2   -2.396427755086649E-2    2.074834217648478E-2   -2.338741604397811E-2    9.794939437742851E-1    2.282811984961371E-2
 1.952048660938581E5     9.789264809791312E-1    2.324559069615655E-2    2.125169763134487E-2   -2.383591475161284E-2    2.072268508081753E-2   -2.326637490306610E-2    9.795455508376611E-1    2.270760515214692E-2
 1.966942524101142E5     9.789572176431567E-1    2.310878922126541E-2    2.122025853771668E-2   -2.371261850018372E-2    2.068992665900243E-2   -2.314520793757027E-2    9.795356185054124E-1    2.259138814543589E-2
 1.981950025393913E5     9.789903281266332E-1    2.298533288747830E-2    2.119239953999901E-2   -2.358942890973005E-2    2.065636438406925E-2   -2.302092186608648E-2    9.795876031254817E-1    2.248483513641623E-2
