#  HZ   S   RI   R     50.00 
! Rohde & Schwarz Vector Network Analyzer 
! Rohde-Schwarz,ZNLE6-2Port,1323001256200024,1.71.1.10-23.02.1.238
! Created: UTC 4/8/2025, 3:52:44 AM
! freq[Hz]                re:S11                  im:S11                  re:S21                  im:S21                  re:S12                  im:S12                  re:S22                  im:S22
 1.000000000000000E5     9.791625926074042E-1    3.561720435325555E-2    2.111931754855917E-2   -3.593528739665600E-2    2.055494193864545E-2   -3.504062291280067E-2    9.796913736678424E-1    3.461142774885341E-2
 1.007629862646662E5     9.792217626633628E-1    3.535382618105762E-2    2.108396545504689E-2   -3.569140272195588E-2    2.052849300413445E-2   -3.481107313898551E-2    9.796922802692417E-1    3.437246722243070E-2
 1.015317940097331E5     9.792494732962047E-1    3.510534316169605E-2    2.106222466486039E-2   -3.546085744962258E-2    2.050318726653539E-2   -3.458055998692670E-2    9.797402161012765E-1    3.415681460753716E-2
 1.023064676522963E5     9.792106624093730E-1    3.487529053998952E-2    2.103182832175377E-2   -3.523206900688745E-2    2.047460731671984E-2   -3.435608100158573E-2    9.797830471921842E-1    3.390583807339929E-2
 1.030870519483485E5     9.792402187179883E-1    3.463318756299343E-2    2.100688989718949E-2   -3.500889205510696E-2    2.044524356358570E-2   -3.413287708915334E-2    9.797884374940554E-1    3.370320439505776E-2
 1.038735919953636E5     9.792841029159998E-1    3.439825892033482E-2    2.098174194819429E-2   -3.477852173113341E-2    2.042386929870669E-2   -3.390847933044222E-2    9.798527838098390E-1    3.346933637713546E-2
 1.046661332349037E5     9.792624652198910E-1    3.415743961085210E-2    2.095055204324276E-2   -3.454506771786568E-2    2.039629946353838E-2   -3.368707787519832E-2    9.798386548067803E-1    3.325169921730724E-2
 1.054647214552430E5     9.793112771726484E-1    3.391685342343279E-2    2.091754323930584E-2   -3.431797988211700E-2    2.036689877522028E-2   -3.346783699946086E-2    9.798465113660593E-1    3.303909431009419E-2
 1.062694027940149E5     9.793441275825908E-1    3.370873121697668E-2    2.089143040636051E-2   -3.409090954301192E-2    2.034527975463079E-2   -3.325292382709606E-2    9.799239371961675E-1    3.281508318812545E-2
 1.070802237408760E5     9.793442453838908E-1    3.348447861153171E-2    2.086017954953866E-2   -3.387736811885164E-2    2.031784436475313E-2   -3.303627775471572E-2    9.799322417337477E-1    3.259998756185728E-2
 1.078972311401927E5     9.793769835296540E-1    3.326723038938600E-2    2.085066311882606E-2   -3.366176785798561E-2    2.029216267533134E-2   -3.281987473666850E-2    9.799470183744241E-1    3.239392030943208E-2
 1.087204721937475E5     9.793973201708580E-1    3.303188430380469E-2    2.082056659390636E-2   -3.344505743579471E-2    2.026623521630728E-2   -3.261110000463671E-2    9.800234878403763E-1    3.217828534914418E-2
 1.095499944634658E5     9.794610390241166E-1    3.281852160506501E-2    2.078741366409988E-2   -3.322657519126019E-2    2.024014077843045E-2   -3.240348792232790E-2    9.800355677379343E-1    3.198012859788874E-2
 1.103858458741646E5     9.794619626428844E-1    3.260503245422060E-2    2.075645870811631E-2   -3.301026640438978E-2    2.021364377269380E-2   -3.219206373048613E-2    9.800484335368228E-1    3.175471413408591E-2
 1.112280747163201E5     9.795019675346606E-1    3.238391049588750E-2    2.072627761836695E-2   -3.279021419407774E-2    2.018686455646973E-2   -3.199091187145071E-2    9.800549372745926E-1    3.155573939603084E-2
 1.120767296488583E5     9.794940939023810E-1    3.216554425682241E-2    2.070126515541877E-2   -3.258146308287584E-2    2.016195572870357E-2   -3.178371307863819E-2    9.800451221092931E-1    3.134650024646733E-2
 1.129318597019661E5     9.795305545285937E-1    3.195674715854220E-2    2.067740297476136E-2   -3.237911638387167E-2    2.013715357776406E-2   -3.157663468657020E-2    9.800936028714957E-1    3.113790668287617E-2
 1.137935142799240E5     9.795331608030078E-1    3.176202552392001E-2    2.065731686731960E-2   -3.217571828191652E-2    2.011140356979006E-2   -3.137804368984654E-2    9.801567992951661E-1    3.096516427169400E-2
 1.146617431639607E5     9.795686567619488E-1    3.153600373614704E-2    2.063113164405967E-2   -3.197001100088573E-2    2.008571182067154E-2   -3.117862603486021E-2    9.801475459183706E-1    3.075473655547542E-2
 1.155365965151286E5     9.796235056167740E-1    3.133160334329282E-2    2.059862435752554E-2   -3.176423273270319E-2    2.006393272617410E-2   -3.097925511672614E-2    9.801909680199672E-1    3.056630333457097E-2
 1.164181248772018E5     9.796405782256528E-1    3.113612322035339E-2    2.057186158947077E-2   -3.155735047261776E-2    2.003725600854846E-2   -3.078430288805239E-2    9.802536958594339E-1    3.034570941241541E-2
 1.173063791795965E5     9.796541816846903E-1    3.092010180192942E-2    2.054531253319671E-2   -3.135523422759920E-2    2.001481566436069E-2   -3.058797687254297E-2    9.802448053007484E-1    3.015247458740440E-2
 1.182014107403141E5     9.797095822836156E-1    3.073059413989409E-2    2.052013138365882E-2   -3.116722170544287E-2    1.999061975217224E-2   -3.039572319686024E-2    9.802404265125124E-1    2.996746321399689E-2
 1.191032712689044E5     9.796967875594192E-1    3.052855883589610E-2    2.049844677902343E-2   -3.096927490287809E-2    1.996200448798348E-2   -3.020567648071492E-2    9.802969946217871E-1    2.978215138417802E-2
 1.200120128694542E5     9.797336956592828E-1    3.033680142415144E-2    2.047445139355171E-2   -3.077433398932504E-2    1.993531977923202E-2   -3.001335149081729E-2    9.803333813936611E-1    2.958653743286144E-2
 1.209276880435975E5     9.797560500841758E-1    3.015498400764867E-2    2.044631871650297E-2   -3.058347138452643E-2    1.991218750659976E-2   -2.982315792671936E-2    9.803696876341088E-1    2.937235998515367E-2
 1.218503496935483E5     9.797448790722096E-1    2.995186425440781E-2    2.041717810729109E-2   -3.038823749900218E-2    1.988918465357736E-2   -2.963940287153075E-2    9.803897511834303E-1    2.920059362496900E-2
 1.227800511251578E5     9.797820158068873E-1    2.973149702080820E-2    2.038759426054687E-2   -3.019676382183583E-2    1.986304809520634E-2   -2.945270122954170E-2    9.803967845857359E-1    2.902040862455516E-2
 1.237168460509929E5     9.798122027533285E-1    2.955337505767181E-2    2.036502813052417E-2   -3.000950181569884E-2    1.983761130624760E-2   -2.926988614255973E-2    9.804484977910469E-1    2.883808990504471E-2
 1.246607885934402E5     9.798481099595980E-1    2.936218022253747E-2    2.034216799498596E-2   -2.982388996621257E-2    1.981395410109454E-2   -2.908844417997206E-2    9.804301121349955E-1    2.865621688307013E-2
 1.256119332878327E5     9.798585112951727E-1    2.917124301273492E-2    2.031677359878132E-2   -2.964114195192119E-2    1.979108679472347E-2   -2.890491668525669E-2    9.804645478535535E-1    2.849211255183080E-2
 1.265703350856002E5     9.798811074580672E-1    2.899615131340282E-2    2.028869649908849E-2   -2.946027261309081E-2    1.976563220447106E-2   -2.872955566694319E-2    9.804965135455357E-1    2.830013959324933E-2
 1.275360493574453E5     9.799498573636286E-1    2.881836102643839E-2    2.026751885276297E-2   -2.927482316115585E-2    1.973960614236019E-2   -2.855004386848256E-2    9.805136282356429E-1    2.813448016877199E-2
 1.285091318965405E5     9.799864034291311E-1    2.863379404572839E-2    2.024072068601218E-2   -2.909635168477458E-2    1.971500294797665E-2   -2.837491583928966E-2    9.805339879928453E-1    2.793635650089222E-2
 1.294896389217529E5     9.799852719262551E-1    2.844262768888260E-2    2.021501057339048E-2   -2.891291950714940E-2    1.969506947381314E-2   -2.819884973032295E-2    9.805434227748167E-1    2.776185061128641E-2
 1.304776270808914E5     9.800145761375626E-1    2.827272465454896E-2    2.018776781412173E-2   -2.873660731638976E-2    1.966448192266588E-2   -2.802864291626391E-2    9.805818260905472E-1    2.759039333388326E-2
 1.314731534539810E5     9.800043889199770E-1    2.810375352211108E-2    2.017369108573354E-2   -2.857282449900813E-2    1.964431493925934E-2   -2.785782914298355E-2    9.806145809964966E-1    2.740949895789291E-2
 1.324762755565583E5     9.800130241552910E-1    2.793972385601352E-2    2.015306093999615E-2   -2.840516785331224E-2    1.962024368514360E-2   -2.768766913174011E-2    9.806484421890275E-1    2.724457787195976E-2
 1.334870513429962E5     9.800578119548732E-1    2.774390458347191E-2    2.012567803321156E-2   -2.823064954262522E-2    1.959417401275523E-2   -2.751756758464288E-2    9.806518199371355E-1    2.707111045269216E-2
 1.345055392098512E5     9.800787286229907E-1    2.758851308949135E-2    2.009945741302325E-2   -2.805563287151247E-2    1.957293030173357E-2   -2.735091261751116E-2    9.806865705858245E-1    2.690149979310450E-2
 1.355317979992373E5     9.801372681437751E-1    2.738575965346889E-2    2.006525298920287E-2   -2.786800523005123E-2    1.954932581053290E-2   -2.718235476891962E-2    9.807126328986695E-1    2.675193647866306E-2
 1.365658870022265E5     9.801357378187936E-1    2.719577724691619E-2    2.003142811708359E-2   -2.769825181839211E-2    1.952041603840671E-2   -2.702044731784305E-2    9.807275386399648E-1    2.658711580609412E-2
 1.376078659622731E5     9.801550630280345E-1    2.706040581884319E-2    2.001094445823973E-2   -2.752933143053956E-2    1.949905802970644E-2   -2.685754432019204E-2    9.807426634504821E-1    2.641038125821852E-2
 1.386577950786655E5     9.802055999664426E-1    2.688479968618990E-2    1.998459487976117E-2   -2.736636745814796E-2    1.947267059326789E-2   -2.669490705968387E-2    9.807693623641124E-1    2.625110430136275E-2
 1.397157350100044E5     9.802160070908522E-1    2.672391382817451E-2    1.995766928229559E-2   -2.720144104757776E-2    1.945141764126345E-2   -2.653644297131037E-2    9.807727401037217E-1    2.609203099293176E-2
 1.407817468777081E5     9.802519463404714E-1    2.655307931224074E-2    1.993538681913423E-2   -2.703784908198642E-2    1.942589291481131E-2   -2.637480889043379E-2    9.808404638299439E-1    2.593718407409476E-2
 1.418558922695422E5     9.802724979464704E-1    2.638551134789843E-2    1.990628504837204E-2   -2.687554926543089E-2    1.939930350837387E-2   -2.621652979003554E-2    9.808451711379337E-1    2.576145512946395E-2
 1.429382332431784E5     9.802898022990159E-1    2.622561374973376E-2    1.988098007907694E-2   -2.670982827379693E-2    1.937969989569737E-2   -2.606328072751815E-2    9.808867585551040E-1    2.560999001190918E-2
 1.440288323297804E5     9.803391223518146E-1    2.607809687359227E-2    1.985263166224444E-2   -2.655166178940495E-2    1.935303445943767E-2   -2.590510926162816E-2    9.809512183861362E-1    2.546008218713884E-2
 1.451277525376154E5     9.803803948166651E-1    2.591471847881724E-2    1.982638032277389E-2   -2.639352888418285E-2    1.932839695150570E-2   -2.575405213211841E-2    9.809501801020163E-1    2.530268975798547E-2
 1.462350573556962E5     9.804088356334412E-1    2.576327425794668E-2    1.980582239698198E-2   -2.624354122203800E-2    1.930417321867330E-2   -2.560106279162819E-2    9.809869158170018E-1    2.515133968569398E-2
 1.473508107574468E5     9.804019156619450E-1    2.561050831133767E-2    1.978078792266226E-2   -2.608721988501826E-2    1.928304831565691E-2   -2.545054438168399E-2    9.809867139580157E-1    2.500200997601810E-2
 1.484750772044004E5     9.804310892428804E-1    2.543296313271208E-2    1.975180007444131E-2   -2.593000614964255E-2    1.925643711068355E-2   -2.529775239209038E-2    9.810055902820153E-1    2.483594473626551E-2
 1.496079216499225E5     9.804460062433430E-1    2.529088760892857E-2    1.972641885575843E-2   -2.577821796044512E-2    1.923235286768868E-2   -2.515129301855599E-2    9.810102251714552E-1    2.467805086573303E-2
 1.507494095429637E5     9.805033525607620E-1    2.513898685133350E-2    1.970174930250056E-2   -2.562444180394379E-2    1.920837477140817E-2   -2.500487621357867E-2    9.810620355552183E-1    2.454117832492818E-2
 1.518996068318418E5     9.805047834930360E-1    2.499579899147526E-2    1.967745763484975E-2   -2.547758235106601E-2    1.918077557363880E-2   -2.486228140950062E-2    9.810880186390381E-1    2.439690336042897E-2
 1.530585799680507E5     9.805083781693529E-1    2.483303164088211E-2    1.965170648597197E-2   -2.532947266096132E-2    1.915629082581760E-2   -2.471313189098075E-2    9.810845888191636E-1    2.423545517046147E-2
 1.542263959101001E5     9.805759179707785E-1    2.468189908590603E-2    1.963122598383308E-2   -2.518521570896787E-2    1.913226038284391E-2   -2.457168239718026E-2    9.811130064045678E-1    2.410467881620499E-2
 1.554031221273835E5     9.805806941047983E-1    2.453518096753062E-2    1.960249437107012E-2   -2.503721218804552E-2    1.911024378967180E-2   -2.443208129225168E-2    9.811407479831424E-1    2.395604825248642E-2
 1.565888266040779E5     9.806080194258316E-1    2.437978316965799E-2    1.957229834920742E-2   -2.488663420614212E-2    1.908734479632617E-2   -2.428819335406902E-2    9.811508833457587E-1    2.382523739476202E-2
 1.577835778430689E5     9.806296011770763E-1    2.423853820354559E-2    1.954827088162648E-2   -2.474221960087291E-2    1.905902015373261E-2   -2.414752850167282E-2    9.811974157344944E-1    2.367780924868484E-2
 1.589874448699104E5     9.806732871680579E-1    2.408706439350853E-2    1.951982574043274E-2   -2.460303045871381E-2    1.903186950460311E-2   -2.400774442169260E-2    9.812112543108163E-1    2.352502441445453E-2
 1.602004972368116E5     9.806762906452571E-1    2.394637170558894E-2    1.949657022537537E-2   -2.446440206137710E-2    1.900695577108631E-2   -2.387270750375779E-2    9.812406231002537E-1    2.338328976063662E-2
 1.614228050266550E5     9.807151057571697E-1    2.380309069757872E-2    1.947038294687018E-2   -2.432563276814835E-2    1.898303910834038E-2   -2.373544922142275E-2    9.812656941338206E-1    2.325463142598164E-2
 1.626544388570473E5     9.806980436669359E-1    2.366878336947541E-2    1.944567118364582E-2   -2.418423528416265E-2    1.895930612801824E-2   -2.360030083062138E-2    9.812953299232624E-1    2.311546914592630E-2
 1.638954698843964E5     9.807117684461435E-1    2.350131187662428E-2    1.941744939927912E-2   -2.404991476473324E-2    1.893140692432858E-2   -2.346646651457402E-2    9.813158390832065E-1    2.297918257692476E-2
 1.651459698080244E5     9.807510308121092E-1    2.335821800406831E-2    1.939363934573309E-2   -2.391396061175070E-2    1.890624422748966E-2   -2.333313187863483E-2    9.813371173880641E-1    2.283530539676325E-2
 1.664060108743095E5     9.807899276017319E-1    2.323877779716328E-2    1.936822947274331E-2   -2.377914264007216E-2    1.888364415004951E-2   -2.320074918212990E-2    9.813574053329007E-1    2.270902462204247E-2
 1.676756658808590E5     9.808393785787101E-1    2.309983415139139E-2    1.934310138426776E-2   -2.364246890947329E-2    1.885763719855145E-2   -2.307003631003049E-2    9.814299059326157E-1    2.258943206938864E-2
 1.689550081807175E5     9.808312981937432E-1    2.297699740918473E-2    1.931471560959577E-2   -2.350844695653347E-2    1.883529388136163E-2   -2.294262881363364E-2    9.814900778220833E-1    2.245515108809103E-2
 1.702441116866020E5     9.808849411486010E-1    2.282670534663748E-2    1.929090054642950E-2   -2.338121732725209E-2    1.880811656543547E-2   -2.281424942202902E-2    9.814782387262170E-1    2.232103725794444E-2
 1.715430508751738E5     9.809066588956016E-1    2.271546616916491E-2    1.926558621883939E-2   -2.325144449117525E-2    1.878220374495923E-2   -2.268621353035762E-2    9.814833443485691E-1    2.219200057286616E-2
 1.728519007913403E5     9.809085161809564E-1    2.256432443330677E-2    1.923637017616783E-2   -2.311966169898340E-2    1.875821667969619E-2   -2.255969720348973E-2    9.815294640259401E-1    2.204636141296250E-2
 1.741707370525927E5     9.809583475128061E-1    2.244687053692664E-2    1.921156757795316E-2   -2.299365389282433E-2    1.872782024703870E-2   -2.243643803609993E-2    9.815285953081806E-1    2.192058967611470E-2
 1.754996358533718E5     9.809659412158503E-1    2.232069017310087E-2    1.918079139155341E-2   -2.286741063825674E-2    1.870398274833679E-2   -2.231333586723910E-2    9.815283787024692E-1    2.180470122858800E-2
 1.768386739694722E5     9.810228534669112E-1    2.218337210550837E-2    1.915868134441029E-2   -2.273790309377929E-2    1.867585901529087E-2   -2.219116472378806E-2    9.815320391246312E-1    2.167924305706859E-2
 1.781879287624771E5     9.810303356447792E-1    2.206725551713487E-2    1.913339513618354E-2   -2.261133602753000E-2    1.865459096583224E-2   -2.206688494775129E-2    9.815523664717777E-1    2.154459921040515E-2
 1.795474781842276E5     9.810645015391019E-1    2.192980078460699E-2    1.910810096437259E-2   -2.248984944556436E-2    1.862853855385802E-2   -2.194551666094743E-2    9.815836461176715E-1    2.142982396142518E-2
 1.809174007813277E5     9.810927787425791E-1    2.179681379562036E-2    1.907650265419319E-2   -2.236438359664738E-2    1.860485549559470E-2   -2.182655418338003E-2    9.816302402209529E-1    2.130874545194206E-2
 1.822977756996804E5     9.810765378643296E-1    2.166179576539056E-2    1.905010698763610E-2   -2.224480206990160E-2    1.857834886144582E-2   -2.171245258453354E-2    9.816905339925827E-1    2.118724451240922E-2
 1.836886826890609E5     9.811266701093661E-1    2.155362410118200E-2    1.902240747678766E-2   -2.212581590863013E-2    1.854770311274688E-2   -2.159240817313867E-2    9.816783012552438E-1    2.105370737889911E-2
 1.850902021077247E5     9.811677762452128E-1    2.143357318305909E-2    1.899870700327915E-2   -2.200670985813414E-2    1.852459078346115E-2   -2.147486165147156E-2    9.817355114065275E-1    2.095745959294101E-2
 1.865024149270491E5     9.811467186712083E-1    2.131140178059064E-2    1.896918684207810E-2   -2.188965849643261E-2    1.849746628421481E-2   -2.135715913279343E-2    9.817396351518438E-1    2.080671907737424E-2
 1.879254027362132E5     9.811545283404870E-1    2.117139565513705E-2    1.894653336448614E-2   -2.177115082809026E-2    1.847249663055243E-2   -2.124466508352857E-2    9.817957973906215E-1    2.069765131966964E-2
 1.893592477469092E5     9.811921506388280E-1    2.106566146422642E-2    1.891134136517408E-2   -2.163679334900434E-2    1.843942517830995E-2   -2.113666562457858E-2    9.817924547632226E-1    2.056416966299218E-2
 1.908040327980933E5     9.812120219536707E-1    2.093176487518397E-2    1.888648709348063E-2   -2.153549540850632E-2    1.841671085279978E-2   -2.101458891465065E-2    9.818359447761134E-1    2.047416146335875E-2
 1.922598413607715E5     9.812479251271099E-1    2.083349219394955E-2    1.885946279707730E-2   -2.142279608018374E-2    1.839149528565032E-2   -2.090243801628465E-2    9.818486277595871E-1    2.035710342022471E-2
 1.937267575428232E5     9.813049154371642E-1    2.071186109549704E-2    1.883228773733968E-2   -2.130616953783895E-2    1.836438919894739E-2   -2.079286316706166E-2    9.818654827756582E-1    2.023874267354909E-2
 1.952048660938581E5     9.813565015753324E-1    2.061349376400604E-2    1.880732460767667E-2   -2.119290260109190E-2    1.834021117482963E-2   -2.068254706633977E-2    9.819167633869341E-1    2.012378411045022E-2
 1.966942524101142E5     9.813781710857108E-1    2.048314290300366E-2    1.877817154420872E-2   -2.108141120660594E-2    1.831059499796641E-2   -2.057871803458519E-2    9.819401251098994E-1    2.001459723136442E-2
 1.981950025393913E5     9.814083982644995E-1    2.035907679788465E-2    1.875200041113700E-2   -2.097267121382375E-2    1.828257411255312E-2   -2.046482589959823E-2    9.819697049214908E-1    1.992026800903426E-2
