#  HZ   S   RI   R     50.00 
! Rohde & Schwarz Vector Network Analyzer 
! Rohde-Schwarz,ZNLE6-2Port,1323001256200024,1.71.1.10-23.02.1.238
! Created: UTC 4/8/2025, 3:43:55 AM
! freq[Hz]                re:S11                  im:S11                  re:S21                  im:S21                  re:S12                  im:S12                  re:S22                  im:S22
 1.000000000000000E5     9.815048698974620E-1    3.189696062307055E-2    1.875276118830947E-2   -3.216973207045447E-2    1.825955139900888E-2   -3.137327370883220E-2    9.820094881345239E-1    3.098932889434810E-2
 1.007629862646662E5     9.815528593925212E-1    3.166468769095583E-2    1.872481528007982E-2   -3.195387680740722E-2    1.823566794627208E-2   -3.116416701273664E-2    9.820121355187285E-1    3.076099490820810E-2
 1.015317940097331E5     9.815785158728521E-1    3.143116977181755E-2    1.870334850148606E-2   -3.174961446159686E-2    1.821255473981619E-2   -3.095822488962375E-2    9.820315719273992E-1    3.056598677148658E-2
 1.023064676522963E5     9.815504838189575E-1    3.121865871268392E-2    1.868279920570264E-2   -3.154387599288071E-2    1.818981966631015E-2   -3.075521436249439E-2    9.820742398887393E-1    3.034952863981131E-2
 1.030870519483485E5     9.815469293784860E-1    3.100933269136240E-2    1.866390194694710E-2   -3.134041014970167E-2    1.816721002081271E-2   -3.055373602331352E-2    9.821031471957919E-1    3.017071543365828E-2
 1.038735919953636E5     9.815862987651964E-1    3.079126241765289E-2    1.863600567972484E-2   -3.113083820714004E-2    1.814271380997407E-2   -3.035273736475944E-2    9.821533680608796E-1    2.993490814832302E-2
 1.046661332349037E5     9.816121380519893E-1    3.056787063224631E-2    1.860755017685729E-2   -3.092414963461073E-2    1.812123469667859E-2   -3.015769713494255E-2    9.820925954051741E-1    2.975888061013461E-2
 1.054647214552430E5     9.816111053715115E-1    3.037114813588578E-2    1.859036797862029E-2   -3.072135757806314E-2    1.810096337851182E-2   -2.995697511548392E-2    9.821048823537545E-1    2.954646493266549E-2
 1.062694027940149E5     9.816654578656521E-1    3.017107526511674E-2    1.856158056289275E-2   -3.051871940305886E-2    1.807827972768957E-2   -2.976265677447289E-2    9.821810194955017E-1    2.936951622639920E-2
 1.070802237408760E5     9.816341081253680E-1    2.996810865711489E-2    1.854124811528291E-2   -3.032645432603458E-2    1.805476300545419E-2   -2.957261020776504E-2    9.821970368580039E-1    2.917395783227270E-2
 1.078972311401927E5     9.816835224413620E-1    2.977452777656800E-2    1.852503125078092E-2   -3.013473980584070E-2    1.803495191583911E-2   -2.937852911069769E-2    9.821853255653121E-1    2.899926552304596E-2
 1.087204721937475E5     9.816843848889119E-1    2.956375830877846E-2    1.850058311317756E-2   -2.993705418299849E-2    1.801105245898350E-2   -2.919272957445391E-2    9.822516181498003E-1    2.879722824363342E-2
 1.095499944634658E5     9.817278125635190E-1    2.936349867576108E-2    1.847632714496398E-2   -2.974446424549692E-2    1.798876511535549E-2   -2.900077756987716E-2    9.822478880759761E-1    2.860483115019875E-2
 1.103858458741646E5     9.817251060585758E-1    2.918056609765365E-2    1.844940186930725E-2   -2.954693425997580E-2    1.796810752593820E-2   -2.881112094766800E-2    9.822736600308318E-1    2.841264635030769E-2
 1.112280747163201E5     9.817454778179645E-1    2.898128324463949E-2    1.842493573263344E-2   -2.935406348735241E-2    1.794446457818592E-2   -2.862548892095092E-2    9.822905333562464E-1    2.824505072583278E-2
 1.120767296488583E5     9.817456290998379E-1    2.878010365592073E-2    1.840043505157555E-2   -2.916527328714342E-2    1.792800291436120E-2   -2.844565838219832E-2    9.823090413047710E-1    2.805364830633198E-2
 1.129318597019661E5     9.817587673388811E-1    2.857758353703120E-2    1.838244772975373E-2   -2.898185881030540E-2    1.790664067340607E-2   -2.826024045523634E-2    9.823206427813871E-1    2.786229405296487E-2
 1.137935142799240E5     9.817925104849307E-1    2.839826555978499E-2    1.836207799707544E-2   -2.879804126623348E-2    1.788475752582197E-2   -2.807872578595184E-2    9.823497367577017E-1    2.770796897158294E-2
 1.146617431639607E5     9.818136433151379E-1    2.819910349698208E-2    1.833969963948549E-2   -2.861544694359313E-2    1.786011396895846E-2   -2.790217667754035E-2    9.823668850011226E-1    2.752335441935010E-2
 1.155365965151286E5     9.818627600608977E-1    2.800427321326406E-2    1.831788661947995E-2   -2.842714938175116E-2    1.784124141452362E-2   -2.772418365237431E-2    9.823728214519547E-1    2.733128927513241E-2
 1.164181248772018E5     9.818882978395149E-1    2.785685427801572E-2    1.829176768444352E-2   -2.824495344599520E-2    1.782074602667080E-2   -2.754480857028519E-2    9.824346118548155E-1    2.715829047564244E-2
 1.173063791795965E5     9.818782611261421E-1    2.765962220109372E-2    1.827172469750258E-2   -2.806456258986437E-2    1.779931698656476E-2   -2.736999649401421E-2    9.824137813329593E-1    2.698219308757931E-2
 1.182014107403141E5     9.819318763858940E-1    2.749347948913779E-2    1.824876371305137E-2   -2.789230749876444E-2    1.777451225326111E-2   -2.719818572166535E-2    9.824159357702311E-1    2.681889171115909E-2
 1.191032712689044E5     9.819456587419250E-1    2.731370610140971E-2    1.823202029439109E-2   -2.771924591529897E-2    1.775639388729228E-2   -2.702556447724471E-2    9.824493360497807E-1    2.663969214038750E-2
 1.200120128694542E5     9.819409639569074E-1    2.711799419762407E-2    1.820910579443498E-2   -2.754885128644904E-2    1.773124188277383E-2   -2.685603903393005E-2    9.824961809558066E-1    2.645480938700761E-2
 1.209276880435975E5     9.819604573362677E-1    2.696138923415725E-2    1.818531743997003E-2   -2.736833078612487E-2    1.771322869599274E-2   -2.668417927535401E-2    9.825124971873006E-1    2.629347300364330E-2
 1.218503496935483E5     9.820034019970939E-1    2.678091105401857E-2    1.816273848983620E-2   -2.719437898587636E-2    1.769291755652536E-2   -2.651739952682807E-2    9.825577848530331E-1    2.611241688149573E-2
 1.227800511251578E5     9.820258109801797E-1    2.659389679137293E-2    1.813939346801217E-2   -2.701934949377856E-2    1.767195735405068E-2   -2.635404110656425E-2    9.825905632740886E-1    2.595313894098615E-2
 1.237168460509929E5     9.820466747256169E-1    2.641926893107798E-2    1.811651455141063E-2   -2.685244575046897E-2    1.765124976586306E-2   -2.618866154572854E-2    9.826211104768100E-1    2.579382845461585E-2
 1.246607885934402E5     9.820645059282637E-1    2.625377049357154E-2    1.809643217987199E-2   -2.668523024232815E-2    1.762901943905993E-2   -2.602338737520159E-2    9.826111272740847E-1    2.563149876941611E-2
 1.256119332878327E5     9.820812274487150E-1    2.611096906648540E-2    1.808046304397530E-2   -2.652455044398631E-2    1.761091594786142E-2   -2.586150190686801E-2    9.826503902459266E-1    2.548294379385608E-2
 1.265703350856002E5     9.821051615740510E-1    2.593229335773474E-2    1.805576471352993E-2   -2.635821966792297E-2    1.758799747914141E-2   -2.570392799252078E-2    9.826987778656996E-1    2.530533798907394E-2
 1.275360493574453E5     9.821055006435050E-1    2.575233935844045E-2    1.803595080996486E-2   -2.619562268582761E-2    1.756735459825037E-2   -2.554479700969484E-2    9.827059135945675E-1    2.515093519316326E-2
 1.285091318965405E5     9.821364508444413E-1    2.560835868048958E-2    1.801247442134534E-2   -2.602905184876258E-2    1.754650875873033E-2   -2.538688004445285E-2    9.827281538286171E-1    2.497585008720193E-2
 1.294896389217529E5     9.821426465771110E-1    2.543697328232209E-2    1.799026209047256E-2   -2.587112432198088E-2    1.752667004976506E-2   -2.522968550594320E-2    9.827111208613591E-1    2.481992839311165E-2
 1.304776270808914E5     9.821805055695620E-1    2.526881398994131E-2    1.796930306377375E-2   -2.571302213797035E-2    1.750599828410147E-2   -2.507816150451152E-2    9.827588316721327E-1    2.466692802218857E-2
 1.314731534539810E5     9.821995297554118E-1    2.512526917667911E-2    1.795740691222445E-2   -2.556428312017756E-2    1.748603191674375E-2   -2.491681331400797E-2    9.827691179539148E-1    2.452045025108213E-2
 1.324762755565583E5     9.821722559025112E-1    2.497793215897559E-2    1.793447849182976E-2   -2.541329980172163E-2    1.746197269113525E-2   -2.476552825282213E-2    9.827642999554329E-1    2.435570596903773E-2
 1.334870513429962E5     9.821866471690490E-1    2.480894013440290E-2    1.791473699267173E-2   -2.525668649301668E-2    1.744108010291860E-2   -2.461477472641813E-2    9.828015703098221E-1    2.420268389009560E-2
 1.345055392098512E5     9.822343396887556E-1    2.467117844456655E-2    1.789392603324680E-2   -2.510187235867055E-2    1.742298109500492E-2   -2.446606900635998E-2    9.827996722489967E-1    2.405474648669068E-2
 1.355317979992373E5     9.822951007625900E-1    2.448063175309726E-2    1.786094712032135E-2   -2.493177652890632E-2    1.740155659120754E-2   -2.431756892808503E-2    9.828454762900007E-1    2.390940780855608E-2
 1.365658870022265E5     9.823008556622576E-1    2.432855750373903E-2    1.783688218293891E-2   -2.477748117047767E-2    1.738178901035742E-2   -2.416892176051848E-2    9.828742053866639E-1    2.376634794627772E-2
 1.376078659622731E5     9.823259287857825E-1    2.418642747935352E-2    1.781577825943990E-2   -2.462968254999402E-2    1.736081585021143E-2   -2.402506314531645E-2    9.828716000193350E-1    2.360918115704310E-2
 1.386577950786655E5     9.823622161692419E-1    2.403686218132067E-2    1.779359918636941E-2   -2.448336082319841E-2    1.733787016716369E-2   -2.387658458667192E-2    9.829051256850949E-1    2.347343105874227E-2
 1.397157350100044E5     9.823950829934469E-1    2.388668345626080E-2    1.776985044424793E-2   -2.433561538086140E-2    1.731505554646836E-2   -2.373182230780373E-2    9.829266676800225E-1    2.332111842066170E-2
 1.407817468777081E5     9.824076497552428E-1    2.372931598925264E-2    1.774893769680949E-2   -2.418862949250132E-2    1.729698767372132E-2   -2.359037545952443E-2    9.829200174148266E-1    2.317083263553679E-2
 1.418558922695422E5     9.824149971751390E-1    2.357930410385340E-2    1.772907624924122E-2   -2.404305092156116E-2    1.727852300067357E-2   -2.345008310769061E-2    9.829412822739827E-1    2.301909999156939E-2
 1.429382332431784E5     9.824672010274615E-1    2.343079002900792E-2    1.770547556296840E-2   -2.389222760952274E-2    1.725447497864723E-2   -2.330738687202296E-2    9.829853479991157E-1    2.288203395638608E-2
 1.440288323297804E5     9.824781978272856E-1    2.329799972443398E-2    1.768484008136662E-2   -2.374877106642634E-2    1.723525248596660E-2   -2.317103239200678E-2    9.830365999984448E-1    2.274200247283984E-2
 1.451277525376154E5     9.825141684169503E-1    2.315565975005296E-2    1.765893412998395E-2   -2.360991695214548E-2    1.721318136959137E-2   -2.303280149266260E-2    9.830129201142025E-1    2.259067536223935E-2
 1.462350573556962E5     9.825369496196135E-1    2.301098271900271E-2    1.764256220360911E-2   -2.347331723430815E-2    1.719038706854502E-2   -2.289650731863874E-2    9.830501987668511E-1    2.246082212444479E-2
 1.473508107574468E5     9.825343708460452E-1    2.286728532472592E-2    1.761668060843606E-2   -2.332932842282900E-2    1.716821340549865E-2   -2.275822821011164E-2    9.830657756034279E-1    2.232239150614694E-2
 1.484750772044004E5     9.825468227190044E-1    2.271593002211976E-2    1.759331004321811E-2   -2.319248543951309E-2    1.715243371360438E-2   -2.262447036804451E-2    9.830776230101858E-1    2.217394944427930E-2
 1.496079216499225E5     9.825639004953559E-1    2.257716051153206E-2    1.757646251766852E-2   -2.305431630714688E-2    1.713004517830922E-2   -2.249045390410631E-2    9.830987863578166E-1    2.204714942483981E-2
 1.507494095429637E5     9.826047798805013E-1    2.243685532827325E-2    1.754697718709451E-2   -2.291770877718246E-2    1.711003488516872E-2   -2.236024991615710E-2    9.831574995806307E-1    2.190581960624139E-2
 1.518996068318418E5     9.826417663022035E-1    2.232168720488596E-2    1.752599119888696E-2   -2.278430078807290E-2    1.708307565158671E-2   -2.222990871895978E-2    9.831677568639179E-1    2.177990316022876E-2
 1.530585799680507E5     9.826247470129954E-1    2.218586440332402E-2    1.750588318514633E-2   -2.265421021819218E-2    1.706424728447646E-2   -2.210000669902727E-2    9.831762750348492E-1    2.164903579896948E-2
 1.542263959101001E5     9.826356477438969E-1    2.204908782436062E-2    1.748278477791756E-2   -2.252195483074796E-2    1.704058217663907E-2   -2.196996754045422E-2    9.832029290201109E-1    2.152136589997276E-2
 1.554031221273835E5     9.826832993917576E-1    2.191098642886418E-2    1.746053843690880E-2   -2.238998986384359E-2    1.702130158947881E-2   -2.184388827415728E-2    9.832530103273640E-1    2.140099042961059E-2
 1.565888266040779E5     9.827151842199359E-1    2.178714605203560E-2    1.744472013361908E-2   -2.226191020384606E-2    1.700010406938420E-2   -2.171490891741214E-2    9.832736198332787E-1    2.127242464024757E-2
 1.577835778430689E5     9.827198199772942E-1    2.164408784142230E-2    1.741431965718912E-2   -2.212641721139713E-2    1.697839521951631E-2   -2.159039658781442E-2    9.832539192385980E-1    2.114943480868848E-2
 1.589874448699104E5     9.827226830930168E-1    2.150974468101351E-2    1.739660022299227E-2   -2.199901782840786E-2    1.695491673232858E-2   -2.146429695295938E-2    9.833054071380271E-1    2.100221989121711E-2
 1.602004972368116E5     9.827626100178991E-1    2.137712510859142E-2    1.737315067341373E-2   -2.187235125236668E-2    1.693383775317615E-2   -2.134348567710032E-2    9.832994017794844E-1    2.089460932107471E-2
 1.614228050266550E5     9.827813825985289E-1    2.123924600001229E-2    1.734677623279523E-2   -2.175216555673704E-2    1.691328991977341E-2   -2.122053553815869E-2    9.833218684069730E-1    2.076309967921540E-2
 1.626544388570473E5     9.827973651769588E-1    2.113835759568500E-2    1.732678917344605E-2   -2.162768017626651E-2    1.689439616785034E-2   -2.109866416664378E-2    9.833770347771876E-1    2.064978924735592E-2
 1.638954698843964E5     9.827798402245602E-1    2.099307821460864E-2    1.730563891094998E-2   -2.150201521260175E-2    1.687147476581241E-2   -2.097915923382063E-2    9.833836035488345E-1    2.053686889722850E-2
 1.651459698080244E5     9.828299301849850E-1    2.087196738510819E-2    1.728261356045391E-2   -2.137574376869120E-2    1.684721383889693E-2   -2.085939671353033E-2    9.833972090893575E-1    2.039022549179008E-2
 1.664060108743095E5     9.828751062853645E-1    2.074646058447592E-2    1.726074137861271E-2   -2.125930171539906E-2    1.682255167233810E-2   -2.074097084663746E-2    9.834069667446130E-1    2.026595141448382E-2
 1.676756658808590E5     9.828940776987555E-1    2.063348449262241E-2    1.723762755342533E-2   -2.113687209373053E-2    1.680236915403171E-2   -2.062513257495153E-2    9.834691935418476E-1    2.015039055042557E-2
 1.689550081807175E5     9.829043557752432E-1    2.051179182064047E-2    1.721036818302799E-2   -2.101400371901557E-2    1.678020012968296E-2   -2.050867559103165E-2    9.834980335948053E-1    2.003250813229547E-2
 1.702441116866020E5     9.829428739261171E-1    2.037698961741426E-2    1.719092904906873E-2   -2.090280061177187E-2    1.675951596486142E-2   -2.039031227884109E-2    9.835042377022170E-1    1.990375095688537E-2
 1.715430508751738E5     9.829538223344115E-1    2.025903154946667E-2    1.716865843449328E-2   -2.078522144368049E-2    1.673817820354816E-2   -2.027999925960035E-2    9.834998762771278E-1    1.980118420668015E-2
 1.728519007913403E5     9.829901187661788E-1    2.014394882488179E-2    1.714589632170235E-2   -2.066482324038186E-2    1.671728606535299E-2   -2.016377185897666E-2    9.835447614022884E-1    1.966550455555474E-2
 1.741707370525927E5     9.830000924545843E-1    2.002562903502115E-2    1.711977303624385E-2   -2.055064728252963E-2    1.669154965795020E-2   -2.005344843463901E-2    9.835392484532763E-1    1.956145870973197E-2
 1.754996358533718E5     9.830262272725555E-1    1.992717788892785E-2    1.709659096409904E-2   -2.043560083583711E-2    1.667149137054051E-2   -1.994208035329345E-2    9.835354558450261E-1    1.945353587474699E-2
 1.768386739694722E5     9.830613119216295E-1    1.978676417218364E-2    1.707254907656003E-2   -2.032323576891114E-2    1.664834019237480E-2   -1.983156100197928E-2    9.835821312328070E-1    1.932853805806458E-2
 1.781879287624771E5     9.830502195628561E-1    1.968833402592111E-2    1.705224094091185E-2   -2.020984183469370E-2    1.662654660167756E-2   -1.972539009998819E-2    9.835941544952469E-1    1.921590084038375E-2
 1.795474781842276E5     9.830981312744025E-1    1.956136388010149E-2    1.703105090226931E-2   -2.010028460695442E-2    1.660456691128372E-2   -1.961111721007197E-2    9.836523930969061E-1    1.912265134209476E-2
 1.809174007813277E5     9.831185871307625E-1    1.945525862679701E-2    1.700532933812536E-2   -1.999527956531395E-2    1.657941982410805E-2   -1.950922165656106E-2    9.836403291411053E-1    1.900940457668502E-2
 1.822977756996804E5     9.831505462283012E-1    1.935226181834746E-2    1.698144658783007E-2   -1.987864923209568E-2    1.655966570915239E-2   -1.940134206339362E-2    9.837344348304502E-1    1.888921911206495E-2
 1.836886826890609E5     9.831853505389277E-1    1.923689996340383E-2    1.695891232946248E-2   -1.976996057444365E-2    1.653574517096034E-2   -1.929378649506528E-2    9.836842243657403E-1    1.876540598994532E-2
 1.850902021077247E5     9.832163320842998E-1    1.912181990169609E-2    1.693228544050280E-2   -1.966344819954263E-2    1.651366504347668E-2   -1.919145023703328E-2    9.837597795843119E-1    1.869294509671198E-2
 1.865024149270491E5     9.832032942836306E-1    1.900750079849627E-2    1.690919707768314E-2   -1.955847018489395E-2    1.648971183034587E-2   -1.908724190821322E-2    9.837458154949118E-1    1.856103009407636E-2
 1.879254027362132E5     9.832063642376022E-1    1.889529376623883E-2    1.689087341278784E-2   -1.945162544490410E-2    1.646713050489853E-2   -1.897972092452545E-2    9.838079241793134E-1    1.845454360870287E-2
 1.893592477469092E5     9.832581533225764E-1    1.882097383113250E-2    1.688093875113601E-2   -1.933296773173556E-2    1.643765786011354E-2   -1.888834526324483E-2    9.837917036677349E-1    1.832632078187170E-2
 1.908040327980933E5     9.832725456261650E-1    1.868654365132665E-2    1.683861011872611E-2   -1.924285198419830E-2    1.641844316517759E-2   -1.877759578199447E-2    9.838032919614110E-1    1.824829708341717E-2
 1.922598413607715E5     9.833306178800336E-1    1.859211221694281E-2    1.681303235884279E-2   -1.913952114027470E-2    1.639890094433450E-2   -1.867495136797933E-2    9.838252859419592E-1    1.814995535315586E-2
 1.937267575428232E5     9.833525897862763E-1    1.847452827658448E-2    1.679062481467504E-2   -1.903765133685392E-2    1.637386098044295E-2   -1.857698447072212E-2    9.838572208509015E-1    1.803703958108097E-2
 1.952048660938581E5     9.833735502526690E-1    1.836542686997706E-2    1.676416684413714E-2   -1.893529834802281E-2    1.635052251334799E-2   -1.847926217190966E-2    9.838833269216126E-1    1.793414157468493E-2
 1.966942524101142E5     9.834045081027345E-1    1.826011761191330E-2    1.674342252041010E-2   -1.883555928256626E-2    1.632801459811389E-2   -1.837812111536883E-2    9.838678451800915E-1    1.783412736489228E-2
 1.981950025393913E5     9.834149380096233E-1    1.815360306853530E-2    1.671808885558089E-2   -1.873791403642639E-2    1.630231147245656E-2   -1.828433261136524E-2    9.839340788872991E-1    1.774871989481383E-2
