#  HZ   S   RI   R     50.00 
! Rohde & Schwarz Vector Network Analyzer 
! Rohde-Schwarz,ZNLE6-2Port,1323001256200024,1.71.1.10-23.02.1.238
! Created: UTC 4/9/2025, 2:11:26 AM
! freq[Hz]                re:S11                  im:S11                  re:S21                  im:S21                  re:S12                  im:S12                  re:S22                  im:S22
 1.000000000000000E5     9.839580232360112E-1    2.771803193995927E-2    1.632219580237850E-2   -2.799841721213559E-2    1.633359020352610E-2   -2.802709818470703E-2    9.838083178067393E-1    2.761542897320494E-2
 1.007629862646662E5     9.839573547203903E-1    2.750902915514805E-2    1.629885243154637E-2   -2.781742128236435E-2    1.631275808503011E-2   -2.784412414774077E-2    9.837943018209682E-1    2.743372075362024E-2
 1.015317940097331E5     9.839760557541443E-1    2.733313408233785E-2    1.627707107873872E-2   -2.763293581132489E-2    1.629439552470023E-2   -2.766439172169025E-2    9.838478044360065E-1    2.725687537788138E-2
 1.023064676522963E5     9.839864235320520E-1    2.713068187681813E-2    1.625895150969472E-2   -2.745227420292373E-2    1.627827283537050E-2   -2.748041682960024E-2    9.838745751964315E-1    2.707480870118854E-2
 1.030870519483485E5     9.839955569685888E-1    2.694353033373845E-2    1.624016896222331E-2   -2.727166685708021E-2    1.625587048899069E-2   -2.730072519607889E-2    9.838618075514818E-1    2.687904586241121E-2
 1.038735919953636E5     9.839943474377036E-1    2.676433382681112E-2    1.622164315205097E-2   -2.708938998510483E-2    1.623632501980756E-2   -2.712397675736900E-2    9.838767706617549E-1    2.671199151318953E-2
 1.046661332349037E5     9.840000168495047E-1    2.657946592825840E-2    1.620381769118037E-2   -2.691971772938702E-2    1.621997573989846E-2   -2.694612002683263E-2    9.839349155520482E-1    2.654879270225755E-2
 1.054647214552430E5     9.840190542343619E-1    2.639887387388863E-2    1.618207868126079E-2   -2.674064925572702E-2    1.620167620104256E-2   -2.676848009705496E-2    9.839523094160572E-1    2.636549712473364E-2
 1.062694027940149E5     9.840613288850757E-1    2.623488261282557E-2    1.616269926328945E-2   -2.656685152313142E-2    1.618397525889833E-2   -2.659341869092540E-2    9.839461202949841E-1    2.617627918215094E-2
 1.070802237408760E5     9.840352856450899E-1    2.604966372817438E-2    1.614622884858950E-2   -2.639193611148250E-2    1.616263606247339E-2   -2.642521918742065E-2    9.839786267990247E-1    2.601874075541762E-2
 1.078972311401927E5     9.840583747739362E-1    2.586899504160756E-2    1.612390411522783E-2   -2.622065201524497E-2    1.614632477296417E-2   -2.625495080438104E-2    9.840037027382165E-1    2.585170015098285E-2
 1.087204721937475E5     9.841027221212799E-1    2.570411100823638E-2    1.610981548937456E-2   -2.605421529131784E-2    1.612593086357329E-2   -2.607996927533581E-2    9.840274060365503E-1    2.568151722939344E-2
 1.095499944634658E5     9.841468270336142E-1    2.555174044847907E-2    1.608785142846585E-2   -2.588924593571434E-2    1.610627636470975E-2   -2.591209399373836E-2    9.840667836808166E-1    2.551130062742725E-2
 1.103858458741646E5     9.841577775124635E-1    2.535249916563354E-2    1.607313433387347E-2   -2.571836546459290E-2    1.609361028887727E-2   -2.574750204523765E-2    9.840708887883219E-1    2.533284763684676E-2
 1.112280747163201E5     9.841604492647572E-1    2.519923986307946E-2    1.605264451377934E-2   -2.555795633246638E-2    1.607031538781044E-2   -2.558430986624038E-2    9.840872128800683E-1    2.516497850282439E-2
 1.120767296488583E5     9.841793657457362E-1    2.502277670075009E-2    1.603275099295917E-2   -2.539084224509570E-2    1.604984876259963E-2   -2.541544849872001E-2    9.841439156297225E-1    2.500317216588430E-2
 1.129318597019661E5     9.842349131911436E-1    2.485035091508494E-2    1.601560573768604E-2   -2.523102981667972E-2    1.603531857340667E-2   -2.525597305047183E-2    9.841701565514543E-1    2.483730199709394E-2
 1.137935142799240E5     9.842107050144203E-1    2.470762252794789E-2    1.599442503505437E-2   -2.506374902708965E-2    1.601459274017605E-2   -2.509369691304712E-2    9.841607727908747E-1    2.468595223508952E-2
 1.146617431639607E5     9.842141705815821E-1    2.453458442287139E-2    1.597802319517457E-2   -2.490936899839946E-2    1.599592859524663E-2   -2.493573010968318E-2    9.841529839839347E-1    2.453487431421519E-2
 1.155365965151286E5     9.842519085169221E-1    2.437076502378928E-2    1.596199998674325E-2   -2.474749804236274E-2    1.597647046328883E-2   -2.477600081896291E-2    9.841763087917813E-1    2.436420997978251E-2
 1.164181248772018E5     9.842954492857394E-1    2.421114748510691E-2    1.594376192809582E-2   -2.459283253644830E-2    1.595722354920892E-2   -2.461954358379462E-2    9.841994342424024E-1    2.420648853364949E-2
 1.173063791795965E5     9.842839222448592E-1    2.404869079800001E-2    1.592419914090478E-2   -2.443765707675597E-2    1.594359597724030E-2   -2.445825147425116E-2    9.842246228113688E-1    2.404188087530354E-2
 1.182014107403141E5     9.843086862097284E-1    2.388389988487812E-2    1.590247389919323E-2   -2.427932836526195E-2    1.592561614819284E-2   -2.431141000282595E-2    9.842306257662100E-1    2.389463190507570E-2
 1.191032712689044E5     9.842952852519630E-1    2.372322075509400E-2    1.588833822912116E-2   -2.412733105802008E-2    1.590467048961601E-2   -2.415250148112953E-2    9.842132663881676E-1    2.374151418465757E-2
 1.200120128694542E5     9.843128903588875E-1    2.357820583916204E-2    1.586796842828632E-2   -2.397203092721949E-2    1.589030993776064E-2   -2.400169216918393E-2    9.842465798633749E-1    2.357757682249851E-2
 1.209276880435975E5     9.843280132567737E-1    2.344806554610498E-2    1.585381692780545E-2   -2.382426900306599E-2    1.586824024296732E-2   -2.385115321952279E-2    9.842902937514777E-1    2.342420500302238E-2
 1.218503496935483E5     9.843603332674880E-1    2.328465993461012E-2    1.583024618045659E-2   -2.367248240915261E-2    1.584933143657974E-2   -2.369631212581684E-2    9.842723718794101E-1    2.327520957096989E-2
 1.227800511251578E5     9.843635575945486E-1    2.314100575475542E-2    1.581452174389916E-2   -2.352457664613534E-2    1.583154759908625E-2   -2.355076595882030E-2    9.842666380783284E-1    2.314108304476704E-2
 1.237168460509929E5     9.843788014354359E-1    2.297061240438364E-2    1.579447781185654E-2   -2.337815946633865E-2    1.581362077082885E-2   -2.340676515883268E-2    9.843500363275218E-1    2.297345146458772E-2
 1.246607885934402E5     9.844253795474956E-1    2.282525733722280E-2    1.577684100794149E-2   -2.323233761345985E-2    1.579459864076145E-2   -2.325803926054709E-2    9.843475410472471E-1    2.283778300221604E-2
 1.256119332878327E5     9.844479805105903E-1    2.267641676899799E-2    1.575658978028596E-2   -2.308845639469916E-2    1.577911147457774E-2   -2.311461899825038E-2    9.843492124850356E-1    2.269946571103344E-2
 1.265703350856002E5     9.844348501892832E-1    2.251503917952230E-2    1.574257801337643E-2   -2.294318713975757E-2    1.575856320284275E-2   -2.297007414022947E-2    9.843999968308604E-1    2.253686833226180E-2
 1.275360493574453E5     9.844427287109428E-1    2.238329114150426E-2    1.572253646409253E-2   -2.280295644782846E-2    1.573998887469375E-2   -2.283024058286650E-2    9.844205644757468E-1    2.241068777216974E-2
 1.285091318965405E5     9.844383432334570E-1    2.224116103600690E-2    1.570411070371148E-2   -2.266279493788162E-2    1.572089939975207E-2   -2.269073193695435E-2    9.844386948884938E-1    2.226504077328649E-2
 1.294896389217529E5     9.844631916432418E-1    2.210974390958291E-2    1.568386299600427E-2   -2.252209918569024E-2    1.570398886450408E-2   -2.254960973364464E-2    9.844459823285109E-1    2.212670372274250E-2
 1.304776270808914E5     9.844848960555224E-1    2.197380490192024E-2    1.566587063013981E-2   -2.238654394115700E-2    1.568929320622863E-2   -2.240967564483129E-2    9.844411683877053E-1    2.198906740396897E-2
 1.314731534539810E5     9.844671140915956E-1    2.182090941588552E-2    1.565013674234766E-2   -2.224741417607288E-2    1.566592519034329E-2   -2.227193759841521E-2    9.844807727126722E-1    2.183808547168730E-2
 1.324762755565583E5     9.844993473269577E-1    2.167938331139074E-2    1.563019346333980E-2   -2.211116152504984E-2    1.565232665442389E-2   -2.213815099607663E-2    9.845035852687861E-1    2.170695767896970E-2
 1.334870513429962E5     9.845475650039847E-1    2.155560908873867E-2    1.561600800452214E-2   -2.198210378587277E-2    1.562970255275679E-2   -2.200363198027274E-2    9.844932692908537E-1    2.157753484974665E-2
 1.345055392098512E5     9.845727794965921E-1    2.143339526966321E-2    1.559907512884378E-2   -2.184579338702471E-2    1.561443294402702E-2   -2.186840210892371E-2    9.845431295011047E-1    2.143489808267963E-2
 1.355317979992373E5     9.845711711912781E-1    2.129026480350616E-2    1.557942766315192E-2   -2.171238004432191E-2    1.559730360646466E-2   -2.173707618815516E-2    9.845803370996214E-1    2.129885654602998E-2
 1.365658870022265E5     9.845693968108319E-1    2.114368292987659E-2    1.555998082311788E-2   -2.157798891471622E-2    1.557640805114611E-2   -2.160559927494816E-2    9.845676188267869E-1    2.117144294519115E-2
 1.376078659622731E5     9.845884636693376E-1    2.102045883563585E-2    1.554170752524899E-2   -2.145016523047885E-2    1.556038473857505E-2   -2.147182121364308E-2    9.846111505162497E-1    2.104389169103220E-2
 1.386577950786655E5     9.846216638712051E-1    2.085487260615477E-2    1.552666203510595E-2   -2.132157810543660E-2    1.553870688421003E-2   -2.134012499802999E-2    9.845912337200485E-1    2.090139013319670E-2
 1.397157350100044E5     9.846471107111207E-1    2.075414962648510E-2    1.550550311750549E-2   -2.119109473363063E-2    1.552212513793550E-2   -2.121421025976484E-2    9.846482104594141E-1    2.077853831257552E-2
 1.407817468777081E5     9.846746339632934E-1    2.062684337689776E-2    1.548675064316105E-2   -2.106369904836956E-2    1.550533238551315E-2   -2.108563544721843E-2    9.846529671911162E-1    2.064878292330197E-2
 1.418558922695422E5     9.846708172742995E-1    2.049975621621856E-2    1.546824719292521E-2   -2.093846040780182E-2    1.548388963302371E-2   -2.096187412291169E-2    9.846895173614340E-1    2.052320526512150E-2
 1.429382332431784E5     9.847315142532910E-1    2.037101914716636E-2    1.544933401953722E-2   -2.081213245416308E-2    1.546867648756581E-2   -2.083594430270770E-2    9.846734724884540E-1    2.038206429294443E-2
 1.440288323297804E5     9.847554027100962E-1    2.025293266231264E-2    1.543259406172309E-2   -2.068928262929724E-2    1.544873774565609E-2   -2.071142561284382E-2    9.847054060285175E-1    2.027571809228018E-2
 1.451277525376154E5     9.847840176017154E-1    2.012735969760018E-2    1.541219596846760E-2   -2.056575189370446E-2    1.543030802132900E-2   -2.058620876567552E-2    9.847190806900803E-1    2.014211903394723E-2
 1.462350573556962E5     9.847460799265568E-1    2.000100176621179E-2    1.539332240000230E-2   -2.044394253972315E-2    1.541296173005221E-2   -2.046615638455675E-2    9.847295190399631E-1    2.001259054358683E-2
 1.473508107574468E5     9.848064522883998E-1    1.987756650416056E-2    1.537781025780045E-2   -2.032289908720524E-2    1.539533969722630E-2   -2.034733485806571E-2    9.847853736617994E-1    1.990835220443458E-2
 1.484750772044004E5     9.847971205519662E-1    1.975423029338928E-2    1.535410410809541E-2   -2.020360347083247E-2    1.537224517528808E-2   -2.022889677974404E-2    9.848066661606385E-1    1.976906037539473E-2
 1.496079216499225E5     9.847929618481053E-1    1.963045650686624E-2    1.533832541939880E-2   -2.008409359775971E-2    1.535661180674605E-2   -2.011008680924946E-2    9.847855306490474E-1    1.964750792566671E-2
 1.507494095429637E5     9.848232724343214E-1    1.949725207490763E-2    1.532013268245986E-2   -1.996367268569937E-2    1.533769122261145E-2   -1.999094903568960E-2    9.848381169367003E-1    1.952183045308066E-2
 1.518996068318418E5     9.848553195785285E-1    1.938759815116676E-2    1.530160867661276E-2   -1.985051687313198E-2    1.532210431487381E-2   -1.987220774995273E-2    9.848787386898861E-1    1.941341399180071E-2
 1.530585799680507E5     9.848518276778981E-1    1.926992433985976E-2    1.528176175046169E-2   -1.973426963759903E-2    1.530383165933616E-2   -1.975902420782685E-2    9.848900668241890E-1    1.928582732628232E-2
 1.542263959101001E5     9.848801511568177E-1    1.914946287500405E-2    1.526045037985667E-2   -1.962362032079637E-2    1.528080982288762E-2   -1.964147958817562E-2    9.848895804649469E-1    1.916726565744864E-2
 1.554031221273835E5     9.848901493936620E-1    1.901883217542386E-2    1.524379798889624E-2   -1.950561747497022E-2    1.526090422576018E-2   -1.952986514388753E-2    9.849189730063601E-1    1.907096381071613E-2
 1.565888266040779E5     9.848926796374585E-1    1.890662488472013E-2    1.522058028196671E-2   -1.939107259939161E-2    1.524508317660082E-2   -1.941447341316561E-2    9.849126841570411E-1    1.895777148764938E-2
 1.577835778430689E5     9.849277809489650E-1    1.881065012735022E-2    1.520416114867399E-2   -1.927930614649158E-2    1.522448256320889E-2   -1.930723929021215E-2    9.849453521208779E-1    1.885098235298278E-2
 1.589874448699104E5     9.849421954393536E-1    1.869535730253830E-2    1.518491970860961E-2   -1.916786343624506E-2    1.520687521979940E-2   -1.919277216148584E-2    9.849407396009702E-1    1.872051346605852E-2
 1.602004972368116E5     9.849603581573263E-1    1.857648053516274E-2    1.517191512348389E-2   -1.906203365106452E-2    1.519019582714671E-2   -1.908032116121569E-2    9.850052928307296E-1    1.861481800181511E-2
 1.614228050266550E5     9.849735929411436E-1    1.846251133236483E-2    1.514685245093112E-2   -1.895125855165573E-2    1.516828008844804E-2   -1.896986242448646E-2    9.849908920505026E-1    1.849778151006835E-2
 1.626544388570473E5     9.849520467944914E-1    1.835259484574669E-2    1.513019584641927E-2   -1.884050935683684E-2    1.515018573085899E-2   -1.886746446769830E-2    9.850264914283133E-1    1.840094644751689E-2
 1.638954698843964E5     9.849817501461869E-1    1.824004719371868E-2    1.510613296792775E-2   -1.873578738952707E-2    1.513071394609520E-2   -1.875571605463058E-2    9.850312046112590E-1    1.827867107748661E-2
 1.651459698080244E5     9.850037242169644E-1    1.811947277793020E-2    1.508859816556357E-2   -1.862716898089983E-2    1.511108221780433E-2   -1.865035676969101E-2    9.850577692676595E-1    1.817541863506469E-2
 1.664060108743095E5     9.850499898309512E-1    1.802180823412542E-2    1.507021967174911E-2   -1.852229703972751E-2    1.509128311717551E-2   -1.854514700738261E-2    9.850557261325977E-1    1.805018615581722E-2
 1.676756658808590E5     9.850611211210594E-1    1.791288237902281E-2    1.505243604589271E-2   -1.841773708065769E-2    1.507282902335789E-2   -1.844075399927902E-2    9.850791456903771E-1    1.795310298639042E-2
 1.689550081807175E5     9.850949205952362E-1    1.783225508743981E-2    1.502940099218204E-2   -1.831207509896049E-2    1.505055614725616E-2   -1.833561060542541E-2    9.851180476952471E-1    1.785697302560835E-2
 1.702441116866020E5     9.851362316181028E-1    1.770621982610503E-2    1.501105423867366E-2   -1.821355220905907E-2    1.503096356991545E-2   -1.823180317854808E-2    9.851270756112698E-1    1.774227632735267E-2
 1.715430508751738E5     9.851465715490100E-1    1.760036028063114E-2    1.499224849613628E-2   -1.810740963250810E-2    1.501283323431645E-2   -1.813166498601506E-2    9.851674172546994E-1    1.763891830114848E-2
 1.728519007913403E5     9.851530339649329E-1    1.750647802873711E-2    1.497219187103150E-2   -1.800751989947644E-2    1.499344355105737E-2   -1.802878111236593E-2    9.851717530186671E-1    1.751775121471502E-2
 1.741707370525927E5     9.851834869054189E-1    1.740299626114265E-2    1.495215899056938E-2   -1.791091435593696E-2    1.497143064201587E-2   -1.792775435810025E-2    9.851673169099061E-1    1.742568395412877E-2
 1.754996358533718E5     9.851770718238205E-1    1.729597999417004E-2    1.493112795590949E-2   -1.780954408613691E-2    1.495229780141087E-2   -1.782906815830299E-2    9.851470440551421E-1    1.732717361031194E-2
 1.768386739694722E5     9.852475079763863E-1    1.719357136807470E-2    1.490989913826690E-2   -1.770922197966651E-2    1.493055672758487E-2   -1.773057840782508E-2    9.851769454691275E-1    1.722123157521305E-2
 1.781879287624771E5     9.852179631992526E-1    1.707912324799754E-2    1.489196872268612E-2   -1.761049242472184E-2    1.491235643298396E-2   -1.762983235280678E-2    9.852207787605448E-1    1.713424994350643E-2
 1.795474781842276E5     9.852369752159611E-1    1.699010124525904E-2    1.487029739616700E-2   -1.751609047955315E-2    1.489301357074243E-2   -1.753446018379348E-2    9.852585253234154E-1    1.703513796097880E-2
 1.809174007813277E5     9.852722489112512E-1    1.690303945816037E-2    1.485307211277217E-2   -1.742228991000556E-2    1.486834823130023E-2   -1.744058787434061E-2    9.852843015470080E-1    1.693806682962242E-2
 1.822977756996804E5     9.852983480154218E-1    1.678071252653570E-2    1.483187690890117E-2   -1.732662874844149E-2    1.484940473943366E-2   -1.734387872799554E-2    9.853067093764848E-1    1.683714079698598E-2
 1.836886826890609E5     9.853278390153580E-1    1.670525634445802E-2    1.481173757777550E-2   -1.722852140548777E-2    1.483038942941840E-2   -1.725060470133630E-2    9.853384078568295E-1    1.672141550307326E-2
 1.850902021077247E5     9.853607295064128E-1    1.660472377332643E-2    1.478880343432650E-2   -1.713622458240267E-2    1.480993985337678E-2   -1.715592190378542E-2    9.853602569339625E-1    1.663718312053142E-2
 1.865024149270491E5     9.853599989333746E-1    1.652693468325407E-2    1.477160967302834E-2   -1.704374694815871E-2    1.478821344457436E-2   -1.706238026013885E-2    9.853428573433638E-1    1.652944983573064E-2
 1.879254027362132E5     9.853722589522770E-1    1.641757042980035E-2    1.474836480068380E-2   -1.695277278446364E-2    1.476804911796895E-2   -1.697000499288797E-2    9.853902460878919E-1    1.644535443960473E-2
 1.893592477469092E5     9.853497256296453E-1    1.632946196872808E-2    1.472596125178750E-2   -1.684892816774308E-2    1.476379518995967E-2   -1.687611244428481E-2    9.854212531874559E-1    1.635785758257427E-2
 1.908040327980933E5     9.854164366196030E-1    1.623041293254421E-2    1.470894608639955E-2   -1.676968193028843E-2    1.472507602540144E-2   -1.678688356269802E-2    9.854376115168532E-1    1.625825228720103E-2
 1.922598413607715E5     9.854337225416141E-1    1.612323005630220E-2    1.468611793315218E-2   -1.668138092074800E-2    1.470532184469198E-2   -1.669729892351342E-2    9.854172727088810E-1    1.615844891886292E-2
 1.937267575428232E5     9.854842031534934E-1    1.604325911395994E-2    1.466566126772399E-2   -1.659428065924573E-2    1.468636398296989E-2   -1.660738863802508E-2    9.855073626496771E-1    1.608084713190143E-2
 1.952048660938581E5     9.854759005936835E-1    1.594295013203586E-2    1.464674521823060E-2   -1.650433001530135E-2    1.466255699998503E-2   -1.652004162833767E-2    9.855000428470175E-1    1.598824360421907E-2
 1.966942524101142E5     9.854905660771778E-1    1.586209797015509E-2    1.462306012294585E-2   -1.641540821766557E-2    1.463876128312592E-2   -1.643436322526918E-2    9.855112852791350E-1    1.590158275404871E-2
 1.981950025393913E5     9.855400224860548E-1    1.576211751010081E-2    1.460453522661165E-2   -1.632656530708832E-2    1.462024115909927E-2   -1.634339078813211E-2    9.855310701533775E-1    1.579736002785390E-2
