#  HZ   S   RI   R     50.00 
! Rohde & Schwarz Vector Network Analyzer 
! Rohde-Schwarz,ZNLE6-2Port,1323001256200024,1.71.1.10-23.02.1.238
! Created: UTC 4/8/2025, 3:26:37 AM
! freq[Hz]                re:S11                  im:S11                  re:S21                  im:S21                  re:S12                  im:S12                  re:S22                  im:S22
 1.000000000000000E5     9.851039177015493E-1    2.595196011800273E-2    1.508216626709371E-2   -2.619386206711371E-2    1.468677156906781E-2   -2.553607198716897E-2    9.855365106297282E-1    2.520770359942457E-2
 1.007629862646662E5     9.851398835011167E-1    2.574492872117051E-2    1.506021464039147E-2   -2.601819868382463E-2    1.466662381993466E-2   -2.536184543654998E-2    9.855250485508310E-1    2.502461319721657E-2
 1.015317940097331E5     9.851457868866997E-1    2.557104912999049E-2    1.504893118710391E-2   -2.584890353165963E-2    1.465458617104501E-2   -2.520056783853037E-2    9.855412208466355E-1    2.487043851186292E-2
 1.023064676522963E5     9.851083737269266E-1    2.539061296866214E-2    1.503048533155857E-2   -2.568125762888670E-2    1.463417089073287E-2   -2.503493437662541E-2    9.855692116557045E-1    2.467907993691360E-2
 1.030870519483485E5     9.851291647585984E-1    2.521597554800926E-2    1.501558568791250E-2   -2.551230153972346E-2    1.462024248630941E-2   -2.487035519579309E-2    9.855736484865690E-1    2.453648613146694E-2
 1.038735919953636E5     9.851738123553416E-1    2.504439087055029E-2    1.499850036834558E-2   -2.534860192099312E-2    1.460192441330677E-2   -2.470434815548734E-2    9.856413112871253E-1    2.435297047714192E-2
 1.046661332349037E5     9.851743652350519E-1    2.485856070603161E-2    1.497962321183594E-2   -2.517589198441474E-2    1.458667908855218E-2   -2.454362238179573E-2    9.855976486872479E-1    2.420433085127177E-2
 1.054647214552430E5     9.852010939824707E-1    2.468696043669711E-2    1.496130057756985E-2   -2.500791201514345E-2    1.457154871899931E-2   -2.438247482320249E-2    9.856145127255043E-1    2.402425561031500E-2
 1.062694027940149E5     9.852189342040953E-1    2.452590222904616E-2    1.494063252112377E-2   -2.484216709692907E-2    1.455800004597871E-2   -2.422500206400955E-2    9.856691752898693E-1    2.389878666629887E-2
 1.070802237408760E5     9.852138873841541E-1    2.438158690983439E-2    1.492551414714780E-2   -2.468558348302502E-2    1.453924497807291E-2   -2.406469120058480E-2    9.856917658368727E-1    2.371783331465860E-2
 1.078972311401927E5     9.852304371114291E-1    2.421136904433330E-2    1.491508585649742E-2   -2.452249996205376E-2    1.452276741861658E-2   -2.390550551761496E-2    9.856610635554303E-1    2.356967191700856E-2
 1.087204721937475E5     9.852506507419606E-1    2.404850571207387E-2    1.489689558498682E-2   -2.436370312969736E-2    1.450657971687961E-2   -2.375320457054503E-2    9.856944639080877E-1    2.341582724036619E-2
 1.095499944634658E5     9.852842879884380E-1    2.386984318320013E-2    1.488004569782776E-2   -2.420784570173173E-2    1.449276533418088E-2   -2.359664924601505E-2    9.857165215197227E-1    2.325936349291760E-2
 1.103858458741646E5     9.852561037156098E-1    2.371620619011576E-2    1.485990209448186E-2   -2.405075437401392E-2    1.447345431080662E-2   -2.344403008300855E-2    9.857465804343954E-1    2.310225023781294E-2
 1.112280747163201E5     9.852827422507872E-1    2.357826344387972E-2    1.484628703317208E-2   -2.388952652258155E-2    1.445908038412882E-2   -2.329325443410787E-2    9.857252516151017E-1    2.294612875857647E-2
 1.120767296488583E5     9.853011801488027E-1    2.340631868289722E-2    1.482674871679186E-2   -2.373605882446150E-2    1.444369543389989E-2   -2.314390931090192E-2    9.857241598691592E-1    2.279345861266686E-2
 1.129318597019661E5     9.853366419896177E-1    2.325656413306545E-2    1.481279285655807E-2   -2.358436160205762E-2    1.443164641390839E-2   -2.299516820341214E-2    9.857791000406020E-1    2.265448499454656E-2
 1.137935142799240E5     9.853148546617205E-1    2.309881907496544E-2    1.480259046873434E-2   -2.343661112813165E-2    1.441073020096515E-2   -2.284703925051215E-2    9.858012970187773E-1    2.250385685484106E-2
 1.146617431639607E5     9.853488030849885E-1    2.293497657687945E-2    1.478095308641465E-2   -2.328459497008266E-2    1.439342751901052E-2   -2.270232571888644E-2    9.858103904827863E-1    2.236723211922689E-2
 1.155365965151286E5     9.853654722915051E-1    2.277755758581559E-2    1.476322813509224E-2   -2.313357018302618E-2    1.437878495450029E-2   -2.255396329111013E-2    9.858256526867292E-1    2.221197831707527E-2
 1.164181248772018E5     9.853778044530495E-1    2.262599731012225E-2    1.474335963882716E-2   -2.298355888101146E-2    1.436204648777382E-2   -2.240930119772331E-2    9.858377319848304E-1    2.205986401711640E-2
 1.173063791795965E5     9.853814282047547E-1    2.246969185861861E-2    1.472585882852819E-2   -2.284119668315857E-2    1.434851745738463E-2   -2.227191197579361E-2    9.858463271155893E-1    2.193050632131649E-2
 1.182014107403141E5     9.854082257369579E-1    2.234122466611725E-2    1.471236296771482E-2   -2.269575492290390E-2    1.433006978231990E-2   -2.212788239250922E-2    9.858142259746882E-1    2.178310520029359E-2
 1.191032712689044E5     9.854101224408779E-1    2.218568986667225E-2    1.469768926898267E-2   -2.255190383617368E-2    1.431429598150743E-2   -2.198720180630286E-2    9.858507754858518E-1    2.164416102463393E-2
 1.200120128694542E5     9.854218574961121E-1    2.203765325946504E-2    1.468117471435911E-2   -2.241023141742750E-2    1.430133061488973E-2   -2.184810652770514E-2    9.859015121742281E-1    2.149642878606711E-2
 1.209276880435975E5     9.854337290608254E-1    2.190382371140825E-2    1.466481413744414E-2   -2.226898097822986E-2    1.428245686672229E-2   -2.171090468156225E-2    9.859256839642651E-1    2.134951838896619E-2
 1.218503496935483E5     9.854647140148902E-1    2.175240285835801E-2    1.464721237535105E-2   -2.212503277516092E-2    1.426913260261908E-2   -2.157260187627270E-2    9.859549586513702E-1    2.121966347247116E-2
 1.227800511251578E5     9.854862462342900E-1    2.159718573081195E-2    1.463037936598296E-2   -2.198601461547817E-2    1.425296368547071E-2   -2.144218687808042E-2    9.859729373224648E-1    2.107257830137820E-2
 1.237168460509929E5     9.854881118803845E-1    2.146248848464225E-2    1.461469668331104E-2   -2.184655165175743E-2    1.423958042580114E-2   -2.130451614325116E-2    9.859983624127653E-1    2.094004395433296E-2
 1.246607885934402E5     9.855256411264024E-1    2.132226540941928E-2    1.460261403728856E-2   -2.171006005077862E-2    1.422173346043880E-2   -2.116906619792990E-2    9.859584167665262E-1    2.082453125254305E-2
 1.256119332878327E5     9.855056180866042E-1    2.121266590646836E-2    1.458172642061189E-2   -2.158066495343202E-2    1.420684848935849E-2   -2.103583855963604E-2    9.860011186279996E-1    2.069167850752607E-2
 1.265703350856002E5     9.855136934811891E-1    2.106597863585642E-2    1.456959013807084E-2   -2.144465507580231E-2    1.419218289474082E-2   -2.090720533268315E-2    9.860312730502275E-1    2.054800305616952E-2
 1.275360493574453E5     9.855400417658656E-1    2.091637366388390E-2    1.455431651335057E-2   -2.130765833911339E-2    1.417566856948145E-2   -2.077502634134927E-2    9.860733261730300E-1    2.041940483567580E-2
 1.285091318965405E5     9.855883589032871E-1    2.080623653385442E-2    1.453268952426873E-2   -2.117491228628745E-2    1.415870792545694E-2   -2.064628898512835E-2    9.860897806099942E-1    2.029043159290444E-2
 1.294896389217529E5     9.855849145799329E-1    2.065189576469632E-2    1.451675066245143E-2   -2.104414333025696E-2    1.414345234372563E-2   -2.052175495697246E-2    9.860668308993394E-1    2.015925784124079E-2
 1.304776270808914E5     9.855955032083918E-1    2.052937133915231E-2    1.450230487235573E-2   -2.091346828606297E-2    1.412673735173900E-2   -2.039251982567856E-2    9.860951305680273E-1    2.003717522077936E-2
 1.314731534539810E5     9.856162298192690E-1    2.040291076132552E-2    1.449128282514983E-2   -2.079208684452210E-2    1.410904186165436E-2   -2.026821202944293E-2    9.861180224795136E-1    1.989911908972026E-2
 1.324762755565583E5     9.856136135720016E-1    2.026926722716237E-2    1.447818287959623E-2   -2.066818932865582E-2    1.409798342956234E-2   -2.014095204479665E-2    9.861416794484205E-1    1.978891869200865E-2
 1.334870513429962E5     9.856453265787306E-1    2.014163582719176E-2    1.445934053670647E-2   -2.054326077325425E-2    1.407840478883448E-2   -2.001808174574149E-2    9.861317096792328E-1    1.965542115323927E-2
 1.345055392098512E5     9.856733793934150E-1    2.002768544106974E-2    1.444464675988663E-2   -2.041456175355475E-2    1.406567575862398E-2   -1.990012868984705E-2    9.861470069753420E-1    1.953151919207504E-2
 1.355317979992373E5     9.856802433418402E-1    1.986771543749507E-2    1.441933731056493E-2   -2.027793827206469E-2    1.404798996046742E-2   -1.977340944070961E-2    9.861723264259026E-1    1.941045926803755E-2
 1.365658870022265E5     9.856821121051601E-1    1.972290579177912E-2    1.440382548623405E-2   -2.015194422140025E-2    1.403303380011512E-2   -1.965708893146855E-2    9.862035786530862E-1    1.930109854382221E-2
 1.376078659622731E5     9.856948780420741E-1    1.961552039872774E-2    1.438448850061349E-2   -2.002917321613304E-2    1.401571561822494E-2   -1.953705853264560E-2    9.862064800541269E-1    1.916748711791474E-2
 1.386577950786655E5     9.857406600743106E-1    1.948901842213211E-2    1.436813434188385E-2   -1.991117298087280E-2    1.400220857946378E-2   -1.941743726514642E-2    9.862437565452418E-1    1.904742826428984E-2
 1.397157350100044E5     9.857727136938653E-1    1.937185433400174E-2    1.435167016398500E-2   -1.979117679896497E-2    1.398226478752438E-2   -1.929964810908008E-2    9.862356475690779E-1    1.892487384311851E-2
 1.407817468777081E5     9.857718573780518E-1    1.924508318908477E-2    1.433761527612385E-2   -1.966654906001654E-2    1.396966148980022E-2   -1.918369014276025E-2    9.862721353130099E-1    1.880813239939085E-2
 1.418558922695422E5     9.857528572721305E-1    1.912393407184480E-2    1.431640539862337E-2   -1.954889532036074E-2    1.395588548597599E-2   -1.906483171290701E-2    9.862530412443323E-1    1.868181900967486E-2
 1.429382332431784E5     9.858007534501161E-1    1.900155403457479E-2    1.429743231071661E-2   -1.943004259946240E-2    1.393805312966437E-2   -1.895033172815616E-2    9.862773114949517E-1    1.858443072701834E-2
 1.440288323297804E5     9.858278359914388E-1    1.888455583511310E-2    1.428030596119734E-2   -1.931015029604215E-2    1.392413527935853E-2   -1.883623724451344E-2    9.862960372290501E-1    1.845465433295494E-2
 1.451277525376154E5     9.858277969043509E-1    1.877026231733973E-2    1.426460335267511E-2   -1.919614714254000E-2    1.390367206776798E-2   -1.872522166888921E-2    9.863140082150781E-1    1.834507708301120E-2
 1.462350573556962E5     9.858576096721960E-1    1.864346220389467E-2    1.424881060254611E-2   -1.908258711642724E-2    1.389053743316798E-2   -1.861518250426547E-2    9.863494629087314E-1    1.822967343011027E-2
 1.473508107574468E5     9.858300013801495E-1    1.854012761844683E-2    1.423116563125551E-2   -1.896854183571452E-2    1.386999823132463E-2   -1.850030725116487E-2    9.863472906673064E-1    1.811127317465060E-2
 1.484750772044004E5     9.858450260422608E-1    1.841582004406505E-2    1.421227719136078E-2   -1.885662980912132E-2    1.385731310863890E-2   -1.839131137326228E-2    9.863576903438789E-1    1.799177463114744E-2
 1.496079216499225E5     9.858901605434623E-1    1.831807277289101E-2    1.419564278677395E-2   -1.874339105554361E-2    1.384234401886058E-2   -1.828250536603025E-2    9.863752151459086E-1    1.788679428365030E-2
 1.507494095429637E5     9.859214385704977E-1    1.819163151619927E-2    1.417602613589530E-2   -1.863354000739531E-2    1.382749936210535E-2   -1.817580969618863E-2    9.864060800539142E-1    1.777845615020971E-2
 1.518996068318418E5     9.859189723183360E-1    1.809440884390530E-2    1.416274010033687E-2   -1.852036774745394E-2    1.380535368640119E-2   -1.806590465817313E-2    9.863989270378463E-1    1.765452148330757E-2
 1.530585799680507E5     9.859331993858329E-1    1.797679122044086E-2    1.415040161609161E-2   -1.841268793632364E-2    1.379003836671755E-2   -1.796083578776353E-2    9.864144816928444E-1    1.754963823965619E-2
 1.542263959101001E5     9.859978724327295E-1    1.788157601639346E-2    1.413082477095411E-2   -1.830593112803426E-2    1.377613789031838E-2   -1.785473136297464E-2    9.864283972362513E-1    1.744589659693542E-2
 1.554031221273835E5     9.859986384407944E-1    1.776620521293275E-2    1.411370307709136E-2   -1.819817453199025E-2    1.375723420534778E-2   -1.775054766912828E-2    9.864743979310096E-1    1.734767884452209E-2
 1.565888266040779E5     9.860038158578783E-1    1.763937663864596E-2    1.409361828497294E-2   -1.809347564278472E-2    1.374245570533057E-2   -1.765050456576091E-2    9.864545720948851E-1    1.725274379250999E-2
 1.577835778430689E5     9.860219588775628E-1    1.754387335941725E-2    1.407877043606389E-2   -1.798672965020958E-2    1.372439476297873E-2   -1.754637050103935E-2    9.864990972449347E-1    1.714467956812100E-2
 1.589874448699104E5     9.860093470098449E-1    1.742037819745570E-2    1.406212020034649E-2   -1.788091985526908E-2    1.370567461942285E-2   -1.744699017246832E-2    9.865170687064411E-1    1.703971963057874E-2
 1.602004972368116E5     9.860314263227621E-1    1.731579671653776E-2    1.404100492371788E-2   -1.777787158857357E-2    1.369206983883612E-2   -1.734069667346527E-2    9.865080841522538E-1    1.693709838307319E-2
 1.614228050266550E5     9.860580022060463E-1    1.720135680309584E-2    1.402296609094719E-2   -1.767462111007332E-2    1.367412715400316E-2   -1.724144565724916E-2    9.865441791402990E-1    1.682628635915493E-2
 1.626544388570473E5     9.860790978548352E-1    1.711416016508400E-2    1.400911711929131E-2   -1.757342691768095E-2    1.365902473503096E-2   -1.714380997775566E-2    9.865532766282826E-1    1.672182148474523E-2
 1.638954698843964E5     9.860682107367855E-1    1.698631317880699E-2    1.399030185164645E-2   -1.747607990997950E-2    1.364201751911364E-2   -1.704428963011101E-2    9.865471280632720E-1    1.663597309225397E-2
 1.651459698080244E5     9.860983094442775E-1    1.689834103168359E-2    1.397008648597745E-2   -1.736873576617701E-2    1.362267610625799E-2   -1.694600265942635E-2    9.865702669989184E-1    1.653687116138066E-2
 1.664060108743095E5     9.861178983769457E-1    1.679240426493708E-2    1.395458368973908E-2   -1.727353158070110E-2    1.360396727835362E-2   -1.684990734890189E-2    9.865801429826171E-1    1.641975660672077E-2
 1.676756658808590E5     9.861504438231670E-1    1.669584050467297E-2    1.393788151393587E-2   -1.717670445874344E-2    1.358750505129147E-2   -1.675469147037111E-2    9.866225991983300E-1    1.633225656585205E-2
 1.689550081807175E5     9.861455715760550E-1    1.662402511966415E-2    1.391603518746170E-2   -1.707837488913774E-2    1.357064091011541E-2   -1.665713450879456E-2    9.866637872439603E-1    1.622688853310333E-2
 1.702441116866020E5     9.861679141335863E-1    1.649740573179091E-2    1.390333324472195E-2   -1.698338753054439E-2    1.355245617271304E-2   -1.656373910866944E-2    9.866402187351426E-1    1.613361229999783E-2
 1.715430508751738E5     9.861717151276544E-1    1.640113868564674E-2    1.388537129171043E-2   -1.688656845293668E-2    1.353624304562368E-2   -1.647200857072072E-2    9.866534355670424E-1    1.603050016662083E-2
 1.728519007913403E5     9.861879138583526E-1    1.629772749296898E-2    1.386459131419906E-2   -1.678792709164301E-2    1.351811086894675E-2   -1.637717864428308E-2    9.866726118537573E-1    1.592106222610179E-2
 1.741707370525927E5     9.862367766084719E-1    1.621285559281526E-2    1.385083306055974E-2   -1.669849203886448E-2    1.349940956371283E-2   -1.628607800514172E-2    9.866474325386098E-1    1.584030250230416E-2
 1.754996358533718E5     9.862478267953032E-1    1.612342942161685E-2    1.382781026392709E-2   -1.660074083345251E-2    1.348000259650616E-2   -1.619309188403132E-2    9.866541571684722E-1    1.575433847405674E-2
 1.768386739694722E5     9.862845111850363E-1    1.602372411293899E-2    1.381064106347329E-2   -1.650752270033340E-2    1.346579016119418E-2   -1.610280313379302E-2    9.866832266273970E-1    1.564875217857218E-2
 1.781879287624771E5     9.862743125437817E-1    1.592445344625310E-2    1.379100645977618E-2   -1.641919113412335E-2    1.344844159049221E-2   -1.601369252385322E-2    9.866855951734392E-1    1.555889722928954E-2
 1.795474781842276E5     9.862996297053945E-1    1.580957537834010E-2    1.377465284227048E-2   -1.632581499414987E-2    1.342975325727977E-2   -1.592467824218000E-2    9.867135265195055E-1    1.547794166928043E-2
 1.809174007813277E5     9.862939503187805E-1    1.572659768546231E-2    1.375820670768970E-2   -1.623814625477485E-2    1.341094970869711E-2   -1.584027644492258E-2    9.867379659101569E-1    1.538702281280593E-2
 1.822977756996804E5     9.863462700450123E-1    1.564039715095259E-2    1.373961775505950E-2   -1.614789845091921E-2    1.339258989021914E-2   -1.575035986610156E-2    9.868065231393165E-1    1.528956942827607E-2
 1.836886826890609E5     9.863846621514628E-1    1.555718699910839E-2    1.371775345478807E-2   -1.605539167973261E-2    1.337409850403679E-2   -1.566658091794040E-2    9.868024408892909E-1    1.518839462734355E-2
 1.850902021077247E5     9.864117082138523E-1    1.546236651627931E-2    1.369791617091025E-2   -1.596915528439126E-2    1.335693377794511E-2   -1.558291952473354E-2    9.868413466402399E-1    1.512760203573496E-2
 1.865024149270491E5     9.863949747024130E-1    1.536733469615775E-2    1.367879793285752E-2   -1.588462727329479E-2    1.333937046001693E-2   -1.549196869077857E-2    9.868446903680402E-1    1.501790096421744E-2
 1.879254027362132E5     9.864104303139610E-1    1.526595273507943E-2    1.366482453472860E-2   -1.579351873734590E-2    1.332319048737615E-2   -1.540839710649166E-2    9.868696487315275E-1    1.492558603742514E-2
 1.893592477469092E5     9.864775404730830E-1    1.518680751567031E-2    1.364919117200042E-2   -1.572800812868902E-2    1.329554568029474E-2   -1.533153270287369E-2    9.868651863627431E-1    1.483791143274688E-2
 1.908040327980933E5     9.864286754076219E-1    1.508550885169636E-2    1.362413639461778E-2   -1.562180882731045E-2    1.328556482956901E-2   -1.524069173364561E-2    9.869076081533119E-1    1.477098925158614E-2
 1.922598413607715E5     9.864763955898403E-1    1.501965259570696E-2    1.360519287786581E-2   -1.553527936733269E-2    1.326681721944902E-2   -1.516026869474157E-2    9.869088715694435E-1    1.468640048244055E-2
 1.937267575428232E5     9.865217764790297E-1    1.493244099078351E-2    1.358761667181124E-2   -1.545485424873329E-2    1.324703673044003E-2   -1.507541438525653E-2    9.869735064133315E-1    1.460209824441322E-2
 1.952048660938581E5     9.865511285341361E-1    1.484852455327210E-2    1.356724097998184E-2   -1.537126877556876E-2    1.322772401312466E-2   -1.499684078212633E-2    9.869729942218609E-1    1.450759439488562E-2
 1.966942524101142E5     9.865609137304450E-1    1.474939962907560E-2    1.355017627129335E-2   -1.529033692870445E-2    1.321192159492827E-2   -1.491813754083685E-2    9.869772297799780E-1    1.442955557376525E-2
 1.981950025393913E5     9.866148988161827E-1    1.466726683009252E-2    1.353154569508694E-2   -1.520829518285688E-2    1.319312925493198E-2   -1.483606782285044E-2    9.869864106833547E-1    1.435110767403423E-2
