#  HZ   S   RI   R     50.00 
! Rohde & Schwarz Vector Network Analyzer 
! Rohde-Schwarz,ZNLE6-2Port,1323001256200024,1.71.1.10-23.02.1.238
! Created: UTC 4/8/2025, 3:15:59 AM
! freq[Hz]                re:S11                  im:S11                  re:S21                  im:S21                  re:S12                  im:S12                  re:S22                  im:S22
 1.000000000000000E5     9.865692260158327E-1    2.354131034332496E-2    1.364348405372180E-2   -2.375805397949079E-2    1.328712460077377E-2   -2.315861113206789E-2    9.868934969993007E-1    2.282645740363135E-2
 1.007629862646662E5     9.865742342245291E-1    2.332684444954287E-2    1.362467258830069E-2   -2.359597525872014E-2    1.326928408056509E-2   -2.300643150768085E-2    9.868904009287299E-1    2.265837301428486E-2
 1.015317940097331E5     9.866205760293844E-1    2.318224768733341E-2    1.361208946075972E-2   -2.344180029696173E-2    1.325654727685785E-2   -2.285550719254591E-2    9.869082847573587E-1    2.252571815883700E-2
 1.023064676522963E5     9.865496862367453E-1    2.300299586433904E-2    1.359612046001745E-2   -2.329128375057322E-2    1.324236177858185E-2   -2.270429624372445E-2    9.869234778983538E-1    2.234269387829631E-2
 1.030870519483485E5     9.865507651377147E-1    2.286009693609526E-2    1.358532860229532E-2   -2.313818672642611E-2    1.322911739188416E-2   -2.255722974893061E-2    9.869477693028300E-1    2.221175409491688E-2
 1.038735919953636E5     9.865658084260954E-1    2.269417927528659E-2    1.356987915658922E-2   -2.298778970354860E-2    1.321476877109372E-2   -2.240485688471855E-2    9.869713897385440E-1    2.205334580287258E-2
 1.046661332349037E5     9.865528029290719E-1    2.253564133763418E-2    1.355261735091587E-2   -2.283262458117667E-2    1.320361236649395E-2   -2.225718842910931E-2    9.869393284117154E-1    2.190361593067496E-2
 1.054647214552430E5     9.865938146424565E-1    2.236154731851397E-2    1.353946416978363E-2   -2.267972508196744E-2    1.318948923204784E-2   -2.211196264577554E-2    9.869508378246734E-1    2.175806444322141E-2
 1.062694027940149E5     9.866258237611064E-1    2.222031117789567E-2    1.352071759433952E-2   -2.252837365139638E-2    1.317627308612469E-2   -2.196953395500077E-2    9.869891787826846E-1    2.162023285961831E-2
 1.070802237408760E5     9.866320209963311E-1    2.208847115965977E-2    1.351188699010032E-2   -2.238606238957110E-2    1.315899268736290E-2   -2.182702649943398E-2    9.870224749289026E-1    2.147176639000387E-2
 1.078972311401927E5     9.866577514957444E-1    2.192176718159158E-2    1.349691031827511E-2   -2.224370765768477E-2    1.314417630924195E-2   -2.168566023405200E-2    9.870141765517974E-1    2.132907041548075E-2
 1.087204721937475E5     9.866502162247389E-1    2.178446129149599E-2    1.348243041767157E-2   -2.210297146728714E-2    1.313166486844528E-2   -2.154326211752434E-2    9.870411997354178E-1    2.119380200158000E-2
 1.095499944634658E5     9.867241675237485E-1    2.162157076600578E-2    1.346750422896472E-2   -2.195944674754651E-2    1.311694439649054E-2   -2.140537146758593E-2    9.870790658853325E-1    2.105916672216340E-2
 1.103858458741646E5     9.866876130222275E-1    2.148923231550261E-2    1.345220257357233E-2   -2.181081231554868E-2    1.310257482368837E-2   -2.126504233714670E-2    9.870790742173653E-1    2.090696811350558E-2
 1.112280747163201E5     9.866988537726720E-1    2.134160201004584E-2    1.343749867663077E-2   -2.166599670908203E-2    1.309167818771365E-2   -2.112446805156959E-2    9.870630130073539E-1    2.078415231363905E-2
 1.120767296488583E5     9.866955610489653E-1    2.117687315090075E-2    1.341911649146710E-2   -2.152252740380362E-2    1.307540202315482E-2   -2.099204516916196E-2    9.870639790152129E-1    2.062778442591219E-2
 1.129318597019661E5     9.866938304057362E-1    2.106056660232518E-2    1.340677002184757E-2   -2.139127301002301E-2    1.306159350857516E-2   -2.085660759699725E-2    9.870603729112172E-1    2.050120930300509E-2
 1.137935142799240E5     9.866980879373165E-1    2.091359239316468E-2    1.339757724067301E-2   -2.125989138588160E-2    1.304451965019594E-2   -2.072130637925811E-2    9.871025589233241E-1    2.036331274219988E-2
 1.146617431639607E5     9.867118673999925E-1    2.076110692997241E-2    1.338306013823450E-2   -2.111675498729425E-2    1.303582482829255E-2   -2.058770272338754E-2    9.871055210183808E-1    2.023966532695987E-2
 1.155365965151286E5     9.867337544313755E-1    2.063147479359938E-2    1.336482975200920E-2   -2.098357307011801E-2    1.302139485313880E-2   -2.045787667662249E-2    9.871285727878105E-1    2.009577401995468E-2
 1.164181248772018E5     9.867460087587697E-1    2.049025823402912E-2    1.334746049549013E-2   -2.084506097152507E-2    1.300472125999610E-2   -2.032637428368600E-2    9.871633634999410E-1    1.997180274743431E-2
 1.173063791795965E5     9.867455369209435E-1    2.036242119579965E-2    1.333659497513716E-2   -2.071031175013519E-2    1.299287112014760E-2   -2.019453237792800E-2    9.871553406870828E-1    1.984256063640322E-2
 1.182014107403141E5     9.868219827907448E-1    2.023559361805551E-2    1.332173878550353E-2   -2.058272678804154E-2    1.297942944260044E-2   -2.006743280480688E-2    9.871461427684162E-1    1.970334570571685E-2
 1.191032712689044E5     9.868092060045235E-1    2.010017595475044E-2    1.330813292404035E-2   -2.045463904370341E-2    1.296817243268010E-2   -1.993832265173117E-2    9.871847980178182E-1    1.959169862093768E-2
 1.200120128694542E5     9.868141883378091E-1    1.996873479042694E-2    1.329233605870404E-2   -2.032523575791326E-2    1.295124897905351E-2   -1.981553206072450E-2    9.872002242723347E-1    1.944501302544345E-2
 1.209276880435975E5     9.868292077361313E-1    1.983640484295858E-2    1.327932721209043E-2   -2.019387606043733E-2    1.293888872753146E-2   -1.968822740191113E-2    9.872401262250277E-1    1.931093391053086E-2
 1.218503496935483E5     9.868392794586742E-1    1.970640989351146E-2    1.326550646211031E-2   -2.006376127969004E-2    1.292658515011875E-2   -1.956599730763110E-2    9.872457774999948E-1    1.920218148984856E-2
 1.227800511251578E5     9.868700635906976E-1    1.954230271327629E-2    1.324995747517114E-2   -1.993971380203481E-2    1.291046187202717E-2   -1.944485007266183E-2    9.872579760002291E-1    1.907815757380767E-2
 1.237168460509929E5     9.868632542246919E-1    1.942926670314307E-2    1.323635814151850E-2   -1.980985147388038E-2    1.289518888458499E-2   -1.931958208862376E-2    9.872755770388439E-1    1.895029139038345E-2
 1.246607885934402E5     9.868984705605784E-1    1.930061118656889E-2    1.322045332463657E-2   -1.969047548348313E-2    1.288012208885460E-2   -1.919533413570945E-2    9.872354821785360E-1    1.884193155118301E-2
 1.256119332878327E5     9.868808153785437E-1    1.919609014921263E-2    1.320932127804925E-2   -1.956609354642891E-2    1.286391939692698E-2   -1.907649510368159E-2    9.872654477910412E-1    1.873161224099706E-2
 1.265703350856002E5     9.869087489633706E-1    1.905435334482435E-2    1.319101521287078E-2   -1.944603584422012E-2    1.285427015667140E-2   -1.895638509632759E-2    9.873054387602759E-1    1.859320434991230E-2
 1.275360493574453E5     9.869472535028655E-1    1.894960795989738E-2    1.317822259093062E-2   -1.932244427761258E-2    1.284193320656379E-2   -1.884126671608769E-2    9.873359088212920E-1    1.848129491057533E-2
 1.285091318965405E5     9.869553508268677E-1    1.882178652960970E-2    1.316331231484496E-2   -1.920327917026096E-2    1.282997390754875E-2   -1.872062893546185E-2    9.873728928525952E-1    1.835868346172768E-2
 1.294896389217529E5     9.869621494884488E-1    1.869141257755608E-2    1.314910022014480E-2   -1.907999407520343E-2    1.281406778565641E-2   -1.860386713052757E-2    9.873268206737896E-1    1.823984042825917E-2
 1.304776270808914E5     9.869960575254227E-1    1.858002202200703E-2    1.313711826757328E-2   -1.896441734173409E-2    1.280060607273714E-2   -1.848959995565675E-2    9.873607292645603E-1    1.812379909400581E-2
 1.314731534539810E5     9.869981788352177E-1    1.846466180394171E-2    1.312631500036995E-2   -1.885756696303796E-2    1.278603073998899E-2   -1.837422621774460E-2    9.873655737370280E-1    1.799812214273753E-2
 1.324762755565583E5     9.869875300400588E-1    1.835645009595358E-2    1.311737060831072E-2   -1.874534821778389E-2    1.277118733080549E-2   -1.826212113088424E-2    9.873739462983064E-1    1.787531675985438E-2
 1.334870513429962E5     9.869938930539752E-1    1.822942712228350E-2    1.310119101755115E-2   -1.863375646356842E-2    1.275839437539573E-2   -1.814761256151623E-2    9.873913135389952E-1    1.776963392893428E-2
 1.345055392098512E5     9.869979077868893E-1    1.812082535706089E-2    1.308523223867465E-2   -1.851388820808324E-2    1.274767191915366E-2   -1.803547468864573E-2    9.874283639967270E-1    1.766738290961788E-2
 1.355317979992373E5     9.870338142209412E-1    1.797485589118091E-2    1.306463357048567E-2   -1.838818445287028E-2    1.272758004271995E-2   -1.792676120564398E-2    9.874273732913564E-1    1.754350791576470E-2
 1.365658870022265E5     9.870535769623511E-1    1.785832305973662E-2    1.304587291949155E-2   -1.827185164980035E-2    1.271209663771374E-2   -1.781490686588503E-2    9.874595185095152E-1    1.744088214094999E-2
 1.376078659622731E5     9.870532426185682E-1    1.775979685758679E-2    1.303023264512106E-2   -1.816056900829198E-2    1.270382267108086E-2   -1.771228688532775E-2    9.874694770699384E-1    1.731660118100336E-2
 1.386577950786655E5     9.870951654690868E-1    1.764792392970002E-2    1.301829447710083E-2   -1.805312352678572E-2    1.268494510981513E-2   -1.759737268738873E-2    9.874723251558021E-1    1.721266405321394E-2
 1.397157350100044E5     9.870951502531778E-1    1.752984821876676E-2    1.300326372398402E-2   -1.794368901988444E-2    1.267372942295607E-2   -1.749572613122057E-2    9.875129291708169E-1    1.710728598493907E-2
 1.407817468777081E5     9.871191800746630E-1    1.741505200158989E-2    1.298666293622876E-2   -1.783599454920056E-2    1.265786436779032E-2   -1.738761566781008E-2    9.874963788322554E-1    1.700241466011195E-2
 1.418558922695422E5     9.870990556602859E-1    1.729056744320454E-2    1.297129777522814E-2   -1.772431252040148E-2    1.264453107530543E-2   -1.728333358686853E-2    9.874881029792753E-1    1.688518648090617E-2
 1.429382332431784E5     9.871457537417817E-1    1.718273703211603E-2    1.295538620019911E-2   -1.761687688971043E-2    1.263210479952124E-2   -1.717917492786542E-2    9.875144126848963E-1    1.679133055568913E-2
 1.440288323297804E5     9.871793639304827E-1    1.710244487146702E-2    1.293690862640924E-2   -1.750652958555345E-2    1.261847068426813E-2   -1.707788427188173E-2    9.875165741874912E-1    1.668546050383145E-2
 1.451277525376154E5     9.871681150626798E-1    1.697270532168473E-2    1.292670902153827E-2   -1.740533729143103E-2    1.259779402373745E-2   -1.697122644016113E-2    9.875312817599459E-1    1.658172043565933E-2
 1.462350573556962E5     9.872057230483586E-1    1.687191873945103E-2    1.291034712681680E-2   -1.730159536467142E-2    1.258618136952185E-2   -1.687114618786236E-2    9.875702334446234E-1    1.647368259360982E-2
 1.473508107574468E5     9.872054833313719E-1    1.678193425649019E-2    1.289910227785147E-2   -1.720168158378511E-2    1.257349400578730E-2   -1.677155586938121E-2    9.875583338627437E-1    1.635213644757263E-2
 1.484750772044004E5     9.872166947858778E-1    1.666331813176774E-2    1.288341710662583E-2   -1.709514076406487E-2    1.255748017846781E-2   -1.666763569939185E-2    9.875746885291000E-1    1.625401969639704E-2
 1.496079216499225E5     9.872366742612290E-1    1.656988078461779E-2    1.287010576964305E-2   -1.699337663537357E-2    1.254540128913214E-2   -1.657029513702685E-2    9.875684872005110E-1    1.614003853634284E-2
 1.507494095429637E5     9.872878855486618E-1    1.645970000907028E-2    1.285114147539468E-2   -1.689264544482833E-2    1.252852455991390E-2   -1.647501375233740E-2    9.876038082808630E-1    1.606609620173429E-2
 1.518996068318418E5     9.872768458607137E-1    1.636379783829526E-2    1.283488426345107E-2   -1.679205333176963E-2    1.251645970130641E-2   -1.637764337178631E-2    9.876273354759590E-1    1.595871947509108E-2
 1.530585799680507E5     9.872772006471436E-1    1.625229406161834E-2    1.281958671608634E-2   -1.669684796444400E-2    1.250072026289312E-2   -1.627896851054975E-2    9.876284913519038E-1    1.584926382819564E-2
 1.542263959101001E5     9.872900277914226E-1    1.616069796046920E-2    1.280374907580957E-2   -1.659814293173830E-2    1.248734544172156E-2   -1.618301281115981E-2    9.876191959865064E-1    1.575406573568371E-2
 1.554031221273835E5     9.873237087613931E-1    1.605349103391650E-2    1.279096026235473E-2   -1.650059754236502E-2    1.247041466555979E-2   -1.608951977346807E-2    9.876581249308158E-1    1.566255053230424E-2
 1.565888266040779E5     9.873022867003590E-1    1.594572813850661E-2    1.277673476839361E-2   -1.639963353889419E-2    1.245774780932087E-2   -1.599666541147098E-2    9.876482487627093E-1    1.556902050268155E-2
 1.577835778430689E5     9.873503679458434E-1    1.585186515830728E-2    1.275819786221230E-2   -1.630395587951845E-2    1.243678928434744E-2   -1.590257653567873E-2    9.876895915823355E-1    1.548417633308052E-2
 1.589874448699104E5     9.873579370007017E-1    1.575548387545987E-2    1.274425967031528E-2   -1.620875702673070E-2    1.242620492739993E-2   -1.581160442070540E-2    9.877001953516559E-1    1.538816264839892E-2
 1.602004972368116E5     9.873722141776385E-1    1.564669824427903E-2    1.273143704257728E-2   -1.612257221489994E-2    1.241223135545183E-2   -1.571320599426710E-2    9.877114859817361E-1    1.528988282155610E-2
 1.614228050266550E5     9.874008500496695E-1    1.555160407677090E-2    1.271450834241305E-2   -1.602314161989682E-2    1.239600187550870E-2   -1.562693955828023E-2    9.877147267758630E-1    1.520106396464260E-2
 1.626544388570473E5     9.874138693789338E-1    1.546473719183237E-2    1.269747275269312E-2   -1.593239493950536E-2    1.238266408017250E-2   -1.553479936699746E-2    9.877605357102931E-1    1.511176328885311E-2
 1.638954698843964E5     9.873895005123074E-1    1.536290705328935E-2    1.268383469949206E-2   -1.584058615188448E-2    1.236813019863498E-2   -1.544489604072807E-2    9.877747214653003E-1    1.503268564562131E-2
 1.651459698080244E5     9.874160555573730E-1    1.527017215933209E-2    1.266472019636487E-2   -1.574678473463271E-2    1.234743452290693E-2   -1.535820140994262E-2    9.877851393570731E-1    1.493800152252611E-2
 1.664060108743095E5     9.874395224559637E-1    1.518348300591454E-2    1.265219580373775E-2   -1.566086368315308E-2    1.233702229382762E-2   -1.526742541454175E-2    9.877966294069750E-1    1.483344413039860E-2
 1.676756658808590E5     9.874738832291456E-1    1.509167548160983E-2    1.263120264317785E-2   -1.556708149625277E-2    1.231939140055682E-2   -1.518384830204356E-2    9.878659034162951E-1    1.475055065758142E-2
 1.689550081807175E5     9.874821147702078E-1    1.500946828654007E-2    1.261742350931421E-2   -1.548112830619577E-2    1.230567687429929E-2   -1.509878115863855E-2    9.878809391366847E-1    1.465752058819888E-2
 1.702441116866020E5     9.875091886170619E-1    1.492017069062193E-2    1.260313096042482E-2   -1.539490241956818E-2    1.228955375388137E-2   -1.500960342968018E-2    9.878778446565724E-1    1.456443441653490E-2
 1.715430508751738E5     9.875187070875950E-1    1.483347965677156E-2    1.258735190214684E-2   -1.530557727375241E-2    1.227547323223067E-2   -1.492331374093782E-2    9.878721244733559E-1    1.446956678923321E-2
 1.728519007913403E5     9.875321336043966E-1    1.473936304038104E-2    1.256851424034632E-2   -1.522049798750602E-2    1.225428271770447E-2   -1.484105648263414E-2    9.878783708053300E-1    1.438417860032602E-2
 1.741707370525927E5     9.875943847673734E-1    1.465282292108065E-2    1.255259644260384E-2   -1.513353243760343E-2    1.224083417950387E-2   -1.475683919523004E-2    9.878818060726362E-1    1.429669424913094E-2
 1.754996358533718E5     9.875887393096920E-1    1.456900958038594E-2    1.253940366680618E-2   -1.504701814200578E-2    1.222630019019919E-2   -1.467117530718960E-2    9.878993673494060E-1    1.421812742096520E-2
 1.768386739694722E5     9.876102293532608E-1    1.447815894986323E-2    1.252019360788343E-2   -1.496458828020906E-2    1.220927190272449E-2   -1.459517472054927E-2    9.879038864450818E-1    1.413524996042745E-2
 1.781879287624771E5     9.876311127206252E-1    1.440149114477453E-2    1.250439160888922E-2   -1.488179754921156E-2    1.219555827486817E-2   -1.451156662348786E-2    9.879159437083974E-1    1.405168093800421E-2
 1.795474781842276E5     9.876698831354325E-1    1.430319519881311E-2    1.249117530225272E-2   -1.479856264741780E-2    1.217788759372709E-2   -1.442894484281137E-2    9.879522305698154E-1    1.397747335575874E-2
 1.809174007813277E5     9.876504579696286E-1    1.422318213512836E-2    1.247615779908226E-2   -1.471456685139528E-2    1.216326754633486E-2   -1.434841839076984E-2    9.879701712329561E-1    1.389740410917009E-2
 1.822977756996804E5     9.876585224855128E-1    1.412851623755051E-2    1.245492948429477E-2   -1.463288463821335E-2    1.214572772009191E-2   -1.427319174153007E-2    9.880189957173056E-1    1.380230948087639E-2
 1.836886826890609E5     9.876763295316239E-1    1.405377488545646E-2    1.243916845406402E-2   -1.455482196371633E-2    1.212914080446278E-2   -1.419037484982963E-2    9.880043739351453E-1    1.370323311292209E-2
 1.850902021077247E5     9.877146387712652E-1    1.395873589896076E-2    1.242231536420269E-2   -1.446996129596840E-2    1.211386886422171E-2   -1.411356036275012E-2    9.880805710657287E-1    1.365154497852618E-2
 1.865024149270491E5     9.877144959128078E-1    1.387646057579922E-2    1.240116843959234E-2   -1.439544631750692E-2    1.209663732698994E-2   -1.403568203013422E-2    9.880592328619517E-1    1.355057376965441E-2
 1.879254027362132E5     9.877254895401071E-1    1.378643519304940E-2    1.238742535735866E-2   -1.431854229049564E-2    1.208279600592862E-2   -1.396120178159176E-2    9.881005753873735E-1    1.347639384415015E-2
 1.893592477469092E5     9.877875889378401E-1    1.373268862580962E-2    1.237837207113325E-2   -1.425147048281409E-2    1.206885116042048E-2   -1.389267213275838E-2    9.880897737354883E-1    1.338997747786073E-2
 1.908040327980933E5     9.877548316366370E-1    1.362695485565473E-2    1.235313589631870E-2   -1.415807237548157E-2    1.204609144262598E-2   -1.380681720260577E-2    9.881039897228067E-1    1.331863310608226E-2
 1.922598413607715E5     9.877938311371068E-1    1.356228633252370E-2    1.233697659458533E-2   -1.407791576640176E-2    1.203250589661217E-2   -1.373096334064606E-2    9.881167673277321E-1    1.323253226412053E-2
 1.937267575428232E5     9.878036174596478E-1    1.348364157392439E-2    1.232036649612703E-2   -1.400243506901990E-2    1.201520287925776E-2   -1.365695046004036E-2    9.881408789268189E-1    1.315379899113087E-2
 1.952048660938581E5     9.878400956284958E-1    1.340901579554451E-2    1.230207917484519E-2   -1.392461034319130E-2    1.199901404918577E-2   -1.358125731716879E-2    9.881395409869904E-1    1.306727975652570E-2
 1.966942524101142E5     9.878802497596594E-1    1.330328922962383E-2    1.228695227865990E-2   -1.385385397284335E-2    1.197852016750019E-2   -1.350796798825812E-2    9.881164451573078E-1    1.300033175943876E-2
 1.981950025393913E5     9.878589688100307E-1    1.322667611106284E-2    1.226816404513311E-2   -1.378051589601264E-2    1.196572637446974E-2   -1.343511491399353E-2    9.881575693787567E-1    1.293155851678122E-2
