#  HZ   S   RI   R     50.00 
! Rohde & Schwarz Vector Network Analyzer 
! Rohde-Schwarz,ZNLE6-2Port,1323001256200024,1.71.1.10-23.02.1.238
! Created: UTC 4/8/2025, 3:00:10 AM
! freq[Hz]                re:S11                  im:S11                  re:S21                  im:S21                  re:S12                  im:S12                  re:S22                  im:S22
 1.000000000000000E5     9.877667311796363E-1    2.152207511502298E-2    1.239388564078694E-2   -2.173387264508279E-2    1.206870936864927E-2   -2.118879875514505E-2    9.881108502832989E-1    2.087958621052246E-2
 1.007629862646662E5     9.877731441786701E-1    2.133932686112017E-2    1.237685603406183E-2   -2.158709222586626E-2    1.205977530193557E-2   -2.104722933355896E-2    9.881163056722370E-1    2.071555952985518E-2
 1.015317940097331E5     9.878098167206963E-1    2.120009296466837E-2    1.236628329212477E-2   -2.144502948776967E-2    1.204191928283825E-2   -2.090803850374287E-2    9.881239243432940E-1    2.058822498506633E-2
 1.023064676522963E5     9.877546316939219E-1    2.103607371342130E-2    1.235146848090718E-2   -2.130709320724408E-2    1.203185253137033E-2   -2.077242502958803E-2    9.881756839648037E-1    2.043594625849133E-2
 1.030870519483485E5     9.877615665140521E-1    2.089483303811722E-2    1.234161170820183E-2   -2.116919771730196E-2    1.202006862715070E-2   -2.063665758459436E-2    9.881828693504885E-1    2.032424882044623E-2
 1.038735919953636E5     9.877548372362122E-1    2.075147334688417E-2    1.233130485525341E-2   -2.102810550233414E-2    1.200702222203582E-2   -2.049402240950909E-2    9.881795479105521E-1    2.016067670738183E-2
 1.046661332349037E5     9.877684130454509E-1    2.059382863496113E-2    1.231144332173541E-2   -2.088881229727861E-2    1.199571548790124E-2   -2.036241684627868E-2    9.881593232530946E-1    2.002672279211540E-2
 1.054647214552430E5     9.877903332718717E-1    2.044358243984114E-2    1.229997228008414E-2   -2.074850477609932E-2    1.198257770287696E-2   -2.022914126750396E-2    9.881725818890594E-1    1.987751934067950E-2
 1.062694027940149E5     9.878281717047472E-1    2.032397403851968E-2    1.228469480828270E-2   -2.061309295759397E-2    1.197141199543440E-2   -2.009361550693699E-2    9.882300337745374E-1    1.977925715528546E-2
 1.070802237408760E5     9.878441050780553E-1    2.018149631019094E-2    1.227446340111193E-2   -2.047394527870701E-2    1.196215023625523E-2   -1.996567399714983E-2    9.882392162363309E-1    1.963993046593904E-2
 1.078972311401927E5     9.878497194233390E-1    2.004397220752972E-2    1.226633904267197E-2   -2.034549035771188E-2    1.194608691060245E-2   -1.983245884388928E-2    9.882048212270391E-1    1.950431531878875E-2
 1.087204721937475E5     9.878365525431789E-1    1.990312103011099E-2    1.225637402142924E-2   -2.021463046576558E-2    1.193600783302806E-2   -1.970617761616062E-2    9.882347523063425E-1    1.937475473552056E-2
 1.095499944634658E5     9.878788110135659E-1    1.976119072810879E-2    1.223965845649308E-2   -2.008004686646633E-2    1.192365738377139E-2   -1.957411875482254E-2    9.882395493032118E-1    1.924875505672096E-2
 1.103858458741646E5     9.878341650359149E-1    1.962850215030338E-2    1.222647462589633E-2   -1.994779427183193E-2    1.191091149631555E-2   -1.944772966978905E-2    9.882868735350760E-1    1.910863455277810E-2
 1.112280747163201E5     9.878630438660030E-1    1.950238931185065E-2    1.220743988480884E-2   -1.981245894520863E-2    1.189638846980662E-2   -1.931947005730355E-2    9.882584694004826E-1    1.900843048984179E-2
 1.120767296488583E5     9.878787401013126E-1    1.935877464248946E-2    1.219810617935608E-2   -1.968657826888572E-2    1.188704844324458E-2   -1.919381409150200E-2    9.882319548207886E-1    1.885336819495913E-2
 1.129318597019661E5     9.879024499927614E-1    1.923015577357807E-2    1.218723153342282E-2   -1.956102201788477E-2    1.187368571277832E-2   -1.907032328096513E-2    9.882693382321898E-1    1.873357126525036E-2
 1.137935142799240E5     9.878870809542127E-1    1.909177755335906E-2    1.217808008010731E-2   -1.943913037709202E-2    1.186228682953971E-2   -1.894786125701754E-2    9.882979337835713E-1    1.861668451079922E-2
 1.146617431639607E5     9.879161178659460E-1    1.896648251614823E-2    1.216556603684876E-2   -1.931317355054267E-2    1.184948143988085E-2   -1.882373216613764E-2    9.883039740939499E-1    1.850055724984613E-2
 1.155365965151286E5     9.879228800777881E-1    1.883567833682371E-2    1.214723435096829E-2   -1.918660612253132E-2    1.183748751094908E-2   -1.870446170078988E-2    9.882784964837213E-1    1.835892178547127E-2
 1.164181248772018E5     9.879700148118943E-1    1.870611543641199E-2    1.213757315917461E-2   -1.906384562945506E-2    1.182368996103636E-2   -1.858366242903633E-2    9.882993367240274E-1    1.824947059156203E-2
 1.173063791795965E5     9.879495579857069E-1    1.860017370968239E-2    1.212110200876222E-2   -1.893801643704959E-2    1.181162347332906E-2   -1.846599053607122E-2    9.882963705270930E-1    1.811532118803190E-2
 1.182014107403141E5     9.880000208325764E-1    1.847554248470857E-2    1.211400425883479E-2   -1.881895986056224E-2    1.180265312578275E-2   -1.834751711555774E-2    9.883025522098621E-1    1.802882044174600E-2
 1.191032712689044E5     9.879783897578223E-1    1.834575276354082E-2    1.210395433375840E-2   -1.869859425665864E-2    1.178858659672964E-2   -1.822770604981922E-2    9.883715434124849E-1    1.789888850588153E-2
 1.200120128694542E5     9.879554287952172E-1    1.822856910988482E-2    1.209139932201973E-2   -1.858192849212196E-2    1.177518307221684E-2   -1.811246649468307E-2    9.883660070310373E-1    1.778899204265197E-2
 1.209276880435975E5     9.879824112042261E-1    1.810794232072589E-2    1.206973624829665E-2   -1.846700925289456E-2    1.176369963918516E-2   -1.799807425938899E-2    9.883730606391200E-1    1.763871233360099E-2
 1.218503496935483E5     9.880097180953828E-1    1.797898101949574E-2    1.205833555762318E-2   -1.834717379624265E-2    1.175707411048024E-2   -1.788730029473974E-2    9.884163469325433E-1    1.752823349013220E-2
 1.227800511251578E5     9.880249356309442E-1    1.785564010033061E-2    1.204523600929128E-2   -1.822870901874143E-2    1.174008015688855E-2   -1.777390406347254E-2    9.884266090482425E-1    1.741630748970923E-2
 1.237168460509929E5     9.880394265986314E-1    1.774009047019133E-2    1.204052574522873E-2   -1.811858447687096E-2    1.172895073786098E-2   -1.765845032713127E-2    9.884103452141912E-1    1.730400759803600E-2
 1.246607885934402E5     9.880402480345880E-1    1.761795953331387E-2    1.202230475351958E-2   -1.800171560114090E-2    1.171399160347771E-2   -1.754804325187338E-2    9.884124739492505E-1    1.720986962680385E-2
 1.256119332878327E5     9.880145941848976E-1    1.752402524140248E-2    1.201208689115655E-2   -1.788617140962920E-2    1.170313356691396E-2   -1.743587210198554E-2    9.884315877670170E-1    1.708999557224032E-2
 1.265703350856002E5     9.880337081174911E-1    1.739707254756940E-2    1.199777146558020E-2   -1.777743183269456E-2    1.169067529068831E-2   -1.732278406317894E-2    9.884751214300530E-1    1.698573068199227E-2
 1.275360493574453E5     9.880799273214650E-1    1.727549931844169E-2    1.198835275929702E-2   -1.766448370256573E-2    1.167894061559344E-2   -1.721583527537193E-2    9.884571713290058E-1    1.687384108582659E-2
 1.285091318965405E5     9.880914322992539E-1    1.718209854022450E-2    1.197115110082330E-2   -1.755453002999803E-2    1.166848291032294E-2   -1.711330980385455E-2    9.884971376128858E-1    1.675343423754433E-2
 1.294896389217529E5     9.881023656040007E-1    1.705993086400298E-2    1.196069199556327E-2   -1.744446483068236E-2    1.165555947101895E-2   -1.700259505647806E-2    9.884974427067408E-1    1.665801304898930E-2
 1.304776270808914E5     9.881138587432817E-1    1.694302813773683E-2    1.195050131222461E-2   -1.733683025250247E-2    1.164281816908673E-2   -1.689968267662944E-2    9.885100873484722E-1    1.654626682656674E-2
 1.314731534539810E5     9.881118586257279E-1    1.683930185599742E-2    1.194121590782643E-2   -1.723529694844048E-2    1.163037826963737E-2   -1.679146696417740E-2    9.885287109849228E-1    1.644130727119689E-2
 1.324762755565583E5     9.881218689626443E-1    1.673345616842736E-2    1.193095133858746E-2   -1.713198182623843E-2    1.161792675021972E-2   -1.669070641913524E-2    9.885178252802227E-1    1.633034245520362E-2
 1.334870513429962E5     9.881435395531151E-1    1.662264332980905E-2    1.191851802556298E-2   -1.702536443652887E-2    1.160365410224586E-2   -1.658443003703629E-2    9.885161103412242E-1    1.621364955097793E-2
 1.345055392098512E5     9.881495909689353E-1    1.652391111502429E-2    1.190136457753618E-2   -1.691903482223319E-2    1.159437983956795E-2   -1.648370099337184E-2    9.885574727948957E-1    1.612497516573283E-2
 1.355317979992373E5     9.881800156019527E-1    1.637616271127943E-2    1.188144165332016E-2   -1.680479630572940E-2    1.158136368308871E-2   -1.638343635534962E-2    9.885851011402904E-1    1.601629487937905E-2
 1.365658870022265E5     9.881723886767280E-1    1.627591963449882E-2    1.186801385024043E-2   -1.670258262167152E-2    1.156567336570082E-2   -1.628095558684359E-2    9.885885057841823E-1    1.593346709007323E-2
 1.376078659622731E5     9.881400887068386E-1    1.619003356522336E-2    1.185152341443847E-2   -1.659678549442451E-2    1.155693824145358E-2   -1.618347789944209E-2    9.885757551533750E-1    1.581558733103351E-2
 1.386577950786655E5     9.882199104085013E-1    1.607990346015836E-2    1.184462187357144E-2   -1.649456332405822E-2    1.154192340257695E-2   -1.608593528022066E-2    9.885878591277316E-1    1.571695371029257E-2
 1.397157350100044E5     9.882615989187075E-1    1.598783215544206E-2    1.183268232217322E-2   -1.639384230020654E-2    1.153048727206219E-2   -1.598594560163564E-2    9.886111305409983E-1    1.561515895457522E-2
 1.407817468777081E5     9.882481727903245E-1    1.587407179124766E-2    1.181532238033139E-2   -1.629597278408915E-2    1.151789991030313E-2   -1.588724819066133E-2    9.886341913771586E-1    1.551124213877514E-2
 1.418558922695422E5     9.882321585504243E-1    1.577148751245543E-2    1.180168277249815E-2   -1.619677039801547E-2    1.150573353946039E-2   -1.579098086888301E-2    9.886145050694896E-1    1.540856454128202E-2
 1.429382332431784E5     9.882318836211310E-1    1.566063433443496E-2    1.178935861582127E-2   -1.609368044296401E-2    1.149417523029895E-2   -1.569710136636703E-2    9.886368630327778E-1    1.532510154216839E-2
 1.440288323297804E5     9.882761249256607E-1    1.557277716338307E-2    1.177535147284690E-2   -1.599554308724324E-2    1.147744798353027E-2   -1.560253911872790E-2    9.886558567544131E-1    1.520396657470142E-2
 1.451277525376154E5     9.882950381165169E-1    1.547478596218335E-2    1.175817382712085E-2   -1.589818787343543E-2    1.146836223866969E-2   -1.550452162835787E-2    9.886567613301657E-1    1.511243118284603E-2
 1.462350573556962E5     9.883104307106634E-1    1.538010288072152E-2    1.175065746388122E-2   -1.580787591491795E-2    1.145065645410491E-2   -1.541374349829789E-2    9.887015409539740E-1    1.502081413422940E-2
 1.473508107574468E5     9.883230367314432E-1    1.527624670521921E-2    1.173714754999223E-2   -1.570923410814063E-2    1.144318252069988E-2   -1.532044380523372E-2    9.886932279239776E-1    1.492944278311443E-2
 1.484750772044004E5     9.883289165143359E-1    1.518138884158353E-2    1.172044978473028E-2   -1.561550907442200E-2    1.142775341064558E-2   -1.523163903823128E-2    9.887008616061185E-1    1.483228111363473E-2
 1.496079216499225E5     9.883831377899648E-1    1.508807194880954E-2    1.170669466929058E-2   -1.552090611230414E-2    1.141482112797982E-2   -1.513847787366070E-2    9.886936810215891E-1    1.472710726078715E-2
 1.507494095429637E5     9.883794911304880E-1    1.498571724569121E-2    1.169261279237112E-2   -1.542896965737424E-2    1.139961620618261E-2   -1.504933392757157E-2    9.887360555528644E-1    1.465719287991218E-2
 1.518996068318418E5     9.883665320370709E-1    1.490156380009809E-2    1.167791243409948E-2   -1.533728671237860E-2    1.138979110851119E-2   -1.495909653851664E-2    9.887561464816474E-1    1.455252405504671E-2
 1.530585799680507E5     9.883638976913713E-1    1.481115763562112E-2    1.166904296715350E-2   -1.524425164524823E-2    1.137852912083720E-2   -1.486844827167680E-2    9.887786211425152E-1    1.446361729722107E-2
 1.542263959101001E5     9.884035561637430E-1    1.472469727377051E-2    1.165029766868977E-2   -1.515854648748447E-2    1.136180914525643E-2   -1.478093309269301E-2    9.887368179818421E-1    1.437129689589219E-2
 1.554031221273835E5     9.884204980780711E-1    1.462420392016064E-2    1.164313134214182E-2   -1.507102371254843E-2    1.134984761168456E-2   -1.469473520840722E-2    9.887967033481175E-1    1.428963043496581E-2
 1.565888266040779E5     9.884095359733930E-1    1.452793408636081E-2    1.162823118425761E-2   -1.497534175564026E-2    1.133784558125315E-2   -1.461092828010776E-2    9.887825186270374E-1    1.420419455534585E-2
 1.577835778430689E5     9.884675450803757E-1    1.444930710143633E-2    1.160881472532861E-2   -1.488948699727061E-2    1.132006758762136E-2   -1.452190443727439E-2    9.888001911889387E-1    1.410053509780550E-2
 1.589874448699104E5     9.884720348806985E-1    1.436139977086824E-2    1.160117272221783E-2   -1.480281263700435E-2    1.131066284225476E-2   -1.443782345756069E-2    9.888170571773445E-1    1.401543737494749E-2
 1.602004972368116E5     9.884796228251249E-1    1.424877964027971E-2    1.158267970038862E-2   -1.471589469029984E-2    1.129360460285834E-2   -1.435198313205610E-2    9.888069911497549E-1    1.393572322714868E-2
 1.614228050266550E5     9.884742833281331E-1    1.416887006117166E-2    1.157055836962325E-2   -1.462979181944344E-2    1.128251618279227E-2   -1.427125338652354E-2    9.888392508841096E-1    1.383937175921174E-2
 1.626544388570473E5     9.884705728018807E-1    1.408339706531526E-2    1.155835438461560E-2   -1.454503203687735E-2    1.126900032591934E-2   -1.418768916124890E-2    9.888785245014272E-1    1.376734131074540E-2
 1.638954698843964E5     9.884689359042059E-1    1.399191876450786E-2    1.154330757046569E-2   -1.445901117971254E-2    1.125207907036480E-2   -1.410297946204104E-2    9.888711568845688E-1    1.369300761031388E-2
 1.651459698080244E5     9.884995612589675E-1    1.389562180681820E-2    1.152910098904012E-2   -1.437222983766361E-2    1.124363374915173E-2   -1.402214956736203E-2    9.888846249171469E-1    1.359928368632213E-2
 1.664060108743095E5     9.885219561078754E-1    1.380615948855911E-2    1.151287718743453E-2   -1.428968849467809E-2    1.122836406356466E-2   -1.393729361838662E-2    9.888911336147628E-1    1.350830223955660E-2
 1.676756658808590E5     9.885537974778124E-1    1.373172509970155E-2    1.149730984190945E-2   -1.421176212808585E-2    1.121202324102372E-2   -1.385987759306855E-2    9.889740985182776E-1    1.343548983657842E-2
 1.689550081807175E5     9.885445850678717E-1    1.366827690398141E-2    1.148591133111592E-2   -1.412811159819672E-2    1.120039690573777E-2   -1.378157422260157E-2    9.889741156693356E-1    1.335735333742145E-2
 1.702441116866020E5     9.886000723672932E-1    1.355209440980667E-2    1.147408739445937E-2   -1.404971358842947E-2    1.118634266522755E-2   -1.369998048132549E-2    9.889673286183093E-1    1.326260628306033E-2
 1.715430508751738E5     9.886087258342695E-1    1.349349588086343E-2    1.145902042345646E-2   -1.396973793271839E-2    1.117275552760862E-2   -1.362489042210489E-2    9.889606102452586E-1    1.319284097314259E-2
 1.728519007913403E5     9.886381006366199E-1    1.340864797331427E-2    1.144149927097565E-2   -1.389125624367604E-2    1.115873190679557E-2   -1.354690362530851E-2    9.889902637454299E-1    1.309305945412374E-2
 1.741707370525927E5     9.886348397770542E-1    1.332110720428870E-2    1.142860447932502E-2   -1.381141083296314E-2    1.114451284545654E-2   -1.347028061392747E-2    9.889862903099504E-1    1.301933049462817E-2
 1.754996358533718E5     9.886557243568319E-1    1.324573123603621E-2    1.141066048022992E-2   -1.372990419836859E-2    1.112723765493215E-2   -1.339416740043493E-2    9.889902505153113E-1    1.294495017485202E-2
 1.768386739694722E5     9.886809513788626E-1    1.316583324920213E-2    1.139911124111515E-2   -1.365382458972410E-2    1.111156926330649E-2   -1.331607432137129E-2    9.890053466667570E-1    1.286915543308767E-2
 1.781879287624771E5     9.886791019064968E-1    1.308164742349222E-2    1.138544638237327E-2   -1.357322318005098E-2    1.110657604644240E-2   -1.324339601770790E-2    9.889886985021660E-1    1.279506499661525E-2
 1.795474781842276E5     9.887174406436606E-1    1.299478369305138E-2    1.137040575970634E-2   -1.349858767707369E-2    1.108780567256344E-2   -1.316949634632709E-2    9.890198447350794E-1    1.271693266491537E-2
 1.809174007813277E5     9.886819501256535E-1    1.293265146510061E-2    1.135530143361535E-2   -1.342567635215690E-2    1.107455168703558E-2   -1.309458825177657E-2    9.890145031724141E-1    1.265235189036418E-2
 1.822977756996804E5     9.886871905501037E-1    1.283601470362611E-2    1.133958373094609E-2   -1.334880723427806E-2    1.105970471606304E-2   -1.302192161773784E-2    9.890907981504407E-1    1.256984823608405E-2
 1.836886826890609E5     9.887481490192087E-1    1.277789602240210E-2    1.132486340504985E-2   -1.327347909357092E-2    1.104384463250034E-2   -1.294952734357758E-2    9.890529061636885E-1    1.247640882520364E-2
 1.850902021077247E5     9.887797375375167E-1    1.269724997637357E-2    1.131060395091741E-2   -1.319955558530251E-2    1.102746646021362E-2   -1.287448305835604E-2    9.891117649211186E-1    1.242763212031194E-2
 1.865024149270491E5     9.887891101824505E-1    1.260969099692693E-2    1.129291235180243E-2   -1.312992282691983E-2    1.101405603523335E-2   -1.280834598827624E-2    9.891143014227087E-1    1.234317176150115E-2
 1.879254027362132E5     9.887752503202031E-1    1.252657665849638E-2    1.128007322672333E-2   -1.305823917012234E-2    1.099927608029278E-2   -1.273570762671084E-2    9.891795986742484E-1    1.226475829289020E-2
 1.893592477469092E5     9.887654746288808E-1    1.246566928581701E-2    1.126565478297194E-2   -1.297091761248699E-2    1.100041092404531E-2   -1.267242128332660E-2    9.891308841374229E-1    1.219912105695009E-2
 1.908040327980933E5     9.888036442010777E-1    1.238046188970709E-2    1.125085554345055E-2   -1.290856635270817E-2    1.097099594523257E-2   -1.259216332206997E-2    9.891463176110540E-1    1.211697868368782E-2
 1.922598413607715E5     9.888552163013331E-1    1.232294893506873E-2    1.123534611295842E-2   -1.284077641783346E-2    1.095138186792425E-2   -1.252396989091045E-2    9.891413823229188E-1    1.204496673741929E-2
 1.937267575428232E5     9.888801446152681E-1    1.223939505701847E-2    1.121627650839638E-2   -1.277015209386534E-2    1.093918575543982E-2   -1.245691927382921E-2    9.891636756818762E-1    1.196641068777442E-2
 1.952048660938581E5     9.888836484641846E-1    1.217260087415790E-2    1.120274399149813E-2   -1.269739740326973E-2    1.092396539622563E-2   -1.238860303422633E-2    9.892099438848765E-1    1.188159942933142E-2
 1.966942524101142E5     9.889127369552432E-1    1.209413562755353E-2    1.118663919311541E-2   -1.263255638381138E-2    1.091053124107464E-2   -1.232464739895819E-2    9.891787321962298E-1    1.182921656665959E-2
 1.981950025393913E5     9.889430587329217E-1    1.201513238275990E-2    1.117112482062994E-2   -1.256430902713866E-2    1.089608721781893E-2   -1.225848741698197E-2    9.892096794153149E-1    1.177305885566452E-2
