#  HZ   S   RI   R     50.00 
! Rohde & Schwarz Vector Network Analyzer 
! Rohde-Schwarz,ZNLE6-2Port,1323001256200024,1.71.1.10-23.02.1.238
! Created: UTC 4/8/2025, 2:50:41 AM
! freq[Hz]                re:S11                  im:S11                  re:S21                  im:S21                  re:S12                  im:S12                  re:S22                  im:S22
 1.000000000000000E5     9.887607952264742E-1    1.968709601117658E-2    1.131453022625479E-2   -1.992120163562629E-2    1.101932705144225E-2   -1.941653480232171E-2    9.891418249543507E-1    1.911789816790701E-2
 1.007629862646662E5     9.887919997124853E-1    1.952453791989182E-2    1.129647685871886E-2   -1.978582448053380E-2    1.100656589975053E-2   -1.928886280024643E-2    9.891553553091883E-1    1.898078239931888E-2
 1.015317940097331E5     9.888401323451240E-1    1.939106188146382E-2    1.128770384157643E-2   -1.965456604526859E-2    1.099719990861618E-2   -1.916128898134322E-2    9.891497009886240E-1    1.886661504187866E-2
 1.023064676522963E5     9.887923170700342E-1    1.924675105852470E-2    1.128247552956148E-2   -1.952698333142228E-2    1.098596088387366E-2   -1.903369062057994E-2    9.891390484872667E-1    1.872050006129141E-2
 1.030870519483485E5     9.887753542648141E-1    1.911365645517683E-2    1.127136482355203E-2   -1.940464411331901E-2    1.097495168115127E-2   -1.890367123980856E-2    9.891808826211332E-1    1.861995232937385E-2
 1.038735919953636E5     9.888045495113899E-1    1.897588463605360E-2    1.126038806113681E-2   -1.927575244710538E-2    1.096205530787864E-2   -1.878029650811400E-2    9.892036996539039E-1    1.847043574094882E-2
 1.046661332349037E5     9.888167840249215E-1    1.884038676239564E-2    1.124559281102295E-2   -1.914162191228813E-2    1.095660376047685E-2   -1.865648449059120E-2    9.891628687186116E-1    1.834763716474050E-2
 1.054647214552430E5     9.888170808090596E-1    1.870464878567338E-2    1.123447468394831E-2   -1.901690824746365E-2    1.094041499040127E-2   -1.853335644687540E-2    9.891949593283893E-1    1.821450205450634E-2
 1.062694027940149E5     9.888280287341797E-1    1.857091311752587E-2    1.122102988979507E-2   -1.889040195298619E-2    1.093224274183665E-2   -1.841616347027118E-2    9.892691599899965E-1    1.811427175626014E-2
 1.070802237408760E5     9.888360008913570E-1    1.845709827846566E-2    1.121031410004492E-2   -1.876755513108811E-2    1.092106937838156E-2   -1.829174981990984E-2    9.892775072947498E-1    1.799525045737718E-2
 1.078972311401927E5     9.888501451047726E-1    1.832925608696600E-2    1.120258870971926E-2   -1.864964387581802E-2    1.091116020668800E-2   -1.817361835503007E-2    9.892507486101315E-1    1.787085093840982E-2
 1.087204721937475E5     9.888402410155226E-1    1.820022321450684E-2    1.119109071814168E-2   -1.852669551518049E-2    1.089965883532273E-2   -1.805571680582226E-2    9.892576330321375E-1    1.776066896081217E-2
 1.095499944634658E5     9.888663030487909E-1    1.806715482617024E-2    1.117731312731945E-2   -1.840745750643703E-2    1.088825544247128E-2   -1.793439644183730E-2    9.892618860823866E-1    1.762935848437828E-2
 1.103858458741646E5     9.888389830127379E-1    1.794962410675397E-2    1.116511186461109E-2   -1.828071896049047E-2    1.087664832590029E-2   -1.781912365169693E-2    9.892828057601044E-1    1.750690547030682E-2
 1.112280747163201E5     9.888513567762863E-1    1.781955483377400E-2    1.115402879389641E-2   -1.815896258453264E-2    1.086519412244233E-2   -1.770111309264831E-2    9.892559077292042E-1    1.739959650024763E-2
 1.120767296488583E5     9.888606838782468E-1    1.767757247045294E-2    1.114501589441277E-2   -1.804368064452878E-2    1.085660338734870E-2   -1.758815426589896E-2    9.892691057679094E-1    1.726813918572154E-2
 1.129318597019661E5     9.888652875241993E-1    1.756401884386274E-2    1.113096222352378E-2   -1.792610583152155E-2    1.084411405212231E-2   -1.747080542491175E-2    9.892917707230622E-1    1.715796802548266E-2
 1.137935142799240E5     9.888758860094233E-1    1.745580466360040E-2    1.112385678906369E-2   -1.781552086308918E-2    1.083662969303677E-2   -1.736474567099220E-2    9.893016856505245E-1    1.705152511550238E-2
 1.146617431639607E5     9.888836174615875E-1    1.733465865428913E-2    1.111079179271433E-2   -1.770036406449382E-2    1.082631621662646E-2   -1.724986629271331E-2    9.893030392813292E-1    1.694834330906712E-2
 1.155365965151286E5     9.889323539738452E-1    1.721958244853268E-2    1.109989001775528E-2   -1.758337418333430E-2    1.081290505926721E-2   -1.713672415449205E-2    9.893096592379401E-1    1.683248118870837E-2
 1.164181248772018E5     9.889442466826598E-1    1.710144717541278E-2    1.108744752255607E-2   -1.746952182580810E-2    1.080502123487291E-2   -1.702505829993755E-2    9.893538015549884E-1    1.671973941631535E-2
 1.173063791795965E5     9.889194058954360E-1    1.698600824440926E-2    1.107685812441211E-2   -1.735405855818238E-2    1.079565271099628E-2   -1.691717919649065E-2    9.893361622427018E-1    1.658833204425043E-2
 1.182014107403141E5     9.889443087816788E-1    1.686634795700710E-2    1.106421835956244E-2   -1.724645627628030E-2    1.078125137409307E-2   -1.680960944668685E-2    9.893306917981244E-1    1.649842430691359E-2
 1.191032712689044E5     9.889185648924718E-1    1.675488103593268E-2    1.105532144248828E-2   -1.713748678648659E-2    1.077096558271333E-2   -1.669877806731520E-2    9.893545775773999E-1    1.637906943824175E-2
 1.200120128694542E5     9.889320763238481E-1    1.663872789851146E-2    1.104577245425273E-2   -1.702624450542723E-2    1.075919120788318E-2   -1.659536904858149E-2    9.893829249023001E-1    1.626674050448157E-2
 1.209276880435975E5     9.889371283443144E-1    1.653319140046193E-2    1.103309952644807E-2   -1.691737620049670E-2    1.074987671163056E-2   -1.648799709635658E-2    9.893913883780570E-1    1.615923140709014E-2
 1.218503496935483E5     9.889608035986601E-1    1.642868622976833E-2    1.102336316803270E-2   -1.680826916769738E-2    1.073752204645713E-2   -1.638585489753785E-2    9.894001740795328E-1    1.604708280769154E-2
 1.227800511251578E5     9.889933278935651E-1    1.629735246350208E-2    1.101086938410114E-2   -1.670293854320986E-2    1.072605002603026E-2   -1.628220218219672E-2    9.894302712794371E-1    1.593970909407602E-2
 1.237168460509929E5     9.890043248921615E-1    1.618279598619636E-2    1.099916925010438E-2   -1.659708004162880E-2    1.071788480128875E-2   -1.617977936459830E-2    9.894271632909952E-1    1.584289074144589E-2
 1.246607885934402E5     9.890037247906415E-1    1.607992412264147E-2    1.099204979321857E-2   -1.649015792683121E-2    1.070721903466216E-2   -1.607383296608028E-2    9.894005049910978E-1    1.575341122451448E-2
 1.256119332878327E5     9.890224929578005E-1    1.598946184820115E-2    1.097571465696737E-2   -1.639098205485530E-2    1.069080666105174E-2   -1.597431063116899E-2    9.894264924542230E-1    1.564498200386948E-2
 1.265703350856002E5     9.890273077079632E-1    1.588067787675252E-2    1.096948131397436E-2   -1.628826251281875E-2    1.068196690441259E-2   -1.587368168139643E-2    9.894604882527598E-1    1.553626687027782E-2
 1.275360493574453E5     9.890368129298152E-1    1.577802999669483E-2    1.095688675425297E-2   -1.618759058118246E-2    1.067488376587583E-2   -1.577092889753485E-2    9.894848368557617E-1    1.545866913854867E-2
 1.285091318965405E5     9.890804286059703E-1    1.567342758444025E-2    1.094543506638157E-2   -1.607917728717290E-2    1.066124785161832E-2   -1.567664038007712E-2    9.894938657401404E-1    1.534603308630474E-2
 1.294896389217529E5     9.890602290247461E-1    1.556876950924438E-2    1.093161413054413E-2   -1.597958152896318E-2    1.064941178032482E-2   -1.557777574512415E-2    9.894843340927917E-1    1.524463254864027E-2
 1.304776270808914E5     9.890899073066162E-1    1.546770092413581E-2    1.092449959639894E-2   -1.588357618932914E-2    1.064008711875004E-2   -1.548067185769565E-2    9.895119525118322E-1    1.515412824077553E-2
 1.314731534539810E5     9.890856385998795E-1    1.537379908334306E-2    1.091567580386343E-2   -1.578648619103087E-2    1.063195232033149E-2   -1.538609991135437E-2    9.895250179120688E-1    1.504155677191750E-2
 1.324762755565583E5     9.890764350544710E-1    1.527312372456904E-2    1.090618010462020E-2   -1.569595736413014E-2    1.061917714045237E-2   -1.528806400952973E-2    9.894989027421508E-1    1.495845696760865E-2
 1.334870513429962E5     9.890624485727827E-1    1.516760706165641E-2    1.089157835177162E-2   -1.559751846750727E-2    1.060752240473813E-2   -1.519510180782736E-2    9.895332923917982E-1    1.483627538750810E-2
 1.345055392098512E5     9.890912692687425E-1    1.507232021096416E-2    1.087710116138767E-2   -1.549809543144111E-2    1.060085233684388E-2   -1.509962110741975E-2    9.895305972922979E-1    1.476417247962281E-2
 1.355317979992373E5     9.891261457001330E-1    1.495711626468540E-2    1.086237271539842E-2   -1.539356891995408E-2    1.058358200465334E-2   -1.500416330553708E-2    9.895614350744326E-1    1.468297330876260E-2
 1.365658870022265E5     9.891016492003669E-1    1.483943579831492E-2    1.085062048110377E-2   -1.529693429220529E-2    1.057751897568850E-2   -1.491486032270547E-2    9.895854267626027E-1    1.457300976353216E-2
 1.376078659622731E5     9.890975186709540E-1    1.475964384310902E-2    1.083637933952515E-2   -1.520403887592254E-2    1.056077516611021E-2   -1.481972006601025E-2    9.895725426214699E-1    1.446815522227044E-2
 1.386577950786655E5     9.891143711273742E-1    1.466940583502434E-2    1.082659587786539E-2   -1.510751295489119E-2    1.055146595120412E-2   -1.473071476631024E-2    9.895731183473342E-1    1.439726605919401E-2
 1.397157350100044E5     9.891359963087004E-1    1.456656319869515E-2    1.081704314755640E-2   -1.501799736067458E-2    1.054137211341778E-2   -1.464089409783078E-2    9.896027773163851E-1    1.429274053935831E-2
 1.407817468777081E5     9.891356966357736E-1    1.446785815164911E-2    1.080341445711446E-2   -1.492906849975747E-2    1.052942155395679E-2   -1.455122573570518E-2    9.896061553780715E-1    1.420413557463819E-2
 1.418558922695422E5     9.891346666709921E-1    1.438119376404413E-2    1.079124687670065E-2   -1.483113960239654E-2    1.051543327122158E-2   -1.446397752374518E-2    9.895825551902838E-1    1.409801040145551E-2
 1.429382332431784E5     9.891838248908513E-1    1.429211283864900E-2    1.077594428033332E-2   -1.474186638647195E-2    1.050610044689645E-2   -1.437362710543019E-2    9.896294240491558E-1    1.402396736190777E-2
 1.440288323297804E5     9.891939355849430E-1    1.421746613225193E-2    1.076340681638932E-2   -1.465275486409691E-2    1.049505636230910E-2   -1.428858029120350E-2    9.896497277290397E-1    1.391887703735395E-2
 1.451277525376154E5     9.892306306166820E-1    1.411693431505708E-2    1.075221569530618E-2   -1.456447732090354E-2    1.048232367390039E-2   -1.419883490141614E-2    9.896348621959964E-1    1.383782603343664E-2
 1.462350573556962E5     9.892155199494910E-1    1.401735328643316E-2    1.073911167632778E-2   -1.447688545631584E-2    1.047305368520672E-2   -1.411291793533742E-2    9.896569648460959E-1    1.374651809644103E-2
 1.473508107574468E5     9.892137224226617E-1    1.394455707072661E-2    1.072985808304813E-2   -1.438967147420560E-2    1.046033669626952E-2   -1.403144036806519E-2    9.896515628819663E-1    1.366289870337423E-2
 1.484750772044004E5     9.892358857251093E-1    1.383158627749958E-2    1.072085479798231E-2   -1.430145892539968E-2    1.045244883589928E-2   -1.394405955784773E-2    9.896820538904302E-1    1.356610338773812E-2
 1.496079216499225E5     9.892425798100025E-1    1.376072960134507E-2    1.070390750727851E-2   -1.421861391809379E-2    1.043590039223753E-2   -1.385912392328893E-2    9.896704077365438E-1    1.348329744962520E-2
 1.507494095429637E5     9.892622925840554E-1    1.365376182351789E-2    1.069285435071474E-2   -1.412844745105972E-2    1.042488727862935E-2   -1.377850068163775E-2    9.897303274451712E-1    1.340531601534787E-2
 1.518996068318418E5     9.892613817451382E-1    1.358051516886409E-2    1.067964573883576E-2   -1.405107204008439E-2    1.041485542568207E-2   -1.369578108444441E-2    9.897393209641118E-1    1.332207766950297E-2
 1.530585799680507E5     9.892569328497988E-1    1.349357208618805E-2    1.067073775941282E-2   -1.396301092643092E-2    1.039952166643745E-2   -1.361114186536332E-2    9.897289109709965E-1    1.323718476284576E-2
 1.542263959101001E5     9.893076658384148E-1    1.341638379334410E-2    1.065649536615584E-2   -1.387950239529952E-2    1.038915470726429E-2   -1.353382725490885E-2    9.897342917607529E-1    1.314314252256088E-2
 1.554031221273835E5     9.893057187524604E-1    1.332071214343916E-2    1.064516722537263E-2   -1.379333199122366E-2    1.037785848061905E-2   -1.345505374438540E-2    9.897709029324306E-1    1.305949265125094E-2
 1.565888266040779E5     9.893107969954903E-1    1.323595376596244E-2    1.063350930950651E-2   -1.371532250751361E-2    1.036510911629017E-2   -1.337490535175974E-2    9.897643430391488E-1    1.298492118156517E-2
 1.577835778430689E5     9.893208877575763E-1    1.314153178619490E-2    1.062096607791600E-2   -1.363772782658731E-2    1.035350185066367E-2   -1.329637035403956E-2    9.897680616790240E-1    1.292390901570892E-2
 1.589874448699104E5     9.893290675802310E-1    1.307141524696994E-2    1.060769095361373E-2   -1.355594842729904E-2    1.034058040571132E-2   -1.321573344074500E-2    9.897589250119965E-1    1.282293701589926E-2
 1.602004972368116E5     9.893552060410246E-1    1.298092752229396E-2    1.059088104107400E-2   -1.347330136093224E-2    1.033082326723643E-2   -1.313988047066450E-2    9.897945749261061E-1    1.274718761358410E-2
 1.614228050266550E5     9.893403071857110E-1    1.289507603780869E-2    1.058062123760135E-2   -1.339547428438517E-2    1.031767295770857E-2   -1.306123181986215E-2    9.898268487752618E-1    1.267399808612606E-2
 1.626544388570473E5     9.893621098558185E-1    1.283222010931337E-2    1.056895284086210E-2   -1.331736713897019E-2    1.030586045635364E-2   -1.298531524859758E-2    9.898508364873757E-1    1.259872628682879E-2
 1.638954698843964E5     9.893408247996579E-1    1.273383095760859E-2    1.055524804317525E-2   -1.324370940418965E-2    1.029639209604704E-2   -1.291044587582182E-2    9.898421364034860E-1    1.253447070458004E-2
 1.651459698080244E5     9.893719139800601E-1    1.265903226464150E-2    1.054398887683781E-2   -1.316275585930296E-2    1.027977470186664E-2   -1.283696063816170E-2    9.898359754763166E-1    1.244179057953796E-2
 1.664060108743095E5     9.894110795193750E-1    1.257530749774782E-2    1.053144346930206E-2   -1.308224145345060E-2    1.026681250032383E-2   -1.275938631840335E-2    9.898734765329815E-1    1.235474817140209E-2
 1.676756658808590E5     9.894098115703293E-1    1.249803439306157E-2    1.051843245748682E-2   -1.301032113847743E-2    1.025500226758299E-2   -1.268651888705222E-2    9.898962410082842E-1    1.227481851568608E-2
 1.689550081807175E5     9.894070113834592E-1    1.243184116265104E-2    1.050452970443872E-2   -1.293431027472161E-2    1.024278044642072E-2   -1.261778852605158E-2    9.899475976774675E-1    1.221160512688368E-2
 1.702441116866020E5     9.894616334740095E-1    1.233752292317444E-2    1.049342587579907E-2   -1.286671347847721E-2    1.023049510595885E-2   -1.254211412703412E-2    9.899321049158859E-1    1.213157488208414E-2
 1.715430508751738E5     9.894537551948809E-1    1.228311609491803E-2    1.047800163862854E-2   -1.278724097264808E-2    1.022053472128894E-2   -1.246987959890025E-2    9.899322640237082E-1    1.205368180267018E-2
 1.728519007913403E5     9.894803079207116E-1    1.219426448876473E-2    1.046626811879893E-2   -1.271562375964406E-2    1.020325613243957E-2   -1.239828682821889E-2    9.899652296771454E-1    1.197650226735647E-2
 1.741707370525927E5     9.895118762874940E-1    1.212540181948588E-2    1.045299223897898E-2   -1.264080246228190E-2    1.019340202039406E-2   -1.232916230238513E-2    9.899419686724016E-1    1.191336390855433E-2
 1.754996358533718E5     9.895049833512732E-1    1.205184946424671E-2    1.043834416405025E-2   -1.257285848989131E-2    1.017935604831380E-2   -1.226016586477052E-2    9.899268552643863E-1    1.183460691000957E-2
 1.768386739694722E5     9.895563670904416E-1    1.197663185940149E-2    1.042742631572818E-2   -1.249626337982635E-2    1.016580642923985E-2   -1.218924784169180E-2    9.899400251967283E-1    1.175894047116453E-2
 1.781879287624771E5     9.895556487829249E-1    1.189835624069466E-2    1.041182814817788E-2   -1.242959799276031E-2    1.015802633107961E-2   -1.212066664006801E-2    9.899352138392481E-1    1.168759822012064E-2
 1.795474781842276E5     9.895870392597066E-1    1.182748131589480E-2    1.040344697524573E-2   -1.236127203168957E-2    1.014236942013521E-2   -1.204916247636840E-2    9.899766095005262E-1    1.162848750202217E-2
 1.809174007813277E5     9.895819130228062E-1    1.176579201356821E-2    1.038912731112335E-2   -1.229195800600874E-2    1.012647803599225E-2   -1.198501731112345E-2    9.899967103505946E-1    1.156979776003694E-2
 1.822977756996804E5     9.895793917108091E-1    1.167959283972613E-2    1.037114967118785E-2   -1.222074797586574E-2    1.011603290840509E-2   -1.191642882380499E-2    9.900555300656781E-1    1.149070627276573E-2
 1.836886826890609E5     9.895992303618081E-1    1.161252022760269E-2    1.036237884571359E-2   -1.215141129970181E-2    1.010136977997992E-2   -1.184949902477594E-2    9.900255295488363E-1    1.140453376268636E-2
 1.850902021077247E5     9.896498729662563E-1    1.154985415534182E-2    1.034802433384373E-2   -1.208419339328410E-2    1.009164065470809E-2   -1.178283239557947E-2    9.900578511903034E-1    1.135887094085463E-2
 1.865024149270491E5     9.896150274107387E-1    1.146625780289209E-2    1.033352945123571E-2   -1.201557390925303E-2    1.007543582780389E-2   -1.171755890478381E-2    9.900563234200106E-1    1.126415572754326E-2
 1.879254027362132E5     9.896086220929069E-1    1.138692198038200E-2    1.032076793499185E-2   -1.194915501864580E-2    1.006274913529647E-2   -1.165541416907694E-2    9.901017166979363E-1    1.119892983215019E-2
 1.893592477469092E5     9.896673555608365E-1    1.128466534217866E-2    1.028738975285155E-2   -1.189102247581331E-2    1.004146239254334E-2   -1.157243675729887E-2    9.900707733037654E-1    1.115240539679573E-2
 1.908040327980933E5     9.896397247640140E-1    1.124815627291495E-2    1.029048792229386E-2   -1.181838465380813E-2    1.003349789715198E-2   -1.152302652549731E-2    9.900931165678716E-1    1.107076392030956E-2
 1.922598413607715E5     9.897033361308548E-1    1.121037167932019E-2    1.027618778014531E-2   -1.175447182103418E-2    1.001888669427468E-2   -1.145677290257185E-2    9.901163489951312E-1    1.099694702010476E-2
 1.937267575428232E5     9.897294497225543E-1    1.114206691893365E-2    1.026718518067773E-2   -1.168595154245818E-2    1.000718683077150E-2   -1.139727801667134E-2    9.901071149906897E-1    1.093537082578035E-2
 1.952048660938581E5     9.897245154906846E-1    1.106433707402206E-2    1.025123073826492E-2   -1.162403941655561E-2    9.990775684654037E-3   -1.133385616332759E-2    9.901378160005055E-1    1.085376618869360E-2
 1.966942524101142E5     9.897398416750025E-1    1.099222658069342E-2    1.023480668108006E-2   -1.155781779233311E-2    9.979565119741527E-3   -1.127202555069504E-2    9.901112792524432E-1    1.079877138629286E-2
 1.981950025393913E5     9.897423824914704E-1    1.091787820239699E-2    1.022146243174996E-2   -1.150062870879266E-2    9.966661406747502E-3   -1.121060992709013E-2    9.901504774133938E-1    1.073906945694535E-2
