#  HZ   S   RI   R     50.00 
! Rohde & Schwarz Vector Network Analyzer 
! Rohde-Schwarz,ZNLE6-2Port,1323001256200024,1.71.1.10-23.02.1.238
! Created: UTC 4/8/2025, 2:39:45 AM
! freq[Hz]                re:S11                  im:S11                  re:S21                  im:S21                  re:S12                  im:S12                  re:S22                  im:S22
 1.000000000000000E5     9.897873744590560E-1    1.811024009530609E-2    1.037278144384699E-2   -1.831866732697776E-2    1.010025422815943E-2   -1.784892636767690E-2    9.900195702405333E-1    1.756908375316364E-2
 1.007629862646662E5     9.898016223005889E-1    1.795261702779327E-2    1.035888986798803E-2   -1.819375006887522E-2    1.009133530463393E-2   -1.772902155506192E-2    9.900501066301608E-1    1.742522409603295E-2
 1.015317940097331E5     9.898087909712934E-1    1.781961376102052E-2    1.034965727850530E-2   -1.807272506598928E-2    1.008427009716172E-2   -1.761555940788423E-2    9.900426778066528E-1    1.733468300688948E-2
 1.023064676522963E5     9.897557124370560E-1    1.769117995465628E-2    1.034098937325911E-2   -1.795533633774497E-2    1.007407532611859E-2   -1.749375201209347E-2    9.900487179490215E-1    1.719428496767741E-2
 1.030870519483485E5     9.897597961222924E-1    1.756765699773055E-2    1.033199410589121E-2   -1.783819510826550E-2    1.006517071577380E-2   -1.737719948088056E-2    9.900429529855767E-1    1.709531268832312E-2
 1.038735919953636E5     9.897927942441416E-1    1.744326590713130E-2    1.032477711884046E-2   -1.771792632017470E-2    1.005320713810024E-2   -1.726490044900620E-2    9.901142601934253E-1    1.697175847130648E-2
 1.046661332349037E5     9.897697249031906E-1    1.730016429511734E-2    1.031107287761840E-2   -1.759829252692956E-2    1.004487367700656E-2   -1.714653123893160E-2    9.900931109193708E-1    1.685871817683128E-2
 1.054647214552430E5     9.898084442394980E-1    1.718560054908124E-2    1.029834304584018E-2   -1.747831068735978E-2    1.003548236333191E-2   -1.703691300639084E-2    9.900835821612447E-1    1.673161353062855E-2
 1.062694027940149E5     9.898254500484029E-1    1.706740095106389E-2    1.028478352385605E-2   -1.736869719214524E-2    1.002404065447381E-2   -1.692525818052292E-2    9.901089543141317E-1    1.662752823924808E-2
 1.070802237408760E5     9.898315055083619E-1    1.695595055390906E-2    1.028067651908733E-2   -1.725231964963360E-2    1.001931832461685E-2   -1.681532838870397E-2    9.901221410956037E-1    1.652914691024027E-2
 1.078972311401927E5     9.898268693291594E-1    1.682980281988374E-2    1.027261521634017E-2   -1.713961998178788E-2    1.000681384653435E-2   -1.670225421112755E-2    9.900978098310507E-1    1.640442157491465E-2
 1.087204721937475E5     9.898249847438336E-1    1.671624467848049E-2    1.026081527271825E-2   -1.702797044793955E-2    9.997573132795838E-3   -1.659442892122209E-2    9.901768100358548E-1    1.630110568519981E-2
 1.095499944634658E5     9.898959766615330E-1    1.659924453587179E-2    1.025192210290437E-2   -1.691701189623748E-2    9.986447226095454E-3   -1.648672241727902E-2    9.901325581507832E-1    1.617862747006626E-2
 1.103858458741646E5     9.898494699121229E-1    1.649200847358774E-2    1.023754421010343E-2   -1.680347765704388E-2    9.980430895425383E-3   -1.637630433220924E-2    9.901543590055817E-1    1.606598128655522E-2
 1.112280747163201E5     9.898620460416779E-1    1.637110431693052E-2    1.023050435766263E-2   -1.668853832495176E-2    9.966839395138698E-3   -1.626978326708393E-2    9.901397050512126E-1    1.598202445920281E-2
 1.120767296488583E5     9.898520183741583E-1    1.625315192583738E-2    1.021832799124704E-2   -1.658430085882003E-2    9.957551072741062E-3   -1.616179346123507E-2    9.901307607273493E-1    1.585453426279082E-2
 1.129318597019661E5     9.898604319016984E-1    1.614797481498226E-2    1.020983764157839E-2   -1.647819666331062E-2    9.947030789970284E-3   -1.605685650578947E-2    9.901625699646937E-1    1.576742136907366E-2
 1.137935142799240E5     9.898552021723978E-1    1.603327440194387E-2    1.020322248533669E-2   -1.637312190887124E-2    9.937506762502143E-3   -1.595621050751870E-2    9.901995985196848E-1    1.565318328757916E-2
 1.146617431639607E5     9.899054434040347E-1    1.592986366723291E-2    1.019580827105285E-2   -1.626541070690414E-2    9.930873856920923E-3   -1.584906157048614E-2    9.901724755890563E-1    1.554857726615528E-2
 1.155365965151286E5     9.899193201269760E-1    1.582165225164340E-2    1.017950517445895E-2   -1.616051973831580E-2    9.916670063722806E-3   -1.574637110309670E-2    9.901759961645423E-1    1.544238962419237E-2
 1.164181248772018E5     9.899184739798748E-1    1.572010319735079E-2    1.017234361673448E-2   -1.605488090090215E-2    9.908513326320751E-3   -1.564593035564954E-2    9.901907282978175E-1    1.533494756544557E-2
 1.173063791795965E5     9.899009628418602E-1    1.560068746416679E-2    1.016185829243773E-2   -1.594881902176334E-2    9.902940244095156E-3   -1.554896611417314E-2    9.902049565837170E-1    1.524488458540677E-2
 1.182014107403141E5     9.899208642293157E-1    1.549705067062774E-2    1.015107514139488E-2   -1.585044804794776E-2    9.890023928426804E-3   -1.544591407727306E-2    9.902194055404802E-1    1.514323505295084E-2
 1.191032712689044E5     9.899090090935545E-1    1.538720395732497E-2    1.014275880645117E-2   -1.575121157981483E-2    9.881169053660793E-3   -1.534490473661284E-2    9.902323468015422E-1    1.503841639167802E-2
 1.200120128694542E5     9.899157161150307E-1    1.528165535570458E-2    1.013111894986896E-2   -1.565009898699407E-2    9.875536597371847E-3   -1.524672472413698E-2    9.902571384120300E-1    1.494555603318422E-2
 1.209276880435975E5     9.899282401465472E-1    1.518973592677013E-2    1.011876219349781E-2   -1.554593978463521E-2    9.861643347606822E-3   -1.515086301570913E-2    9.902810821126267E-1    1.483230662811411E-2
 1.218503496935483E5     9.899455301020988E-1    1.508352274864422E-2    1.011067433950089E-2   -1.544760572060236E-2    9.851433552070380E-3   -1.505418082055338E-2    9.903075501289615E-1    1.473622064239838E-2
 1.227800511251578E5     9.899918045605619E-1    1.496331099186951E-2    1.009930539882692E-2   -1.534639908747406E-2    9.843354610958342E-3   -1.495897762499515E-2    9.903063472701783E-1    1.463072895721705E-2
 1.237168460509929E5     9.899896730937078E-1    1.487365437202880E-2    1.008994091670220E-2   -1.524986332613017E-2    9.834844518788299E-3   -1.486348179781511E-2    9.903183778221892E-1    1.454852260484885E-2
 1.246607885934402E5     9.900072186370314E-1    1.478442371396228E-2    1.008276497198653E-2   -1.515389038395476E-2    9.825107664522340E-3   -1.476882097586072E-2    9.902910502517024E-1    1.446839325913039E-2
 1.256119332878327E5     9.899724193781784E-1    1.469015036862800E-2    1.007327605441817E-2   -1.505833264132075E-2    9.815236460130440E-3   -1.467512645510481E-2    9.903407834975070E-1    1.438078719175506E-2
 1.265703350856002E5     9.900344511585484E-1    1.460020577717475E-2    1.006129813307735E-2   -1.496276086729017E-2    9.806613167374660E-3   -1.458419404628042E-2    9.903585607862756E-1    1.429749470717900E-2
 1.275360493574453E5     9.900389080547621E-1    1.448039265625415E-2    1.004906521643524E-2   -1.487124740096767E-2    9.795642417475952E-3   -1.448946692825964E-2    9.903971583360718E-1    1.418779593061887E-2
 1.285091318965405E5     9.900341383503888E-1    1.439759846015384E-2    1.003720005018142E-2   -1.477032224697919E-2    9.784396746753583E-3   -1.440206898204159E-2    9.903874227838464E-1    1.407554785329985E-2
 1.294896389217529E5     9.900143406672032E-1    1.429656724495019E-2    1.003198740457895E-2   -1.467950541563149E-2    9.774204685038252E-3   -1.431069486210452E-2    9.903605176466321E-1    1.398645706861687E-2
 1.304776270808914E5     9.900499025953124E-1    1.420688857760359E-2    1.001892635961940E-2   -1.459132724970616E-2    9.766607280168194E-3   -1.422183240815538E-2    9.903692508577663E-1    1.389459104364118E-2
 1.314731534539810E5     9.900426667253479E-1    1.411377179757366E-2    1.001262903277474E-2   -1.450119731362947E-2    9.755454898147458E-3   -1.412884349736431E-2    9.903705927256130E-1    1.378826491136727E-2
 1.324762755565583E5     9.900211838257191E-1    1.404071240301772E-2    1.000570519990859E-2   -1.441466235695812E-2    9.743012224227144E-3   -1.404244022525641E-2    9.903656236863413E-1    1.372120293830685E-2
 1.334870513429962E5     9.900542892976759E-1    1.393007029043244E-2    9.993419563935140E-3   -1.432696243890265E-2    9.735038012658475E-3   -1.395594481479910E-2    9.903739001341527E-1    1.361631008088053E-2
 1.345055392098512E5     9.900527452587927E-1    1.384658695257267E-2    9.985368482769555E-3   -1.423167297034725E-2    9.721565808501590E-3   -1.386905299428966E-2    9.904112283685780E-1    1.353422100826444E-2
 1.355317979992373E5     9.900732405892001E-1    1.373193216902288E-2    9.969588867106784E-3   -1.414291062599283E-2    9.715889128197208E-3   -1.378187323995830E-2    9.904428691568142E-1    1.345959050573780E-2
 1.365658870022265E5     9.900812416675209E-1    1.364304863846000E-2    9.957847669747583E-3   -1.404858317726086E-2    9.705988390428992E-3   -1.369763450945494E-2    9.904613975913046E-1    1.337473163411338E-2
 1.376078659622731E5     9.900710061655151E-1    1.357269684543196E-2    9.948642030281205E-3   -1.396396424541907E-2    9.693008793312741E-3   -1.361124504113068E-2    9.904512696911132E-1    1.327849917760118E-2
 1.386577950786655E5     9.901262097118199E-1    1.348607963705034E-2    9.937455894733951E-3   -1.387701097730250E-2    9.684215826747281E-3   -1.352594610869618E-2    9.904571355239268E-1    1.320201659082931E-2
 1.397157350100044E5     9.901297383656360E-1    1.339406250312136E-2    9.921565883271779E-3   -1.379386107477798E-2    9.672227237738657E-3   -1.344563219176293E-2    9.904644377001922E-1    1.312819247208615E-2
 1.407817468777081E5     9.901340746026700E-1    1.329060093534007E-2    9.915661897798644E-3   -1.370699286445418E-2    9.662909003264547E-3   -1.336519378660913E-2    9.904605969350826E-1    1.302381423500953E-2
 1.418558922695422E5     9.901274629351129E-1    1.320955606819896E-2    9.904641147513838E-3   -1.362205464775467E-2    9.652687077404175E-3   -1.328549918882550E-2    9.904707231064048E-1    1.293795774705955E-2
 1.429382332431784E5     9.901601234064398E-1    1.313004251711562E-2    9.890847048240970E-3   -1.353793522773411E-2    9.645124088529199E-3   -1.320503171599972E-2    9.904832305220681E-1    1.286351038639040E-2
 1.440288323297804E5     9.901760197923622E-1    1.305076881012169E-2    9.880713672882737E-3   -1.345389785802722E-2    9.633080040035829E-3   -1.312075028822388E-2    9.905189596511894E-1    1.277352496690646E-2
 1.451277525376154E5     9.901950152119544E-1    1.295236307348128E-2    9.870281506801163E-3   -1.336975687984880E-2    9.623910637180195E-3   -1.304285842623476E-2    9.905073054901948E-1    1.271142144868978E-2
 1.462350573556962E5     9.901760327598568E-1    1.287054311818959E-2    9.859067783952354E-3   -1.329401576068922E-2    9.612370795291682E-3   -1.295964698774476E-2    9.905502166948638E-1    1.262573999958099E-2
 1.473508107574468E5     9.901931157466655E-1    1.279020581883908E-2    9.848774804611080E-3   -1.321304944239346E-2    9.603430280004849E-3   -1.288360607621690E-2    9.905593050527367E-1    1.254211911632331E-2
 1.484750772044004E5     9.901992493844437E-1    1.270360074510874E-2    9.835797140769636E-3   -1.313404166558241E-2    9.589713160447573E-3   -1.280334198242416E-2    9.905330000345984E-1    1.245703631351929E-2
 1.496079216499225E5     9.902249890077400E-1    1.262688168678278E-2    9.822413474965229E-3   -1.305268229849077E-2    9.580698342712362E-3   -1.272520464238875E-2    9.905194180905338E-1    1.237329212047337E-2
 1.507494095429637E5     9.902561552202355E-1    1.254723224958935E-2    9.817727543290158E-3   -1.296938388324668E-2    9.567637259968474E-3   -1.265119524032567E-2    9.905491781699939E-1    1.230900889208151E-2
 1.518996068318418E5     9.902207928134054E-1    1.246939024518358E-2    9.803818673318096E-3   -1.289327104067389E-2    9.558631126284769E-3   -1.257806083282967E-2    9.905943669028618E-1    1.222263413273444E-2
 1.530585799680507E5     9.902323407045075E-1    1.237689261338426E-2    9.792701137434748E-3   -1.281743583323889E-2    9.549646015919589E-3   -1.250020355428794E-2    9.905753854280830E-1    1.213684323659401E-2
 1.542263959101001E5     9.902591917088627E-1    1.230171734253047E-2    9.784148718529853E-3   -1.274265887489518E-2    9.538262586946279E-3   -1.242459848624343E-2    9.905713191158113E-1    1.206910816378194E-2
 1.554031221273835E5     9.902786894111548E-1    1.222908738648439E-2    9.770514660868822E-3   -1.266758573639529E-2    9.525984347669889E-3   -1.235220906076400E-2    9.906108360777521E-1    1.199279460230212E-2
 1.565888266040779E5     9.902629997325618E-1    1.213223374884774E-2    9.757539025214824E-3   -1.259062962476121E-2    9.513788218410747E-3   -1.227841248400671E-2    9.906232510263239E-1    1.192112729912158E-2
 1.577835778430689E5     9.902882896770272E-1    1.207380395292104E-2    9.747099519846536E-3   -1.251413545494742E-2    9.502571941815282E-3   -1.220820098256689E-2    9.906305315400111E-1    1.184459402121316E-2
 1.589874448699104E5     9.902508248541985E-1    1.197389292591776E-2    9.738387351752932E-3   -1.243908457725226E-2    9.494476987377385E-3   -1.213282368150801E-2    9.906330798620071E-1    1.176953926943370E-2
 1.602004972368116E5     9.902916611714584E-1    1.190490645801758E-2    9.727880823266854E-3   -1.236855412914314E-2    9.482826518522735E-3   -1.206061555373278E-2    9.906223028935530E-1    1.169699413290129E-2
 1.614228050266550E5     9.903086932099390E-1    1.183732153112014E-2    9.716196297765559E-3   -1.229723803285602E-2    9.473437098137107E-3   -1.198823363313480E-2    9.906498115095388E-1    1.162082431168552E-2
 1.626544388570473E5     9.903112273811951E-1    1.177602325679745E-2    9.701112891043596E-3   -1.222136577213445E-2    9.459987695092348E-3   -1.191986972764782E-2    9.906552280359157E-1    1.155503592271550E-2
 1.638954698843964E5     9.903172910837685E-1    1.168932388343677E-2    9.691423969509384E-3   -1.215191008741410E-2    9.450705628016726E-3   -1.185022680559532E-2    9.906796113713989E-1    1.149795837705160E-2
 1.651459698080244E5     9.903494191535118E-1    1.160089680007682E-2    9.680469744918841E-3   -1.207876800693132E-2    9.436812430168879E-3   -1.178268795097665E-2    9.906778023923198E-1    1.140551493585432E-2
 1.664060108743095E5     9.903670405207037E-1    1.153747430578421E-2    9.669447358418451E-3   -1.200806387486890E-2    9.427522161434628E-3   -1.171374871563190E-2    9.906883004378272E-1    1.133099101830087E-2
 1.676756658808590E5     9.903617032234858E-1    1.146412672844297E-2    9.655431553633935E-3   -1.193717475267251E-2    9.413357189335071E-3   -1.164318794967115E-2    9.907310904516105E-1    1.126447159705142E-2
 1.689550081807175E5     9.903797850693540E-1    1.141866601587692E-2    9.644281748099535E-3   -1.186756429277506E-2    9.405686577870963E-3   -1.157805641619784E-2    9.907470486585886E-1    1.119120450788718E-2
 1.702441116866020E5     9.903853315674288E-1    1.131811592715011E-2    9.633682682263799E-3   -1.180349761771887E-2    9.393593518228322E-3   -1.151369164378722E-2    9.907296207804550E-1    1.111616021155089E-2
 1.715430508751738E5     9.904121789564948E-1    1.125396726887755E-2    9.620373872478912E-3   -1.173518843294606E-2    9.380763176318823E-3   -1.144304920159416E-2    9.907217196573984E-1    1.104789992620829E-2
 1.728519007913403E5     9.904357714583365E-1    1.118188648267756E-2    9.610651030881802E-3   -1.166262636233617E-2    9.368780265164684E-3   -1.137870850981976E-2    9.907345150412095E-1    1.096793033059491E-2
 1.741707370525927E5     9.904452414675239E-1    1.111800256802493E-2    9.598354031186199E-3   -1.159472445230418E-2    9.360477412123380E-3   -1.131275891616233E-2    9.907333126440854E-1    1.091268816857824E-2
 1.754996358533718E5     9.904663753808213E-1    1.105268886556152E-2    9.585383184315210E-3   -1.153390934319608E-2    9.344153286035769E-3   -1.124884768615534E-2    9.907108905906593E-1    1.085392304788894E-2
 1.768386739694722E5     9.904990742849682E-1    1.096073410304078E-2    9.574318918684085E-3   -1.146449706651934E-2    9.335818246098523E-3   -1.118241566401847E-2    9.907702377214689E-1    1.077912862148007E-2
 1.781879287624771E5     9.904702391154016E-1    1.091007497186449E-2    9.562617541075676E-3   -1.140236064693965E-2    9.324920143954113E-3   -1.112077925750767E-2    9.907681064736107E-1    1.070899493869948E-2
 1.795474781842276E5     9.904893184906511E-1    1.083440450636448E-2    9.553837805269763E-3   -1.133724582441103E-2    9.311147798296615E-3   -1.105520315964236E-2    9.907862900345432E-1    1.065727106577498E-2
 1.809174007813277E5     9.905074771426747E-1    1.077193862004077E-2    9.536138376766192E-3   -1.127384236969716E-2    9.298813411588655E-3   -1.099331907922329E-2    9.908411273787179E-1    1.060311538320679E-2
 1.822977756996804E5     9.905382462628045E-1    1.070751714668459E-2    9.527227665514252E-3   -1.121079217079479E-2    9.288603099313505E-3   -1.093453615243375E-2    9.908838888463606E-1    1.051924579068648E-2
 1.836886826890609E5     9.905586647282351E-1    1.064567715730491E-2    9.512782194059703E-3   -1.114338172522071E-2    9.274919451851734E-3   -1.087437441688252E-2    9.908495105756119E-1    1.043824025020080E-2
 1.850902021077247E5     9.905861064493137E-1    1.059521870565840E-2    9.501613287065051E-3   -1.108184284794493E-2    9.264740628364604E-3   -1.081099641702215E-2    9.908831847480015E-1    1.040529630066276E-2
 1.865024149270491E5     9.905455804859195E-1    1.050793425687629E-2    9.488028082253614E-3   -1.102023579945168E-2    9.252107387225031E-3   -1.075098627206390E-2    9.908617503254327E-1    1.032069102687678E-2
 1.879254027362132E5     9.905378703772304E-1    1.043080250527833E-2    9.474671002195185E-3   -1.096084354209875E-2    9.236618044826648E-3   -1.069214246565848E-2    9.909102536805076E-1    1.026653529944338E-2
 1.893592477469092E5     9.905590064273243E-1    1.038541186424316E-2    9.468691855766945E-3   -1.087557033581613E-2    9.234349848316215E-3   -1.061477026080015E-2    9.909041069308827E-1    1.022490300661423E-2
 1.908040327980933E5     9.905253118800352E-1    1.029995978842674E-2    9.452107411354516E-3   -1.083777131214995E-2    9.215961925392611E-3   -1.056849723222837E-2    9.909079875481585E-1    1.013964781779098E-2
 1.922598413607715E5     9.905699111980614E-1    1.024859714175300E-2    9.435439456446353E-3   -1.077790853829009E-2    9.204072627084328E-3   -1.050921021791799E-2    9.908934801846899E-1    1.006116131604154E-2
 1.937267575428232E5     9.906102528928892E-1    1.018805838688486E-2    9.421847701495142E-3   -1.071679209149429E-2    9.195232098579387E-3   -1.045666728004277E-2    9.909006317016047E-1    1.000903684171118E-2
 1.952048660938581E5     9.906419054725142E-1    1.013643115516732E-2    9.413464079212756E-3   -1.065681735005518E-2    9.176187570271915E-3   -1.039678937544532E-2    9.909529446863804E-1    9.959299406766181E-3
 1.966942524101142E5     9.906705758378763E-1    1.006679262185415E-2    9.397275320971853E-3   -1.059698758356822E-2    9.165678622062665E-3   -1.033987301458618E-2    9.909571705017051E-1    9.887529897902089E-3
 1.981950025393913E5     9.906708219626925E-1    9.999503326978278E-3    9.385278790786945E-3   -1.053884833949652E-2    9.152448285224638E-3   -1.028327397472604E-2    9.909899065291803E-1    9.849898834798504E-3
