#  HZ   S   RI   R     50.00 
! Rohde & Schwarz Vector Network Analyzer 
! Rohde-Schwarz,ZNLE6-2Port,1323001256200024,1.71.1.10-23.02.1.238
! Created: UTC 4/8/2025, 2:28:34 AM
! freq[Hz]                re:S11                  im:S11                  re:S21                  im:S21                  re:S12                  im:S12                  re:S22                  im:S22
 1.000000000000000E5     9.905804923465108E-1    1.672061538328737E-2    9.540689644924990E-3   -1.692317467907540E-2    9.288961102286232E-3   -1.649246485265454E-2    9.908149989501909E-1    1.621160630355702E-2
 1.007629862646662E5     9.905827685224396E-1    1.657220954108089E-2    9.526713496843451E-3   -1.680594967291335E-2    9.282341502716496E-3   -1.637903205520562E-2    9.908058547272989E-1    1.609468113464346E-2
 1.015317940097331E5     9.905820713284308E-1    1.645539308348493E-2    9.521042839449701E-3   -1.669265806188658E-2    9.273641529371403E-3   -1.627431800223968E-2    9.907846414224720E-1    1.600101411521564E-2
 1.023064676522963E5     9.905560596918866E-1    1.633820530585814E-2    9.508191759180806E-3   -1.658742596996945E-2    9.262494748111437E-3   -1.616031874100665E-2    9.908186683204744E-1    1.586593481314425E-2
 1.030870519483485E5     9.905486857497658E-1    1.623222145297553E-2    9.502436138627370E-3   -1.647990574253164E-2    9.257855376383815E-3   -1.605561536838588E-2    9.908153986042959E-1    1.578494120208190E-2
 1.038735919953636E5     9.905534187842052E-1    1.609844954240205E-2    9.495271955592029E-3   -1.636920015394489E-2    9.249173516032706E-3   -1.594598170244763E-2    9.908859487661195E-1    1.564985170799355E-2
 1.046661332349037E5     9.905680650367975E-1    1.597116859243394E-2    9.483941069883333E-3   -1.625778449436491E-2    9.241742892878041E-3   -1.584082984740127E-2    9.908575240965162E-1    1.553825100623321E-2
 1.054647214552430E5     9.905717832910771E-1    1.586524791979614E-2    9.474569822099040E-3   -1.614932112346146E-2    9.228520070841054E-3   -1.573700606361315E-2    9.908491543098703E-1    1.542540963441716E-2
 1.062694027940149E5     9.905901670345404E-1    1.575889200740613E-2    9.461353800664186E-3   -1.604262005605772E-2    9.221533726089068E-3   -1.563794263441535E-2    9.908961702260248E-1    1.534252213656680E-2
 1.070802237408760E5     9.906141002876043E-1    1.564272162347902E-2    9.457785028286130E-3   -1.593658971493871E-2    9.213469530483966E-3   -1.553187477293632E-2    9.909201955826068E-1    1.522350548309924E-2
 1.078972311401927E5     9.906135330149286E-1    1.554696832042504E-2    9.448898871131027E-3   -1.583578672734835E-2    9.202929425582386E-3   -1.543012996545509E-2    9.908696214123939E-1    1.513458930258190E-2
 1.087204721937475E5     9.905762844550730E-1    1.544241410825931E-2    9.442864568292979E-3   -1.572652736815274E-2    9.196443476504708E-3   -1.532691871168182E-2    9.909072265704479E-1    1.504517499339424E-2
 1.095499944634658E5     9.906254097632524E-1    1.532431390162640E-2    9.434083837536765E-3   -1.562580016628684E-2    9.187855829487673E-3   -1.522456331639773E-2    9.909049323224086E-1    1.493783296934112E-2
 1.103858458741646E5     9.905989300576321E-1    1.522619895081412E-2    9.420391343142542E-3   -1.552115365332068E-2    9.181624839752864E-3   -1.512750851437810E-2    9.909121403461629E-1    1.482111141417839E-2
 1.112280747163201E5     9.906293009427185E-1    1.511463694627651E-2    9.410473297473070E-3   -1.541439728550982E-2    9.173313034169838E-3   -1.502808952264514E-2    9.909018035155807E-1    1.474346703195120E-2
 1.120767296488583E5     9.906165308547579E-1    1.499728803316701E-2    9.405172721980480E-3   -1.531690120201101E-2    9.164135438286581E-3   -1.493083008158498E-2    9.909047247365199E-1    1.463761289945204E-2
 1.129318597019661E5     9.906179505185889E-1    1.490492131086822E-2    9.393857654018400E-3   -1.521757309514059E-2    9.151237741334686E-3   -1.483205134288069E-2    9.909547092787910E-1    1.453905189000560E-2
 1.137935142799240E5     9.906124829549131E-1    1.480286891174301E-2    9.386730005837828E-3   -1.512057571263084E-2    9.146644091697125E-3   -1.473948602047744E-2    9.909625916012973E-1    1.444452369084345E-2
 1.146617431639607E5     9.906355902328851E-1    1.469400452468135E-2    9.378606048827428E-3   -1.502112551602404E-2    9.133386194953715E-3   -1.463708340597423E-2    9.909702075046779E-1    1.434488799827538E-2
 1.155365965151286E5     9.906724511710476E-1    1.458179221947470E-2    9.368324006351387E-3   -1.492321313452666E-2    9.128718852945450E-3   -1.454592754413275E-2    9.909389690392726E-1    1.425428254571116E-2
 1.164181248772018E5     9.907045856436244E-1    1.449648833635259E-2    9.360000736576767E-3   -1.482328178092729E-2    9.118248684717986E-3   -1.444734506143268E-2    9.909741668169127E-1    1.412574555244188E-2
 1.173063791795965E5     9.907154132063187E-1    1.440848255613687E-2    9.351457265544047E-3   -1.473039355492962E-2    9.112746024631396E-3   -1.435540879608237E-2    9.909835121039158E-1    1.405987473000289E-2
 1.182014107403141E5     9.907505783703936E-1    1.431017015549011E-2    9.344491016979969E-3   -1.463514140768009E-2    9.101389848360279E-3   -1.426617950158927E-2    9.909706379981026E-1    1.395952397136485E-2
 1.191032712689044E5     9.907353000985422E-1    1.419999155241381E-2    9.333499956598271E-3   -1.454198922421240E-2    9.094791754737697E-3   -1.417407271071981E-2    9.909897177127246E-1    1.385808449538377E-2
 1.200120128694542E5     9.907076863117790E-1    1.410076514390494E-2    9.324749892175112E-3   -1.445072753098007E-2    9.085450726645567E-3   -1.408471415399796E-2    9.910465989149826E-1    1.378210614481281E-2
 1.209276880435975E5     9.907247677706404E-1    1.402881356409129E-2    9.317013754162598E-3   -1.435564759502831E-2    9.074647770152955E-3   -1.399083201535200E-2    9.910566487811968E-1    1.368162555900924E-2
 1.218503496935483E5     9.907150083893944E-1    1.393785707135871E-2    9.302496048395732E-3   -1.426111080259742E-2    9.066394772928301E-3   -1.390562975340364E-2    9.910697289560190E-1    1.358468292373304E-2
 1.227800511251578E5     9.907499523872029E-1    1.379614626829079E-2    9.294725352084181E-3   -1.417186474137886E-2    9.059821719093508E-3   -1.381437906336211E-2    9.910588100795599E-1    1.349054714159141E-2
 1.237168460509929E5     9.907500578217943E-1    1.372575431458379E-2    9.284725425992010E-3   -1.407720336418032E-2    9.048637283017046E-3   -1.372276420412410E-2    9.910580947306956E-1    1.341645130799742E-2
 1.246607885934402E5     9.907747002518983E-1    1.362932810783769E-2    9.279471475814398E-3   -1.399328332360930E-2    9.040631255490563E-3   -1.363590417157162E-2    9.910384156382488E-1    1.333027247542377E-2
 1.256119332878327E5     9.907359867391521E-1    1.355677672093173E-2    9.272357394330730E-3   -1.390256400525132E-2    9.031356120957901E-3   -1.355146139416827E-2    9.910540651041773E-1    1.325823317141701E-2
 1.265703350856002E5     9.907588353441013E-1    1.345337234792079E-2    9.260690716755910E-3   -1.381557243732986E-2    9.026506874164722E-3   -1.346516691326084E-2    9.911050846642263E-1    1.316370067293646E-2
 1.275360493574453E5     9.907788626214874E-1    1.336140360994545E-2    9.249147517553642E-3   -1.372951327588953E-2    9.012725884886058E-3   -1.337794224817676E-2    9.911229936175230E-1    1.307124606840873E-2
 1.285091318965405E5     9.908115205645660E-1    1.327539917710615E-2    9.242237674853123E-3   -1.364079443030809E-2    9.005101023765602E-3   -1.329339451501060E-2    9.911282163130736E-1    1.297031785079142E-2
 1.294896389217529E5     9.907716630867528E-1    1.318661747660541E-2    9.231174025014888E-3   -1.355265751862509E-2    8.996685110074659E-3   -1.321190020020860E-2    9.911237635161088E-1    1.289082239802607E-2
 1.304776270808914E5     9.908160099897418E-1    1.310806149288627E-2    9.224752897540853E-3   -1.347031996561448E-2    8.987181136259721E-3   -1.312767667714133E-2    9.911295525372599E-1    1.280919340987936E-2
 1.314731534539810E5     9.908302691608254E-1    1.302069995864956E-2    9.218608303346493E-3   -1.339109504018320E-2    8.975748493583372E-3   -1.304603097557026E-2    9.911373579670423E-1    1.272197797465325E-2
 1.324762755565583E5     9.907794543886657E-1    1.294160872471811E-2    9.212275390964138E-3   -1.330952787684698E-2    8.968977103089281E-3   -1.296689380468756E-2    9.911199515379526E-1    1.264559328600044E-2
 1.334870513429962E5     9.908334429537808E-1    1.284608515060851E-2    9.203201021809816E-3   -1.322570002215124E-2    8.959990477088158E-3   -1.288509089624616E-2    9.911457021217507E-1    1.254999403413498E-2
 1.345055392098512E5     9.908653591249869E-1    1.277921350798696E-2    9.196012892068450E-3   -1.314333265824221E-2    8.948838807746056E-3   -1.280456796865182E-2    9.911749178127862E-1    1.247747750801182E-2
 1.355317979992373E5     9.908711673649310E-1    1.264229519063670E-2    9.176816223834349E-3   -1.305586049707624E-2    8.942308259562817E-3   -1.272224613110119E-2    9.911767863990928E-1    1.240224512704775E-2
 1.365658870022265E5     9.908624081264864E-1    1.257212582844450E-2    9.167334736364351E-3   -1.296872784537370E-2    8.931189921103021E-3   -1.264293348573366E-2    9.912085275253040E-1    1.232745670691513E-2
 1.376078659622731E5     9.908555293868768E-1    1.250548427389353E-2    9.155696999074616E-3   -1.289235862748140E-2    8.923647035080289E-3   -1.256464768359880E-2    9.911893352405282E-1    1.222822124576531E-2
 1.386577950786655E5     9.908903449264589E-1    1.241220604918421E-2    9.153278767101597E-3   -1.281194909620125E-2    8.912175286076933E-3   -1.248737439165690E-2    9.911849906085414E-1    1.216404959086614E-2
 1.397157350100044E5     9.909230259540505E-1    1.233835762310994E-2    9.140514948988626E-3   -1.272655701626943E-2    8.902705362937750E-3   -1.240988723565491E-2    9.912036854726803E-1    1.207751747748733E-2
 1.407817468777081E5     9.909326222501214E-1    1.225106633975379E-2    9.127372813689071E-3   -1.265269297918304E-2    8.897920450610906E-3   -1.233677127736358E-2    9.912223706235752E-1    1.201122022093922E-2
 1.418558922695422E5     9.909059623456881E-1    1.216303538483461E-2    9.120754563305977E-3   -1.257602805227570E-2    8.886019729137181E-3   -1.226112579461747E-2    9.912157856379289E-1    1.190922323330685E-2
 1.429382332431784E5     9.909551001658425E-1    1.208755028178225E-2    9.107006671938148E-3   -1.249596363532417E-2    8.878643223334270E-3   -1.218343753150573E-2    9.912385874526968E-1    1.184136014467105E-2
 1.440288323297804E5     9.909721822772469E-1    1.202969077789919E-2    9.100416955012392E-3   -1.241927993138283E-2    8.866873247134949E-3   -1.211129673025336E-2    9.912611121760613E-1    1.176542781760242E-2
 1.451277525376154E5     9.909949936754068E-1    1.193711570550964E-2    9.087201451240702E-3   -1.234386885151709E-2    8.855723802831233E-3   -1.203560645515344E-2    9.912403363842845E-1    1.168518910235918E-2
 1.462350573556962E5     9.909717464355738E-1    1.185458684462518E-2    9.076701367012658E-3   -1.226626552872967E-2    8.847339716478560E-3   -1.196200559212725E-2    9.912682244168767E-1    1.160919039575216E-2
 1.473508107574468E5     9.909951215134853E-1    1.178986086766373E-2    9.069361096281875E-3   -1.219457642939271E-2    8.838765626565777E-3   -1.188994195518865E-2    9.912778298151622E-1    1.153265230928062E-2
 1.484750772044004E5     9.909812453183258E-1    1.171275198917349E-2    9.058302346903328E-3   -1.211930921886908E-2    8.832725906143330E-3   -1.181936994888017E-2    9.912615645973215E-1    1.146476912043948E-2
 1.496079216499225E5     9.909905033318293E-1    1.164129737190250E-2    9.050460830538417E-3   -1.204184862252757E-2    8.818674438910721E-3   -1.174513724201070E-2    9.912674397969071E-1    1.138664704234649E-2
 1.507494095429637E5     9.910264174089273E-1    1.154975152832819E-2    9.039136189678443E-3   -1.197015272628189E-2    8.809697162851845E-3   -1.167483914881552E-2    9.913203567419502E-1    1.130765873541237E-2
 1.518996068318418E5     9.910060385100664E-1    1.148059499835655E-2    9.027995586215675E-3   -1.189976773448605E-2    8.800127979943197E-3   -1.160682559190951E-2    9.913293225518874E-1    1.123883669078428E-2
 1.530585799680507E5     9.910084715332715E-1    1.141160647536957E-2    9.020417759983579E-3   -1.182802143129962E-2    8.790504883393743E-3   -1.153758234539873E-2    9.913086363937900E-1    1.116295462353477E-2
 1.542263959101001E5     9.910436492687470E-1    1.134023409853197E-2    9.007038649842366E-3   -1.176056937592492E-2    8.783587487791273E-3   -1.146757309395495E-2    9.912966159780127E-1    1.109779684912048E-2
 1.554031221273835E5     9.910283772870135E-1    1.126790455383107E-2    8.999789413016020E-3   -1.168703681935774E-2    8.771587167610275E-3   -1.139925676834176E-2    9.913229764318783E-1    1.101450215231706E-2
 1.565888266040779E5     9.910068254651321E-1    1.118584491521667E-2    8.989961086991103E-3   -1.161988122172371E-2    8.761844019973489E-3   -1.132968033712002E-2    9.913320559857023E-1    1.096262057082462E-2
 1.577835778430689E5     9.910378339999451E-1    1.112065250699695E-2    8.978916737019893E-3   -1.154706603112354E-2    8.752026654293459E-3   -1.126377280538535E-2    9.913629605100811E-1    1.089650447885675E-2
 1.589874448699104E5     9.910142555072741E-1    1.103029575789127E-2    8.968244249144103E-3   -1.148017225553202E-2    8.742439540082910E-3   -1.119656412535975E-2    9.913666870703713E-1    1.082537057136851E-2
 1.602004972368116E5     9.910328953739052E-1    1.094823968632602E-2    8.957410516744061E-3   -1.141061486992819E-2    8.733166166427438E-3   -1.112971203317195E-2    9.913928949328263E-1    1.075111638507562E-2
 1.614228050266550E5     9.910501020803749E-1    1.090040885646948E-2    8.946795626750464E-3   -1.134413531988145E-2    8.722945673530923E-3   -1.106441386200815E-2    9.913846728680544E-1    1.067353482542151E-2
 1.626544388570473E5     9.910462252860536E-1    1.083088403613675E-2    8.938747782476541E-3   -1.127129741511470E-2    8.712724534015986E-3   -1.099994660707777E-2    9.914245246460954E-1    1.062260324305763E-2
 1.638954698843964E5     9.910258229973328E-1    1.075079104165825E-2    8.928046894256294E-3   -1.121439754910663E-2    8.704702153512938E-3   -1.093580939854532E-2    9.913891777730143E-1    1.056435857402719E-2
 1.651459698080244E5     9.910514076768826E-1    1.067081744202827E-2    8.915743816304280E-3   -1.114624695881571E-2    8.696003052725115E-3   -1.087106530895819E-2    9.914083529594914E-1    1.047297905787814E-2
 1.664060108743095E5     9.910939629297270E-1    1.061525009876046E-2    8.905223904426038E-3   -1.107805105711394E-2    8.680805007599355E-3   -1.080723664310530E-2    9.914190127155343E-1    1.041470620051821E-2
 1.676756658808590E5     9.911046876590944E-1    1.053927304244654E-2    8.896954504505004E-3   -1.101159072059341E-2    8.671369219179935E-3   -1.074348019477659E-2    9.914640842360830E-1    1.034494343463524E-2
 1.689550081807175E5     9.911094508273305E-1    1.049339399046248E-2    8.883569760983104E-3   -1.094854177398563E-2    8.660362632653377E-3   -1.068392269017270E-2    9.914831715607721E-1    1.028261919383272E-2
 1.702441116866020E5     9.911394517939981E-1    1.040145677343818E-2    8.870916383781229E-3   -1.088635350991553E-2    8.650103721653738E-3   -1.062091671796589E-2    9.914736530340080E-1    1.021159185785929E-2
 1.715430508751738E5     9.911264352172473E-1    1.035049454984285E-2    8.864219487500210E-3   -1.082351810899521E-2    8.639516510367840E-3   -1.055565003022254E-2    9.914671212317139E-1    1.013924467260196E-2
 1.728519007913403E5     9.911448026221902E-1    1.027988372164586E-2    8.849971187298430E-3   -1.076381064095183E-2    8.630137091208917E-3   -1.049756130107502E-2    9.914990091575233E-1    1.007236947279137E-2
 1.741707370525927E5     9.911740709435025E-1    1.022258877964745E-2    8.840995511124772E-3   -1.069597394789600E-2    8.621888869246719E-3   -1.043807149873581E-2    9.915126588100959E-1    1.003063989382607E-2
 1.754996358533718E5     9.911554708757347E-1    1.016550074079869E-2    8.829107316625388E-3   -1.063634465881279E-2    8.608425917670956E-3   -1.037756882080800E-2    9.915033582236168E-1    9.969836859427445E-3
 1.768386739694722E5     9.912009286285347E-1    1.009419386558990E-2    8.817604721306211E-3   -1.057538742426339E-2    8.597443113334881E-3   -1.031864841590380E-2    9.915077957936759E-1    9.896207080650043E-3
 1.781879287624771E5     9.911847621012098E-1    1.003519916927770E-2    8.805861396687943E-3   -1.051361697590846E-2    8.589224123141517E-3   -1.025853366952813E-2    9.914708418033642E-1    9.838908321135289E-3
 1.795474781842276E5     9.912035668353689E-1    9.960277974612308E-3    8.799090632008646E-3   -1.045344606557163E-2    8.577563978392905E-3   -1.019942705324095E-2    9.915155635370481E-1    9.782843243760929E-3
 1.809174007813277E5     9.911921045153200E-1    9.904331935572030E-3    8.787617995506319E-3   -1.039404493388771E-2    8.568605763620075E-3   -1.014171840736996E-2    9.915187074904597E-1    9.726599824870227E-3
 1.822977756996804E5     9.912034012385050E-1    9.838550422146104E-3    8.772890623037807E-3   -1.034013502718264E-2    8.556424650309605E-3   -1.008315221970318E-2    9.915914126535449E-1    9.655428929962222E-3
 1.836886826890609E5     9.912302937853434E-1    9.779187742394446E-3    8.764549605840683E-3   -1.027803865799309E-2    8.543734975596021E-3   -1.002567954526491E-2    9.915670075318440E-1    9.567960130928928E-3
 1.850902021077247E5     9.912501457150129E-1    9.725135927625545E-3    8.752590232098309E-3   -1.022311195759578E-2    8.537753750154595E-3   -9.970066193869307E-3    9.916297841215244E-1    9.538534817295797E-3
 1.865024149270491E5     9.912516760644385E-1    9.665641578774696E-3    8.740963789827815E-3   -1.016237739233356E-2    8.523341211797302E-3   -9.917684246701863E-3    9.915860635379025E-1    9.460339952892111E-3
 1.879254027362132E5     9.912068382250040E-1    9.585570426730722E-3    8.731758491369507E-3   -1.010176973931101E-2    8.514811831596313E-3   -9.860311023099836E-3    9.916321413132028E-1    9.409713086572338E-3
 1.893592477469092E5     9.912615520426228E-1    9.484862384180264E-3    8.699773290378554E-3   -1.004269819957124E-2    8.521256694057696E-3   -9.803030706283524E-3    9.916415372691683E-1    9.369421337303866E-3
 1.908040327980933E5     9.912421203280598E-1    9.461770721612891E-3    8.709390060504070E-3   -9.993717025805029E-3    8.488921235931512E-3   -9.748147669024246E-3    9.916399290975243E-1    9.294128332147001E-3
 1.922598413607715E5     9.912883526304892E-1    9.426588305661935E-3    8.695092210412000E-3   -9.934557557882929E-3    8.476440454832876E-3   -9.692157159009441E-3    9.916447457112020E-1    9.250093742874691E-3
 1.937267575428232E5     9.913091563543576E-1    9.360808400017193E-3    8.682272071193766E-3   -9.876230031753627E-3    8.467636705817905E-3   -9.638385424655478E-3    9.916484175109658E-1    9.172437669573924E-3
 1.952048660938581E5     9.913486361833322E-1    9.304396737202486E-3    8.669789426501096E-3   -9.822018278069104E-3    8.456666995014317E-3   -9.585977784641674E-3    9.916700658871020E-1    9.116355186489308E-3
 1.966942524101142E5     9.913472939970662E-1    9.243025589743577E-3    8.661574614310705E-3   -9.770718208162877E-3    8.445072126213897E-3   -9.532596947847459E-3    9.916768354340838E-1    9.068952460510617E-3
 1.981950025393913E5     9.913874663161358E-1    9.182201266573960E-3    8.650076090229599E-3   -9.714272333630272E-3    8.433864560487749E-3   -9.479708226010580E-3    9.916704490594173E-1    9.029224294308046E-3
