#  HZ   S   RI   R     50.00 
! Rohde & Schwarz Vector Network Analyzer 
! Rohde-Schwarz,ZNLE6-2Port,1323001256200024,1.71.1.10-23.02.1.238
! Created: UTC 4/8/2025, 2:17:32 AM
! freq[Hz]                re:S11                  im:S11                  re:S21                  im:S21                  re:S12                  im:S12                  re:S22                  im:S22
 1.000000000000000E5     9.912705679670667E-1    1.546330550457504E-2    8.807039366936331E-3   -1.565481284781968E-2    8.573584283396623E-3   -1.525789752826229E-2    9.915621820335561E-1    1.498342226093201E-2
 1.007629862646662E5     9.913070472425155E-1    1.534232467329440E-2    8.795431318384337E-3   -1.554898617211180E-2    8.571840630704477E-3   -1.515642388683631E-2    9.915846700963962E-1    1.488308583708633E-2
 1.015317940097331E5     9.913085773453424E-1    1.523962127120334E-2    8.788344484247736E-3   -1.544648143241359E-2    8.560304442655131E-3   -1.505367815068934E-2    9.915649329676905E-1    1.479263618862724E-2
 1.023064676522963E5     9.912371308986536E-1    1.511810684996627E-2    8.779036814014072E-3   -1.534501866785106E-2    8.555060681348184E-3   -1.495035549754988E-2    9.915843091361993E-1    1.466790681374581E-2
 1.030870519483485E5     9.912655947181230E-1    1.500444004288707E-2    8.773301458991621E-3   -1.524322029942104E-2    8.547428397650429E-3   -1.485004044294165E-2    9.915982281820229E-1    1.457082775732532E-2
 1.038735919953636E5     9.912967541780275E-1    1.489058939595459E-2    8.765370570650702E-3   -1.514466344273229E-2    8.539849789862558E-3   -1.475370825825103E-2    9.916352565817759E-1    1.446196461976688E-2
 1.046661332349037E5     9.912832260316327E-1    1.477137099457590E-2    8.758762514365737E-3   -1.504073098807225E-2    8.531914556668629E-3   -1.465496419383246E-2    9.915827195307342E-1    1.437156817552534E-2
 1.054647214552430E5     9.912992363352121E-1    1.467527687561338E-2    8.748225674402496E-3   -1.493564453516546E-2    8.526438970825598E-3   -1.455865254701148E-2    9.915902609376818E-1    1.426803189901078E-2
 1.062694027940149E5     9.913182881877172E-1    1.457329148941014E-2    8.737992201591927E-3   -1.483723790273386E-2    8.515450124652104E-3   -1.446086808682155E-2    9.916231140230564E-1    1.419473822438519E-2
 1.070802237408760E5     9.913137210918389E-1    1.448390149023256E-2    8.733182981657022E-3   -1.473852655738073E-2    8.506767908554320E-3   -1.436891694269426E-2    9.916547119835831E-1    1.409201744092543E-2
 1.078972311401927E5     9.913057690029442E-1    1.438136693249423E-2    8.731313618079280E-3   -1.464578526953615E-2    8.501596004363772E-3   -1.427138476642986E-2    9.916013658905152E-1    1.401174976326912E-2
 1.087204721937475E5     9.913122025500319E-1    1.428977068723341E-2    8.719553538712630E-3   -1.455024653790909E-2    8.496179731832983E-3   -1.417569403204775E-2    9.916341229298196E-1    1.390406801642988E-2
 1.095499944634658E5     9.913460281243663E-1    1.416560943110327E-2    8.711079090336204E-3   -1.445081430937671E-2    8.486302413622908E-3   -1.408689245118710E-2    9.916422720318587E-1    1.380491029684699E-2
 1.103858458741646E5     9.913255768905833E-1    1.407682675392528E-2    8.703349806415281E-3   -1.435792629339230E-2    8.478750430184165E-3   -1.399463863112679E-2    9.916733266449634E-1    1.370284684142319E-2
 1.112280747163201E5     9.913270789081376E-1    1.397837182396348E-2    8.693378159380590E-3   -1.425789151566434E-2    8.466788793780950E-3   -1.390170131159650E-2    9.916428614231954E-1    1.361627670660548E-2
 1.120767296488583E5     9.913317206854223E-1    1.387619937315507E-2    8.681968729486785E-3   -1.416285934447028E-2    8.462384445479657E-3   -1.380895056054079E-2    9.916373195070782E-1    1.351880718301616E-2
 1.129318597019661E5     9.913467213888230E-1    1.378254473722803E-2    8.675979070465157E-3   -1.407476025150960E-2    8.454386039164003E-3   -1.372043126207293E-2    9.916517369074611E-1    1.344105648931567E-2
 1.137935142799240E5     9.913259501847342E-1    1.367996058141842E-2    8.672215532864888E-3   -1.398455541734262E-2    8.443541538132059E-3   -1.363200906878843E-2    9.917126657581588E-1    1.333784052236539E-2
 1.146617431639607E5     9.913516258655115E-1    1.356460618020328E-2    8.664033543860708E-3   -1.389370091349127E-2    8.437640581849851E-3   -1.354177890925250E-2    9.917206020734426E-1    1.327073319797286E-2
 1.155365965151286E5     9.913791060759271E-1    1.348576705352254E-2    8.651187651070940E-3   -1.380167825448379E-2    8.430980822103550E-3   -1.345493077905869E-2    9.917027737765650E-1    1.316759010449212E-2
 1.164181248772018E5     9.913730561756876E-1    1.339491748806914E-2    8.644406156012455E-3   -1.371017096343251E-2    8.424608672870454E-3   -1.336610793473176E-2    9.917336779546032E-1    1.306646411004923E-2
 1.173063791795965E5     9.913803471567298E-1    1.328957437131893E-2    8.635134392165480E-3   -1.362105094363144E-2    8.415189074461947E-3   -1.327764899065851E-2    9.917215082826163E-1    1.298648831374919E-2
 1.182014107403141E5     9.913880947420051E-1    1.322540888068250E-2    8.629375955338177E-3   -1.353346818633014E-2    8.405804065600446E-3   -1.319099987378734E-2    9.917218887900091E-1    1.291228649300217E-2
 1.191032712689044E5     9.913953833898612E-1    1.312620982063910E-2    8.621952828212525E-3   -1.344587252565517E-2    8.398151188404566E-3   -1.311037635193656E-2    9.917375040111217E-1    1.281737004839394E-2
 1.200120128694542E5     9.913864702763167E-1    1.302698583143047E-2    8.617117987168675E-3   -1.336343911456193E-2    8.392380906970084E-3   -1.302190941570828E-2    9.917335719451330E-1    1.273109344907794E-2
 1.209276880435975E5     9.914351468217268E-1    1.295471122111081E-2    8.606001654676291E-3   -1.327756423131576E-2    8.382373790041430E-3   -1.293977794101784E-2    9.917620562427747E-1    1.263903138663447E-2
 1.218503496935483E5     9.914172890848734E-1    1.285810240463687E-2    8.594875175738662E-3   -1.318768728942120E-2    8.374504091747481E-3   -1.285292833597426E-2    9.917828421709224E-1    1.254355310532955E-2
 1.227800511251578E5     9.914277546675575E-1    1.274358281948548E-2    8.584022485004885E-3   -1.310426570840896E-2    8.366629815679962E-3   -1.277356380837114E-2    9.918066667430345E-1    1.246949818323815E-2
 1.237168460509929E5     9.914494049833279E-1    1.266831306893475E-2    8.579882239515561E-3   -1.302174412540649E-2    8.359240981881857E-3   -1.268950485043833E-2    9.917946276440871E-1    1.237903151238165E-2
 1.246607885934402E5     9.914567177714001E-1    1.257123558162183E-2    8.571726380042905E-3   -1.293852272282570E-2    8.350793880079739E-3   -1.261129618822436E-2    9.917719762361527E-1    1.230996855070168E-2
 1.256119332878327E5     9.914348791920674E-1    1.250999091510214E-2    8.564772257571171E-3   -1.285868830700255E-2    8.342945372908818E-3   -1.252867860000507E-2    9.917900019786409E-1    1.223615877543655E-2
 1.265703350856002E5     9.914260535524553E-1    1.241080073967035E-2    8.556174132294068E-3   -1.277454958495228E-2    8.334881168687486E-3   -1.245034392768130E-2    9.918134429228633E-1    1.214278915318524E-2
 1.275360493574453E5     9.914345245207099E-1    1.233174624349779E-2    8.547064556865202E-3   -1.269685097038238E-2    8.328918394675909E-3   -1.237137000422247E-2    9.918413140118620E-1    1.207340376124924E-2
 1.285091318965405E5     9.914598235095033E-1    1.226309821974980E-2    8.539542387877149E-3   -1.260929949419655E-2    8.319616302132458E-3   -1.229605323300322E-2    9.918610917332170E-1    1.198049481017261E-2
 1.294896389217529E5     9.914741674588915E-1    1.217798666636392E-2    8.529085424146474E-3   -1.253014807501164E-2    8.314402010507751E-3   -1.221643128424161E-2    9.918492423573601E-1    1.190504189559877E-2
 1.304776270808914E5     9.914849413707407E-1    1.208478375395637E-2    8.526201145299145E-3   -1.245406069361966E-2    8.304566102108935E-3   -1.213840309613922E-2    9.918729091830072E-1    1.182882895393490E-2
 1.314731534539810E5     9.914923723274525E-1    1.201324550628620E-2    8.516692783158177E-3   -1.238185241564055E-2    8.296129526052772E-3   -1.206446817962783E-2    9.919090740524823E-1    1.174489789951241E-2
 1.324762755565583E5     9.914691933151965E-1    1.192734520166890E-2    8.514227425739054E-3   -1.230784385536766E-2    8.287913380179063E-3   -1.198780983150410E-2    9.918762822015115E-1    1.167221738355084E-2
 1.334870513429962E5     9.914538372634494E-1    1.184335292754834E-2    8.504567048033106E-3   -1.222622165110824E-2    8.277253309182993E-3   -1.191077802443945E-2    9.918861283503320E-1    1.158819151902188E-2
 1.345055392098512E5     9.914683331968288E-1    1.177710012184670E-2    8.490949870815091E-3   -1.214918693689224E-2    8.270273084077599E-3   -1.183912758243913E-2    9.919126249271456E-1    1.153003085421867E-2
 1.355317979992373E5     9.914970074889444E-1    1.167813333358218E-2    8.477153898268678E-3   -1.206629469870238E-2    8.263842559287544E-3   -1.176146012637942E-2    9.919363210254150E-1    1.145159685474625E-2
 1.365658870022265E5     9.914884774490178E-1    1.159494555150241E-2    8.470540950783794E-3   -1.198955704271869E-2    8.254117449206176E-3   -1.168889737319714E-2    9.919392411480310E-1    1.137568121460206E-2
 1.376078659622731E5     9.915021177410106E-1    1.152828861859577E-2    8.463776491216650E-3   -1.191719818603925E-2    8.246949744553530E-3   -1.161850630346127E-2    9.919095211067093E-1    1.129774521326707E-2
 1.386577950786655E5     9.915428294156476E-1    1.145148098135606E-2    8.455628752664679E-3   -1.184375511962991E-2    8.235830540152003E-3   -1.154460520149252E-2    9.919061843481919E-1    1.121928222108845E-2
 1.397157350100044E5     9.915594989726070E-1    1.137312856849019E-2    8.447000326904010E-3   -1.176562099971238E-2    8.227949246550788E-3   -1.147534675053350E-2    9.919113071012398E-1    1.113746898795611E-2
 1.407817468777081E5     9.915821492090136E-1    1.129461330281116E-2    8.438338054232448E-3   -1.169439111790201E-2    8.221701060086991E-3   -1.140152014218979E-2    9.919296312904586E-1    1.106608492884216E-2
 1.418558922695422E5     9.915635419708684E-1    1.123699477275571E-2    8.425930264156499E-3   -1.162382263261964E-2    8.210270926319447E-3   -1.133368841379273E-2    9.919208033296543E-1    1.099726994352166E-2
 1.429382332431784E5     9.915761417685029E-1    1.114989228934676E-2    8.417687835859168E-3   -1.154735923165898E-2    8.203595513469690E-3   -1.126409462062368E-2    9.919226813929574E-1    1.091905795809009E-2
 1.440288323297804E5     9.916210957594944E-1    1.109194603617913E-2    8.405669005309905E-3   -1.148012369343720E-2    8.194899781128299E-3   -1.119544477773384E-2    9.919528407334625E-1    1.083630029253487E-2
 1.451277525376154E5     9.916319154950689E-1    1.100688024883848E-2    8.401022437750141E-3   -1.140836590315427E-2    8.191235871638426E-3   -1.112668490300328E-2    9.919401393199287E-1    1.077793111707011E-2
 1.462350573556962E5     9.916225696672999E-1    1.094602322071806E-2    8.392669441312986E-3   -1.133501546889732E-2    8.179875180825271E-3   -1.105853457528121E-2    9.919579275589699E-1    1.071460597246453E-2
 1.473508107574468E5     9.916257699444282E-1    1.087102119820548E-2    8.383414794471869E-3   -1.126813577835567E-2    8.171834764266667E-3   -1.098937071795176E-2    9.919617106120886E-1    1.064154024909652E-2
 1.484750772044004E5     9.916253833282492E-1    1.079199837213581E-2    8.373994209254908E-3   -1.120183564452683E-2    8.161457972282765E-3   -1.092216044725554E-2    9.919725217680395E-1    1.056973095863618E-2
 1.496079216499225E5     9.916454963285281E-1    1.072577543025182E-2    8.361496601769214E-3   -1.113117535936936E-2    8.155776065252883E-3   -1.085830196004556E-2    9.919515672106055E-1    1.049743206086358E-2
 1.507494095429637E5     9.916568064640616E-1    1.064975351563871E-2    8.356488205115789E-3   -1.106415777624669E-2    8.142941221316282E-3   -1.079064707684883E-2    9.920098130564291E-1    1.042815699153058E-2
 1.518996068318418E5     9.916539324183656E-1    1.059424791042531E-2    8.345385695195991E-3   -1.100187083516562E-2    8.136862021910706E-3   -1.072330209973557E-2    9.920477809968872E-1    1.036714552201345E-2
 1.530585799680507E5     9.916521083109447E-1    1.052228708121608E-2    8.334694401781096E-3   -1.092993252059024E-2    8.125394579934457E-3   -1.066192147600715E-2    9.920251268464677E-1    1.028740005528333E-2
 1.542263959101001E5     9.916921573818404E-1    1.045286191659676E-2    8.328415241829220E-3   -1.086376000870893E-2    8.118478124104222E-3   -1.059717189533388E-2    9.920171988384782E-1    1.023012863181424E-2
 1.554031221273835E5     9.916824528229237E-1    1.037992840243350E-2    8.319134400290869E-3   -1.079862316051363E-2    8.109944419136057E-3   -1.053304036842395E-2    9.920306539701385E-1    1.015888257786645E-2
 1.565888266040779E5     9.916770788987206E-1    1.029653734264449E-2    8.304884457017176E-3   -1.073182681342058E-2    8.099743931745063E-3   -1.047242061432556E-2    9.920451290540643E-1    1.010888422859110E-2
 1.577835778430689E5     9.916759310718158E-1    1.023802343057270E-2    8.298632010461427E-3   -1.066953388919324E-2    8.091232807562734E-3   -1.041048247010139E-2    9.920598171792235E-1    1.004149775568147E-2
 1.589874448699104E5     9.916766145702388E-1    1.017053263192715E-2    8.287309641200209E-3   -1.060473595445181E-2    8.082437106506257E-3   -1.034657689509620E-2    9.920601576417666E-1    9.964397995448182E-3
 1.602004972368116E5     9.916889051967089E-1    1.010166248086246E-2    8.279366689231392E-3   -1.054172401916904E-2    8.073906503178074E-3   -1.028301964882377E-2    9.920348420243064E-1    9.904576242177205E-3
 1.614228050266550E5     9.917117117047255E-1    1.003841258757229E-2    8.268351346693471E-3   -1.047660220874997E-2    8.066894743603243E-3   -1.022227088860624E-2    9.920539240456128E-1    9.841130620693084E-3
 1.626544388570473E5     9.917198188687208E-1    9.980645725227656E-3    8.258594008504800E-3   -1.041507415999393E-2    8.054696340449981E-3   -1.016428102155830E-2    9.920750089413941E-1    9.779898328072913E-3
 1.638954698843964E5     9.917214910506682E-1    9.911156960362790E-3    8.251417212835798E-3   -1.035402809012360E-2    8.044423596138007E-3   -1.010248801211743E-2    9.920808637269741E-1    9.718502389666352E-3
 1.651459698080244E5     9.917369664154536E-1    9.843103041479895E-3    8.242620207131336E-3   -1.029223214854807E-2    8.034934838116082E-3   -1.004147790566222E-2    9.920836503946532E-1    9.664882908015704E-3
 1.664060108743095E5     9.917456710022723E-1    9.771663594435697E-3    8.234239709151520E-3   -1.023071655208973E-2    8.029485497085508E-3   -9.983815371355308E-3    9.920987787259179E-1    9.595796354508841E-3
 1.676756658808590E5     9.917492644973012E-1    9.713940991945540E-3    8.220991430368448E-3   -1.017268449897144E-2    8.017409222001361E-3   -9.924248161899131E-3    9.921332450761560E-1    9.532732676731505E-3
 1.689550081807175E5     9.917339368004360E-1    9.666605977771827E-3    8.213166635993176E-3   -1.011464134407148E-2    8.009212219095308E-3   -9.869152848994674E-3    9.921741834384465E-1    9.478786106510092E-3
 1.702441116866020E5     9.918152215831009E-1    9.588502809637078E-3    8.203879197518131E-3   -1.005354126205811E-2    8.000436964170498E-3   -9.805965534766327E-3    9.921379775058259E-1    9.410418222486124E-3
 1.715430508751738E5     9.917938932813010E-1    9.535772088499551E-3    8.194253045620338E-3   -9.995960151259765E-3    7.989753521752931E-3   -9.751640150800288E-3    9.921317013926597E-1    9.339306496322792E-3
 1.728519007913403E5     9.917909807572396E-1    9.459606616357596E-3    8.183538607311056E-3   -9.939255347408757E-3    7.979431636583103E-3   -9.694583378743781E-3    9.921640256456659E-1    9.285037469775602E-3
 1.741707370525927E5     9.918211918297360E-1    9.405901151369215E-3    8.173926030544509E-3   -9.881799585826568E-3    7.973024053348271E-3   -9.641477731096549E-3    9.921433057320287E-1    9.236414036104007E-3
 1.754996358533718E5     9.917989231020931E-1    9.366380174297195E-3    8.162664790531765E-3   -9.821290788390051E-3    7.959577764623613E-3   -9.583507950867588E-3    9.921520407748551E-1    9.170314943070131E-3
 1.768386739694722E5     9.918240225411946E-1    9.295904875370466E-3    8.154667678192480E-3   -9.765049534780095E-3    7.951449987691588E-3   -9.530300721165289E-3    9.921705412643306E-1    9.107496753108769E-3
 1.781879287624771E5     9.918384217100836E-1    9.235776328729534E-3    8.142434642445181E-3   -9.709050711234454E-3    7.942243658441501E-3   -9.473288277972822E-3    9.922012950727844E-1    9.039149551419531E-3
 1.795474781842276E5     9.918564576966982E-1    9.162433183541038E-3    8.131577596350161E-3   -9.655206990773437E-3    7.928411336748799E-3   -9.416230052763550E-3    9.921919869302025E-1    8.996798159481375E-3
 1.809174007813277E5     9.918601458295991E-1    9.109306060514532E-3    8.122896535949902E-3   -9.600220743375111E-3    7.922401362188330E-3   -9.365656655496834E-3    9.922193772130068E-1    8.949395502949231E-3
 1.822977756996804E5     9.918632686704284E-1    9.043382314646773E-3    8.112635811570785E-3   -9.541286425956046E-3    7.910072746491047E-3   -9.313962553275592E-3    9.922382663733004E-1    8.880328351103785E-3
 1.836886826890609E5     9.918875358870556E-1    8.999206493236411E-3    8.103607390376537E-3   -9.490623079879102E-3    7.901175922607992E-3   -9.257036802821691E-3    9.921893078580570E-1    8.816133314447272E-3
 1.850902021077247E5     9.919254404447728E-1    8.937011153846260E-3    8.089268378054277E-3   -9.434586508410722E-3    7.889583048316946E-3   -9.206872424328692E-3    9.922366047076985E-1    8.770316744328221E-3
 1.865024149270491E5     9.919009861248409E-1    8.868154444922333E-3    8.081814042910512E-3   -9.380880237873397E-3    7.881601782124719E-3   -9.155944440838212E-3    9.922286779461379E-1    8.712588502957919E-3
 1.879254027362132E5     9.918998346325553E-1    8.805958545855546E-3    8.069203445200124E-3   -9.328728825670629E-3    7.871245349782145E-3   -9.103119754347576E-3    9.922762389516752E-1    8.654182706494387E-3
 1.893592477469092E5     9.919144969655493E-1    8.771670793160095E-3    8.071738270572292E-3   -9.253614009598551E-3    7.873993650282329E-3   -9.064871205497468E-3    9.922638951429996E-1    8.607055452770601E-3
 1.908040327980933E5     9.918956826279038E-1    8.686681498094338E-3    8.046430815411223E-3   -9.223933038122915E-3    7.851969172191192E-3   -8.997193999629401E-3    9.922606439695915E-1    8.550868461941349E-3
 1.922598413607715E5     9.919301510677760E-1    8.653497160022623E-3    8.036418340167838E-3   -9.170269828240155E-3    7.839133658176409E-3   -8.950544592589560E-3    9.922788718212016E-1    8.489912323576652E-3
 1.937267575428232E5     9.919747853045033E-1    8.607510120457781E-3    8.027530334359255E-3   -9.117419161967764E-3    7.828018976054852E-3   -8.894706073861600E-3    9.923161691988935E-1    8.434144363101274E-3
 1.952048660938581E5     9.919983090353695E-1    8.556343515664739E-3    8.015207435162040E-3   -9.065501250222319E-3    7.821327394753986E-3   -8.850024889661100E-3    9.923395433781129E-1    8.384491627253970E-3
 1.966942524101142E5     9.920077890060253E-1    8.481026843986016E-3    8.006627069507551E-3   -9.012935590091444E-3    7.809419297562847E-3   -8.798803781876615E-3    9.923099387912494E-1    8.329002154819732E-3
 1.981950025393913E5     9.920060810589486E-1    8.422077594156852E-3    7.995746883032956E-3   -8.969863528304435E-3    7.799543508876768E-3   -8.749425601130408E-3    9.923441687992454E-1    8.295356299681722E-3
