#  HZ   S   RI   R     50.00 
! Rohde & Schwarz Vector Network Analyzer 
! Rohde-Schwarz,ZNLE6-2Port,1323001256200024,1.71.1.10-23.02.1.238
! Created: UTC 4/8/2025, 2:07:41 AM
! freq[Hz]                re:S11                  im:S11                  re:S21                  im:S21                  re:S12                  im:S12                  re:S22                  im:S22
 1.000000000000000E5     9.919730697415009E-1    1.434270122714206E-2    8.157923383284875E-3   -1.452028188353772E-2    7.944650350501466E-3   -1.415067560265335E-2    9.922004958153264E-1    1.388224260630762E-2
 1.007629862646662E5     9.919726275259142E-1    1.422607510080427E-2    8.149357214047545E-3   -1.441922486543165E-2    7.937611068797082E-3   -1.405552491101867E-2    9.922100222225093E-1    1.376697884196665E-2
 1.015317940097331E5     9.919805111010225E-1    1.413819697757752E-2    8.145091613973639E-3   -1.432641982685200E-2    7.930605921273039E-3   -1.396268635432166E-2    9.921993363469297E-1    1.370852579957387E-2
 1.023064676522963E5     9.919715304109267E-1    1.401673317334530E-2    8.133710870974793E-3   -1.423284047264890E-2    7.923518068944360E-3   -1.387076764170856E-2    9.922154217247943E-1    1.359478375443435E-2
 1.030870519483485E5     9.919602460623259E-1    1.393665813749217E-2    8.130441127748541E-3   -1.413983652699237E-2    7.915893143766397E-3   -1.377426457587143E-2    9.922165357604235E-1    1.351778505243957E-2
 1.038735919953636E5     9.919941611260306E-1    1.381877564499999E-2    8.119283079869347E-3   -1.404116864229613E-2    7.910728048549623E-3   -1.368370010622485E-2    9.922459810321039E-1    1.340799476931054E-2
 1.046661332349037E5     9.919544574420717E-1    1.370087562682468E-2    8.114443325447708E-3   -1.394778314776285E-2    7.905173954856478E-3   -1.359214870288794E-2    9.922341231027784E-1    1.331491855189191E-2
 1.054647214552430E5     9.919762953547785E-1    1.359530569714578E-2    8.106139405073988E-3   -1.385230482891562E-2    7.897002639576689E-3   -1.350207315750414E-2    9.922396350909495E-1    1.322054163714725E-2
 1.062694027940149E5     9.920088193410147E-1    1.351018624405001E-2    8.101355710038251E-3   -1.376248213824288E-2    7.889440690782823E-3   -1.341176180287643E-2    9.922718188351991E-1    1.314060074177749E-2
 1.070802237408760E5     9.920063273320827E-1    1.343171584610175E-2    8.093617146201401E-3   -1.366789371756396E-2    7.883449308256579E-3   -1.332340270293929E-2    9.922672796159168E-1    1.305517369664992E-2
 1.078972311401927E5     9.919944814772066E-1    1.332295173558322E-2    8.086292867223545E-3   -1.358536029293528E-2    7.877407963449774E-3   -1.323528391074369E-2    9.922805851960322E-1    1.295557654509812E-2
 1.087204721937475E5     9.919890966395996E-1    1.322747566544701E-2    8.076940230783864E-3   -1.349301915918073E-2    7.867284781904885E-3   -1.314650953278939E-2    9.922870313509952E-1    1.287204338757784E-2
 1.095499944634658E5     9.920232862437950E-1    1.312680915346610E-2    8.070595282306792E-3   -1.340378299766552E-2    7.862482750869038E-3   -1.305945621216207E-2    9.922804985781434E-1    1.278491654911974E-2
 1.103858458741646E5     9.919900602359227E-1    1.304411719821393E-2    8.062343414235939E-3   -1.331160146978029E-2    7.849743592726798E-3   -1.297177779881025E-2    9.922883884936983E-1    1.268366303192157E-2
 1.112280747163201E5     9.919877725645407E-1    1.295975263535292E-2    8.051426854195584E-3   -1.322116840615659E-2    7.847120720286056E-3   -1.288907798760659E-2    9.922528516604039E-1    1.261488377213642E-2
 1.120767296488583E5     9.919813825070606E-1    1.285468880486822E-2    8.046077502890931E-3   -1.313718670135688E-2    7.839522590658468E-3   -1.280448189523622E-2    9.922586483373556E-1    1.251491325654894E-2
 1.129318597019661E5     9.919688215490975E-1    1.277474218057926E-2    8.037380051743662E-3   -1.305405331948613E-2    7.834086695575936E-3   -1.272201914563723E-2    9.922761120550995E-1    1.242927809539281E-2
 1.137935142799240E5     9.919784814636008E-1    1.267272387693615E-2    8.037810635066110E-3   -1.296945991208418E-2    7.828967424737810E-3   -1.263801979680599E-2    9.923009321610723E-1    1.235028299646633E-2
 1.146617431639607E5     9.919728848483277E-1    1.257607071175877E-2    8.025900286999102E-3   -1.288126645261872E-2    7.822847584521762E-3   -1.255382578566059E-2    9.923015123601899E-1    1.226037549079450E-2
 1.155365965151286E5     9.920174597126672E-1    1.249212330252573E-2    8.017834133053575E-3   -1.280095949557114E-2    7.810828970953565E-3   -1.247277213984579E-2    9.922943133822055E-1    1.218197383905200E-2
 1.164181248772018E5     9.920046230704396E-1    1.240981656320845E-2    8.009338194341041E-3   -1.271099626961905E-2    7.805904299853365E-3   -1.238852294398102E-2    9.923404547961181E-1    1.208532496855633E-2
 1.173063791795965E5     9.920185386795062E-1    1.232569314618847E-2    8.001279982959863E-3   -1.262986350984261E-2    7.796231857052099E-3   -1.231282287688663E-2    9.923269147821557E-1    1.202614085191773E-2
 1.182014107403141E5     9.920608500962722E-1    1.224196845194507E-2    7.996698121990083E-3   -1.255008879195721E-2    7.792454125688719E-3   -1.223006000098183E-2    9.923285418086411E-1    1.194761549507490E-2
 1.191032712689044E5     9.920643709003993E-1    1.215279888051125E-2    7.995182061724334E-3   -1.246735798279548E-2    7.780069491743615E-3   -1.214955392370174E-2    9.923569476093943E-1    1.187099482074960E-2
 1.200120128694542E5     9.920325620045352E-1    1.206125362496170E-2    7.983990885952832E-3   -1.238935966723192E-2    7.777637374985817E-3   -1.207394434053435E-2    9.923734566186859E-1    1.179907865740324E-2
 1.209276880435975E5     9.920622387785740E-1    1.198211234842614E-2    7.974300722780313E-3   -1.230994389601772E-2    7.771209085081641E-3   -1.199208074546427E-2    9.923991755979977E-1    1.169440997475992E-2
 1.218503496935483E5     9.920685734651573E-1    1.190068263012005E-2    7.965987452495145E-3   -1.222634531736703E-2    7.761990162597402E-3   -1.191803052756464E-2    9.923948588949287E-1    1.162525729641249E-2
 1.227800511251578E5     9.920699199132988E-1    1.179444352960869E-2    7.956160953127921E-3   -1.214774685586684E-2    7.756699725362826E-3   -1.184096552451843E-2    9.924232493675411E-1    1.154500547906773E-2
 1.237168460509929E5     9.920890119879144E-1    1.172349814052842E-2    7.950245799300844E-3   -1.207229567926280E-2    7.747480939602004E-3   -1.176666315030945E-2    9.924158971897704E-1    1.147813998247166E-2
 1.246607885934402E5     9.921008479038246E-1    1.165330298681254E-2    7.947088527447769E-3   -1.199416425948638E-2    7.740720233433392E-3   -1.169223459618132E-2    9.923947116007820E-1    1.141056208496940E-2
 1.256119332878327E5     9.921152971600860E-1    1.159202168758078E-2    7.939685751289451E-3   -1.191813495742633E-2    7.735252868884218E-3   -1.161498633683132E-2    9.924094424243145E-1    1.132815448908225E-2
 1.265703350856002E5     9.921118980527861E-1    1.151089971237809E-2    7.933483121092402E-3   -1.184348172975498E-2    7.726159983406995E-3   -1.154517143500921E-2    9.924463055381336E-1    1.124113745260438E-2
 1.275360493574453E5     9.921145304770599E-1    1.141018355103216E-2    7.923960012895557E-3   -1.176753276785742E-2    7.717034627869270E-3   -1.146849703144016E-2    9.924383443585830E-1    1.117863451072459E-2
 1.285091318965405E5     9.921341671033143E-1    1.133986657197739E-2    7.912561983533926E-3   -1.169062938372022E-2    7.710616068976067E-3   -1.139731218279437E-2    9.924441754729478E-1    1.110198453563222E-2
 1.294896389217529E5     9.921004084222366E-1    1.126673860347870E-2    7.907854694750902E-3   -1.161545244728159E-2    7.705773380431571E-3   -1.132448842426612E-2    9.924209714362224E-1    1.103159273439200E-2
 1.304776270808914E5     9.921438317390276E-1    1.118741468973301E-2    7.901163305664444E-3   -1.154219043281890E-2    7.696435934692434E-3   -1.125436224268618E-2    9.924664009893487E-1    1.095272260394643E-2
 1.314731534539810E5     9.921374619041311E-1    1.111582762755901E-2    7.896791518711123E-3   -1.147472322802264E-2    7.691241928303367E-3   -1.118337916149667E-2    9.924886309087818E-1    1.086597089812831E-2
 1.324762755565583E5     9.920921106935535E-1    1.104051614909591E-2    7.891208311629955E-3   -1.140601407080958E-2    7.685008226878160E-3   -1.111265056360501E-2    9.924589953911293E-1    1.080364061290776E-2
 1.334870513429962E5     9.921286524717279E-1    1.095249451529632E-2    7.880468625588331E-3   -1.133451363993969E-2    7.675025624155625E-3   -1.104320735890518E-2    9.924707034590207E-1    1.072818279468362E-2
 1.345055392098512E5     9.921348485196706E-1    1.088308299654933E-2    7.876827260902896E-3   -1.125972496989740E-2    7.670369296358020E-3   -1.097093332394847E-2    9.924978520918999E-1    1.066379698776511E-2
 1.355317979992373E5     9.921408705495204E-1    1.080534102914071E-2    7.860571213048699E-3   -1.118040185407582E-2    7.659694659914032E-3   -1.090486854294346E-2    9.925442665416923E-1    1.059591219409340E-2
 1.365658870022265E5     9.921445548481505E-1    1.071207438818498E-2    7.852799507492288E-3   -1.110958628195745E-2    7.655012719759886E-3   -1.083735083727789E-2    9.925127295737391E-1    1.053032283928476E-2
 1.376078659622731E5     9.921498373026593E-1    1.066208189128626E-2    7.847350541180260E-3   -1.104099418671222E-2    7.647104167223343E-3   -1.076837682230626E-2    9.925099321476324E-1    1.043508728378214E-2
 1.386577950786655E5     9.921915495865076E-1    1.060041320275034E-2    7.836103687199693E-3   -1.097358426656996E-2    7.636214241008207E-3   -1.070036353344605E-2    9.925138373330689E-1    1.037431112116982E-2
 1.397157350100044E5     9.921776477994692E-1    1.050162943333708E-2    7.827863411814651E-3   -1.090475343873890E-2    7.631059046696562E-3   -1.063262192517158E-2    9.925212494847800E-1    1.030347760553024E-2
 1.407817468777081E5     9.922081590569970E-1    1.044683319058100E-2    7.819157272782856E-3   -1.083715437180299E-2    7.623259830851233E-3   -1.057157550752210E-2    9.925225962042712E-1    1.024129407462266E-2
 1.418558922695422E5     9.921783441474449E-1    1.036611829820933E-2    7.811314452205617E-3   -1.076672427902331E-2    7.614780952186335E-3   -1.050631356972414E-2    9.925060107986040E-1    1.016573702154428E-2
 1.429382332431784E5     9.922097813416937E-1    1.030038385919624E-2    7.805049246238024E-3   -1.069786149056739E-2    7.608601276920018E-3   -1.043976064249605E-2    9.925483168475995E-1    1.010784326149875E-2
 1.440288323297804E5     9.922274782700228E-1    1.025804332908464E-2    7.796633966181367E-3   -1.063573860998657E-2    7.598730402805088E-3   -1.037629552406990E-2    9.925940448893676E-1    1.003187629629299E-2
 1.451277525376154E5     9.922287086032070E-1    1.016462407357308E-2    7.788492621565518E-3   -1.056905075859729E-2    7.588950335935931E-3   -1.030960215213871E-2    9.925789595429529E-1    9.972406508653931E-3
 1.462350573556962E5     9.922376383154231E-1    1.009826289576994E-2    7.779188623621044E-3   -1.050634473420236E-2    7.582231596512825E-3   -1.024585500659833E-2    9.925993328014961E-1    9.911631718862057E-3
 1.473508107574468E5     9.922326062040561E-1    1.004293228880784E-2    7.770637788014902E-3   -1.044118559224587E-2    7.574452948226973E-3   -1.018469434820977E-2    9.925928062533860E-1    9.843970741380591E-3
 1.484750772044004E5     9.922384590436457E-1    9.967256475167413E-3    7.761022838295435E-3   -1.037768987030071E-2    7.568669636769750E-3   -1.012160299230424E-2    9.925947446663806E-1    9.778966930959776E-3
 1.496079216499225E5     9.922597001850471E-1    9.899520106338398E-3    7.751614731534986E-3   -1.031125473720834E-2    7.559861477137318E-3   -1.006038856718573E-2    9.925615879261013E-1    9.698362845281435E-3
 1.507494095429637E5     9.922569316739258E-1    9.828734991222049E-3    7.745488049957170E-3   -1.024850286710442E-2    7.551817475087539E-3   -1.000059224793997E-2    9.926057961430742E-1    9.633754716956084E-3
 1.518996068318418E5     9.922434745007085E-1    9.784613983693237E-3    7.736311640587400E-3   -1.018733508674567E-2    7.545868158101162E-3   -9.936812333183455E-3    9.926227061935394E-1    9.570468803175742E-3
 1.530585799680507E5     9.922347760634104E-1    9.709259928273728E-3    7.728875254494831E-3   -1.012603789395075E-2    7.536147391854150E-3   -9.876534914052708E-3    9.926278636218393E-1    9.496103410054411E-3
 1.542263959101001E5     9.922610709562356E-1    9.652792484245059E-3    7.721291576870968E-3   -1.006379920433227E-2    7.527745221231362E-3   -9.817736146066593E-3    9.926327713929053E-1    9.453947992685743E-3
 1.554031221273835E5     9.922976017599491E-1    9.578295850981267E-3    7.712357761053328E-3   -1.000431941592216E-2    7.519915241799566E-3   -9.759257105926678E-3    9.926473748226977E-1    9.381557358167219E-3
 1.565888266040779E5     9.922750384046334E-1    9.511672991363018E-3    7.705473382015020E-3   -9.942973763483069E-3    7.511732785497333E-3   -9.700024452881116E-3    9.926583604910016E-1    9.342243994131454E-3
 1.577835778430689E5     9.922927920557451E-1    9.445169062026738E-3    7.693934652245666E-3   -9.881302863530700E-3    7.504999535883235E-3   -9.642901381786797E-3    9.926967855088794E-1    9.277969329248174E-3
 1.589874448699104E5     9.922974871957480E-1    9.382711813453315E-3    7.685640161178267E-3   -9.822136834377189E-3    7.493866379751206E-3   -9.585112526922080E-3    9.926956956326817E-1    9.218573514312616E-3
 1.602004972368116E5     9.923006889928258E-1    9.327111258940882E-3    7.677239895980684E-3   -9.766708507515928E-3    7.485663996436723E-3   -9.527903542357320E-3    9.926848375854422E-1    9.166934476495556E-3
 1.614228050266550E5     9.923348749352224E-1    9.259032547040743E-3    7.668274061702993E-3   -9.706307839107970E-3    7.477237333580158E-3   -9.472859753598727E-3    9.927175425608052E-1    9.102708264342710E-3
 1.626544388570473E5     9.923199227644621E-1    9.201395989581777E-3    7.660542095419040E-3   -9.648571659968352E-3    7.468900069820335E-3   -9.412701709837613E-3    9.927212120729130E-1    9.043193398915192E-3
 1.638954698843964E5     9.923070407981072E-1    9.133587779257541E-3    7.654960804739696E-3   -9.590909348239253E-3    7.463803320280877E-3   -9.359369393049847E-3    9.927149839351207E-1    8.995211170230954E-3
 1.651459698080244E5     9.923448122851070E-1    9.079241762220927E-3    7.641011691073555E-3   -9.532696832340138E-3    7.455379933367244E-3   -9.301863328993097E-3    9.927368653447685E-1    8.925436725171869E-3
 1.664060108743095E5     9.923598571725036E-1    9.020008380139354E-3    7.633410660545843E-3   -9.478961419441958E-3    7.443826262663783E-3   -9.248761064281083E-3    9.927459158591067E-1    8.862529445990789E-3
 1.676756658808590E5     9.923589550869069E-1    8.953903818153360E-3    7.620439715435277E-3   -9.421430346718069E-3    7.434728694236796E-3   -9.193014058045778E-3    9.927694581047579E-1    8.805197947005343E-3
 1.689550081807175E5     9.923588230900792E-1    8.915021184371144E-3    7.615641686870700E-3   -9.367332026742484E-3    7.426655023751932E-3   -9.137155945687080E-3    9.927863189282046E-1    8.742347924484452E-3
 1.702441116866020E5     9.924038625593601E-1    8.836978008789350E-3    7.606986621999214E-3   -9.313279393236925E-3    7.416590944623875E-3   -9.083608554317684E-3    9.927802706371591E-1    8.689469061396849E-3
 1.715430508751738E5     9.923820693321930E-1    8.784825078944031E-3    7.594878371351606E-3   -9.256213440325579E-3    7.411453103133460E-3   -9.031477392047281E-3    9.927717526952150E-1    8.636190572433772E-3
 1.728519007913403E5     9.923938635906401E-1    8.726146737760948E-3    7.587255546429961E-3   -9.196914221550105E-3    7.401644456405424E-3   -8.979073284249899E-3    9.927847087842017E-1    8.573080805709421E-3
 1.741707370525927E5     9.924387768984754E-1    8.665142031062951E-3    7.578703527463799E-3   -9.146192841133620E-3    7.393173752198642E-3   -8.926358539722139E-3    9.927681095114321E-1    8.527557350902200E-3
 1.754996358533718E5     9.924085586293355E-1    8.639334619676994E-3    7.570594706208356E-3   -9.092267605151697E-3    7.382426993836752E-3   -8.873003409768246E-3    9.927733909729459E-1    8.470277825858867E-3
 1.768386739694722E5     9.924387895275406E-1    8.555520839864193E-3    7.558028099347105E-3   -9.041414811333269E-3    7.371438804254311E-3   -8.822144993676874E-3    9.927725099043011E-1    8.409115572543424E-3
 1.781879287624771E5     9.924311967158477E-1    8.509237083681885E-3    7.549002261996039E-3   -8.991595188114343E-3    7.367261580976811E-3   -8.769661503220460E-3    9.927719698883291E-1    8.356770461029225E-3
 1.795474781842276E5     9.924495014397196E-1    8.438756465902848E-3    7.543399892698015E-3   -8.937561812941038E-3    7.357087452687017E-3   -8.717085886729434E-3    9.928068786179750E-1    8.312590044386758E-3
 1.809174007813277E5     9.924391589455558E-1    8.397234707636574E-3    7.531847892768363E-3   -8.883645286839320E-3    7.346826074013859E-3   -8.669010794646265E-3    9.928392329111726E-1    8.265682718700047E-3
 1.822977756996804E5     9.924677174308354E-1    8.334458629045732E-3    7.521962395280224E-3   -8.833295746748234E-3    7.338143415357440E-3   -8.621280483406624E-3    9.928806326270192E-1    8.192018616827938E-3
 1.836886826890609E5     9.925038719764206E-1    8.283892490562390E-3    7.516601605192760E-3   -8.784843513004436E-3    7.330820527253605E-3   -8.571889633582590E-3    9.928551472855675E-1    8.140362763017984E-3
 1.850902021077247E5     9.925321066567513E-1    8.233695767586520E-3    7.505332119046863E-3   -8.734058765951085E-3    7.318992143832406E-3   -8.519409502637489E-3    9.928724085510143E-1    8.104587571824525E-3
 1.865024149270491E5     9.925020792205405E-1    8.180024987013378E-3    7.495628526903185E-3   -8.682001499616079E-3    7.310462062828951E-3   -8.473943891409690E-3    9.928691367463992E-1    8.029045062372514E-3
 1.879254027362132E5     9.924894758145817E-1    8.107375511189228E-3    7.484513536017810E-3   -8.631674685926138E-3    7.304582217843510E-3   -8.427204578839850E-3    9.929370632042492E-1    7.995507722161571E-3
 1.893592477469092E5     9.925162155006718E-1    8.026966732852674E-3    7.458300543754672E-3   -8.580871603372684E-3    7.284000016490753E-3   -8.362604707387191E-3    9.929038284141836E-1    7.950678601163526E-3
 1.908040327980933E5     9.925299902247809E-1    8.013879290269950E-3    7.464081968110692E-3   -8.534934511888820E-3    7.282763276301591E-3   -8.329141928886711E-3    9.928934756538962E-1    7.897196611341124E-3
 1.922598413607715E5     9.925344814805560E-1    7.974905236794037E-3    7.453935536474698E-3   -8.487035804275936E-3    7.273152866275299E-3   -8.281177010218879E-3    9.928858386049429E-1    7.835866330874833E-3
 1.937267575428232E5     9.925771088355451E-1    7.928951686659620E-3    7.446107111084435E-3   -8.439381317249967E-3    7.263189219671365E-3   -8.231248222811996E-3    9.929068904518671E-1    7.788227135288518E-3
 1.952048660938581E5     9.926110496581182E-1    7.877906530964748E-3    7.437254343448902E-3   -8.390506825575851E-3    7.253208874178145E-3   -8.185507216089464E-3    9.929156355799701E-1    7.721849840539594E-3
 1.966942524101142E5     9.925989587958121E-1    7.819877234826687E-3    7.426632500908441E-3   -8.341512214170071E-3    7.243688109818467E-3   -8.144438884764392E-3    9.928971564533408E-1    7.682905361708230E-3
 1.981950025393913E5     9.926033270249197E-1    7.758363909153026E-3    7.417189855174502E-3   -8.296325795461195E-3    7.235376140611321E-3   -8.096580941831187E-3    9.929452636704180E-1    7.642636524012058E-3
