#  HZ   S   RI   R     50.00 
! Rohde & Schwarz Vector Network Analyzer 
! Rohde-Schwarz,ZNLE6-2Port,1323001256200024,1.71.1.10-23.02.1.238
! Created: UTC 4/8/2025, 1:58:14 AM
! freq[Hz]                re:S11                  im:S11                  re:S21                  im:S21                  re:S12                  im:S12                  re:S22                  im:S22
 1.000000000000000E5     9.925157313978424E-1    1.333416351429239E-2    7.573816825068635E-3   -1.352019845878945E-2    7.378409880995058E-3   -1.317549820657310E-2    9.927745666330494E-1    1.291817325918373E-2
 1.007629862646662E5     9.925273692918108E-1    1.321610665896771E-2    7.562778131798563E-3   -1.342593671031155E-2    7.369446123092754E-3   -1.308427151166410E-2    9.927425396070243E-1    1.281992728480747E-2
 1.015317940097331E5     9.925500988016175E-1    1.311579776910852E-2    7.558847241888193E-3   -1.333614472314603E-2    7.362367174735005E-3   -1.299291828126005E-2    9.927449952292641E-1    1.274224614323373E-2
 1.023064676522963E5     9.924965641119859E-1    1.300980318752800E-2    7.553839112291755E-3   -1.324731717805971E-2    7.355088740611406E-3   -1.290826498619767E-2    9.927762776979430E-1    1.263434320812455E-2
 1.030870519483485E5     9.924995103609432E-1    1.292069893868034E-2    7.547763793487169E-3   -1.316190665520292E-2    7.350037881123150E-3   -1.281933125741696E-2    9.927790458972512E-1    1.256343703288334E-2
 1.038735919953636E5     9.925050762413544E-1    1.282175494547796E-2    7.542193549610233E-3   -1.307431993644490E-2    7.342819314977784E-3   -1.273435437868201E-2    9.928084059626910E-1    1.245807610715998E-2
 1.046661332349037E5     9.924890804800887E-1    1.272352338742794E-2    7.535278752231153E-3   -1.298195066790613E-2    7.339594981143883E-3   -1.265118757834855E-2    9.927888595346229E-1    1.237231311982714E-2
 1.054647214552430E5     9.925097276547240E-1    1.261846385605193E-2    7.527186931016228E-3   -1.289468260416214E-2    7.334529610181823E-3   -1.256411444566279E-2    9.927964107331638E-1    1.227105940353307E-2
 1.062694027940149E5     9.925393973649430E-1    1.253492456631893E-2    7.517905198832188E-3   -1.281144388354365E-2    7.326891650132809E-3   -1.248406266867728E-2    9.928219833847133E-1    1.221367559186271E-2
 1.070802237408760E5     9.925298480296790E-1    1.245770126643526E-2    7.514412454129420E-3   -1.272557052279306E-2    7.319860068357542E-3   -1.240067066459189E-2    9.928533002704840E-1    1.212771269243575E-2
 1.078972311401927E5     9.925560710373724E-1    1.236629414105450E-2    7.507894462963828E-3   -1.264363973982521E-2    7.312100624954809E-3   -1.231707839304492E-2    9.928164425329281E-1    1.204617688904610E-2
 1.087204721937475E5     9.925357016177813E-1    1.228205120973963E-2    7.499662560241632E-3   -1.256006794768543E-2    7.308766610188556E-3   -1.223391525514473E-2    9.928389244403847E-1    1.196807976743365E-2
 1.095499944634658E5     9.925753861739831E-1    1.218064349107836E-2    7.493327992427986E-3   -1.247484073713631E-2    7.301805393432941E-3   -1.215425458628251E-2    9.928255983845150E-1    1.188143884364043E-2
 1.103858458741646E5     9.925327589628344E-1    1.210262729523604E-2    7.489040524053300E-3   -1.239106403829510E-2    7.292843897794331E-3   -1.207312412588019E-2    9.928573347780684E-1    1.179108296342966E-2
 1.112280747163201E5     9.925353359845001E-1    1.201142005111977E-2    7.481951072105273E-3   -1.230602143656247E-2    7.286744469645905E-3   -1.199459507456751E-2    9.928173625210402E-1    1.171110880549006E-2
 1.120767296488583E5     9.925413880382176E-1    1.192033734058510E-2    7.475167456698188E-3   -1.222635993486868E-2    7.279910256646792E-3   -1.191962778232941E-2    9.928242118155037E-1    1.163326797226949E-2
 1.129318597019661E5     9.925617056727605E-1    1.184063044878835E-2    7.474216035133745E-3   -1.214629477252056E-2    7.277201525301773E-3   -1.183899923925773E-2    9.928586973953831E-1    1.155797079328079E-2
 1.137935142799240E5     9.925540785507977E-1    1.174933320603336E-2    7.463357569936206E-3   -1.206977092983034E-2    7.270593733336721E-3   -1.175830643460289E-2    9.928714825419636E-1    1.147758436898427E-2
 1.146617431639607E5     9.925725673961586E-1    1.165653332787511E-2    7.456637141212820E-3   -1.199128475713994E-2    7.262754053499313E-3   -1.168173319366922E-2    9.928720093497019E-1    1.141119128198582E-2
 1.155365965151286E5     9.926044459524228E-1    1.158564011598891E-2    7.450594777288629E-3   -1.191206247182381E-2    7.256573120852058E-3   -1.160662282532829E-2    9.928702351477885E-1    1.132580530175512E-2
 1.164181248772018E5     9.926164538891671E-1    1.150668676602869E-2    7.442361038366018E-3   -1.182890277775238E-2    7.250036266775784E-3   -1.152813771480748E-2    9.928927587654575E-1    1.124353799768698E-2
 1.173063791795965E5     9.925848643746332E-1    1.143087900332802E-2    7.433104502091284E-3   -1.175440472329646E-2    7.241682603819493E-3   -1.145451766184081E-2    9.928825026580937E-1    1.115810504670096E-2
 1.182014107403141E5     9.926445391675310E-1    1.135428773220199E-2    7.427066644159600E-3   -1.168114057105204E-2    7.238812088692963E-3   -1.138202388937806E-2    9.928844853902846E-1    1.110533120253615E-2
 1.191032712689044E5     9.926042333892020E-1    1.127115284359921E-2    7.423252569803388E-3   -1.160728526383650E-2    7.230585093918980E-3   -1.130838385926268E-2    9.929094227814682E-1    1.100271862197942E-2
 1.200120128694542E5     9.925896491345489E-1    1.117618387146069E-2    7.415751652001981E-3   -1.152821139818843E-2    7.224742009162751E-3   -1.123628504814892E-2    9.929096820672602E-1    1.093891243091405E-2
 1.209276880435975E5     9.925947776970527E-1    1.112216265051962E-2    7.409726322253506E-3   -1.145231046678773E-2    7.215123486401145E-3   -1.116301228698315E-2    9.929480593106472E-1    1.084645812287940E-2
 1.218503496935483E5     9.926089825588742E-1    1.103748435426178E-2    7.406610531330217E-3   -1.137830729899471E-2    7.209254709250060E-3   -1.108792911254197E-2    9.929419303600867E-1    1.077959643311220E-2
 1.227800511251578E5     9.926235921481777E-1    1.093563200429488E-2    7.397655354378620E-3   -1.130266699023331E-2    7.204264917430733E-3   -1.101752003437394E-2    9.929431696633627E-1    1.070809252097267E-2
 1.237168460509929E5     9.926116694910806E-1    1.087248050436202E-2    7.389497885080270E-3   -1.122890345461114E-2    7.199872726846531E-3   -1.094799519418505E-2    9.929215930530415E-1    1.065133145817656E-2
 1.246607885934402E5     9.926325523849381E-1    1.079303638047876E-2    7.381936091788039E-3   -1.115822108999086E-2    7.188223506889503E-3   -1.087622887580085E-2    9.929066974132359E-1    1.058414314205180E-2
 1.256119332878327E5     9.926452481670568E-1    1.073750603606738E-2    7.375626284049862E-3   -1.108896636140907E-2    7.188646583232526E-3   -1.080695263253028E-2    9.929533089456218E-1    1.051294927793462E-2
 1.265703350856002E5     9.926232935028715E-1    1.064714258603356E-2    7.368503779987933E-3   -1.101920974176439E-2    7.179833597947483E-3   -1.073587745138379E-2    9.929993465898009E-1    1.043428721538382E-2
 1.275360493574453E5     9.926349432449342E-1    1.058193589473078E-2    7.362191856574093E-3   -1.094746128596920E-2    7.172070040830174E-3   -1.066915936133940E-2    9.929912709674643E-1    1.036055455688597E-2
 1.285091318965405E5     9.926631018259466E-1    1.051414695088455E-2    7.353306412453769E-3   -1.087767889637803E-2    7.166883353720986E-3   -1.060149651377596E-2    9.929995023730412E-1    1.027648039828557E-2
 1.294896389217529E5     9.926626212785905E-1    1.043981857100747E-2    7.345546379009712E-3   -1.080853375311494E-2    7.157718665684210E-3   -1.053426353319189E-2    9.929830593123617E-1    1.022243207590479E-2
 1.304776270808914E5     9.927098216983523E-1    1.036791513743456E-2    7.344262702140127E-3   -1.073836572032036E-2    7.154408147320386E-3   -1.046780150382850E-2    9.929927473587284E-1    1.015904426819967E-2
 1.314731534539810E5     9.926980774483799E-1    1.031269817185683E-2    7.339331331746147E-3   -1.067587832229479E-2    7.144319275705898E-3   -1.040089038868081E-2    9.929946008125010E-1    1.007625725016979E-2
 1.324762755565583E5     9.926773350037797E-1    1.025161014016494E-2    7.332132327131286E-3   -1.061024675325222E-2    7.138311992303730E-3   -1.033368052753715E-2    9.929926710307482E-1    1.001045599330728E-2
 1.334870513429962E5     9.926761113578069E-1    1.016424647695384E-2    7.322321076085635E-3   -1.054499232086352E-2    7.133067144012123E-3   -1.027221325258294E-2    9.930078902014565E-1    9.948848376169824E-3
 1.345055392098512E5     9.927024171723102E-1    1.009524646115251E-2    7.317478004035877E-3   -1.047757263168855E-2    7.123658508989996E-3   -1.020546307336698E-2    9.930130630840335E-1    9.891681605999465E-3
 1.355317979992373E5     9.927357920705296E-1    1.000267752263630E-2    7.308085930034818E-3   -1.040139481365892E-2    7.116023605334735E-3   -1.014048254669401E-2    9.930420728107011E-1    9.830129062387323E-3
 1.365658870022265E5     9.927024779526115E-1    9.927026793047673E-3    7.294457817607127E-3   -1.033479494160141E-2    7.112862071794353E-3   -1.007656672681690E-2    9.930418899173713E-1    9.764624183724771E-3
 1.376078659622731E5     9.926796127832176E-1    9.880937727701669E-3    7.288019549650865E-3   -1.027218947209267E-2    7.103677936305507E-3   -1.001232762921537E-2    9.930102362656629E-1    9.684974322634146E-3
 1.386577950786655E5     9.927434482218389E-1    9.814927604567496E-3    7.284546583576271E-3   -1.020613388499171E-2    7.098497579698858E-3   -9.952565414827769E-3    9.930428174510273E-1    9.639806388001449E-3
 1.397157350100044E5     9.927529569879514E-1    9.757669522654789E-3    7.274213934982179E-3   -1.014153151962786E-2    7.090729885694354E-3   -9.886318940576476E-3    9.930579098923482E-1    9.570819396100744E-3
 1.407817468777081E5     9.927768933568750E-1    9.684130648365326E-3    7.270956657959553E-3   -1.007824290511931E-2    7.084519762273299E-3   -9.828999630809646E-3    9.930389860128459E-1    9.505699630268382E-3
 1.418558922695422E5     9.927480548347410E-1    9.610930766333946E-3    7.259164510106927E-3   -1.001475435817527E-2    7.077403339592362E-3   -9.765267048448743E-3    9.930221803233770E-1    9.418309759656261E-3
 1.429382332431784E5     9.927656977976471E-1    9.543887074593107E-3    7.251138597234717E-3   -9.952507848191591E-3    7.072743052923268E-3   -9.707159924326548E-3    9.930451518041882E-1    9.370448960708527E-3
 1.440288323297804E5     9.927789055761131E-1    9.498914847250814E-3    7.243768237483703E-3   -9.890576355964648E-3    7.061998545515281E-3   -9.646347196750579E-3    9.930871364116056E-1    9.299258333513674E-3
 1.451277525376154E5     9.928079605199662E-1    9.416212907409793E-3    7.236074344244080E-3   -9.832330906255779E-3    7.057005019867376E-3   -9.584681287510763E-3    9.930764701084821E-1    9.245821872887579E-3
 1.462350573556962E5     9.928012166183220E-1    9.354178604603559E-3    7.225632278224116E-3   -9.770130023118525E-3    7.048509544153535E-3   -9.525337833025329E-3    9.930913127978924E-1    9.186038875447033E-3
 1.473508107574468E5     9.927918428505339E-1    9.309570673939041E-3    7.224374981553506E-3   -9.709223378224793E-3    7.040526906190813E-3   -9.468150733005706E-3    9.930937648674634E-1    9.116436401789857E-3
 1.484750772044004E5     9.927859157861796E-1    9.237534331100972E-3    7.214077595482309E-3   -9.650903459640760E-3    7.034226551296504E-3   -9.408949286660048E-3    9.930917941424398E-1    9.060810673794845E-3
 1.496079216499225E5     9.927882354804669E-1    9.175726007912407E-3    7.208175013424564E-3   -9.587818718257413E-3    7.028242550781973E-3   -9.349557715519699E-3    9.930644702066068E-1    8.983578138102837E-3
 1.507494095429637E5     9.928296528681673E-1    9.113678840961516E-3    7.201323161149609E-3   -9.531576492618120E-3    7.020184740300597E-3   -9.294002329347576E-3    9.931141227942679E-1    8.935203543999246E-3
 1.518996068318418E5     9.928164795377283E-1    9.058931997501305E-3    7.189575608710242E-3   -9.472131934022292E-3    7.013504556915701E-3   -9.237742767586567E-3    9.931182328246270E-1    8.874595003427450E-3
 1.530585799680507E5     9.928067784930896E-1    8.992122324610141E-3    7.185804316677129E-3   -9.413843396581592E-3    7.003771117306295E-3   -9.180419552357278E-3    9.931101093427367E-1    8.806266369144123E-3
 1.542263959101001E5     9.928353824836195E-1    8.944930457696329E-3    7.175916047780107E-3   -9.358626224993984E-3    6.996947946380566E-3   -9.123039818113871E-3    9.931233825266280E-1    8.749605503539435E-3
 1.554031221273835E5     9.928530760355262E-1    8.866444818922544E-3    7.173131906643104E-3   -9.300559983870678E-3    6.991567089940052E-3   -9.068921119231852E-3    9.931335608669908E-1    8.698532590156707E-3
 1.565888266040779E5     9.928316957794611E-1    8.798975056485057E-3    7.162924760901869E-3   -9.242093476148270E-3    6.981225233225997E-3   -9.013396096586265E-3    9.931592154637653E-1    8.638878652825277E-3
 1.577835778430689E5     9.928436070670569E-1    8.756135268352453E-3    7.152443070888431E-3   -9.187115404237767E-3    6.975286066090982E-3   -8.960923292333004E-3    9.931537033233827E-1    8.601130038996221E-3
 1.589874448699104E5     9.928526123197796E-1    8.680372604226803E-3    7.146061178508804E-3   -9.130455114596141E-3    6.969966780742247E-3   -8.906293400835740E-3    9.931714383215291E-1    8.527256008447594E-3
 1.602004972368116E5     9.928551667812405E-1    8.632656035640437E-3    7.137008813882196E-3   -9.076849018231702E-3    6.959603147472791E-3   -8.853678266915363E-3    9.931442536043741E-1    8.475764336796823E-3
 1.614228050266550E5     9.928534997284642E-1    8.576258670826014E-3    7.130763447262913E-3   -9.022131922181754E-3    6.951821414303888E-3   -8.798866733077006E-3    9.931598758238616E-1    8.415758422948550E-3
 1.626544388570473E5     9.928340859813641E-1    8.526768257535977E-3    7.121125398368598E-3   -8.966406241450524E-3    6.941557661584261E-3   -8.744268120904871E-3    9.931793165967328E-1    8.360692233722548E-3
 1.638954698843964E5     9.928416434502404E-1    8.448730698763361E-3    7.112139131016764E-3   -8.912788518355849E-3    6.936236064440137E-3   -8.696035841437961E-3    9.931690395485308E-1    8.316514436753417E-3
 1.651459698080244E5     9.928713864314610E-1    8.381609120056092E-3    7.105529286799362E-3   -8.859839270809538E-3    6.927372284691111E-3   -8.642358800837534E-3    9.931745924043469E-1    8.248905078032061E-3
 1.664060108743095E5     9.928739468557302E-1    8.326428380563687E-3    7.095269493335758E-3   -8.810298452395530E-3    6.918449409489113E-3   -8.590277839073462E-3    9.932028710114214E-1    8.199318868865501E-3
 1.676756658808590E5     9.928746735993637E-1    8.274423251773581E-3    7.089110678324397E-3   -8.751987272646601E-3    6.915703089014394E-3   -8.538830192078498E-3    9.932376976386816E-1    8.137919892011659E-3
 1.689550081807175E5     9.928765241880959E-1    8.229160892540801E-3    7.078910659136753E-3   -8.701945949176403E-3    6.903119239927087E-3   -8.486804796661486E-3    9.932770578485161E-1    8.092784131586324E-3
 1.702441116866020E5     9.929258253388651E-1    8.167215016719531E-3    7.074675424383778E-3   -8.651823732011479E-3    6.896827129070984E-3   -8.436204444538548E-3    9.932581578273387E-1    8.039571025869743E-3
 1.715430508751738E5     9.929418194327684E-1    8.121217793602720E-3    7.063794577409194E-3   -8.601734309066199E-3    6.889186130555998E-3   -8.388722822625920E-3    9.932223345852836E-1    7.990120971129474E-3
 1.728519007913403E5     9.929575637431687E-1    8.061268885190953E-3    7.055318868969854E-3   -8.548478911214994E-3    6.880023073760021E-3   -8.337546780411677E-3    9.932767117478893E-1    7.939450935482874E-3
 1.741707370525927E5     9.929457495230495E-1    8.012602866272495E-3    7.043173921776107E-3   -8.499849464874259E-3    6.871487420488284E-3   -8.290897909105359E-3    9.932669733116513E-1    7.873038625351256E-3
 1.754996358533718E5     9.929450737959239E-1    7.974763135229733E-3    7.040760856387738E-3   -8.450107471892895E-3    6.864655236594294E-3   -8.239678001910328E-3    9.932447306417117E-1    7.834087460598006E-3
 1.768386739694722E5     9.929749153716780E-1    7.900724020886912E-3    7.031330118138059E-3   -8.397742451051170E-3    6.855424684421627E-3   -8.192079338210333E-3    9.932413667517092E-1    7.776337742979320E-3
 1.781879287624771E5     9.929572296953886E-1    7.861295974133509E-3    7.021284225502066E-3   -8.352177241754893E-3    6.849503152931280E-3   -8.141977312666835E-3    9.932374937493406E-1    7.720673492637722E-3
 1.795474781842276E5     9.930194001520899E-1    7.803649835565299E-3    7.012767461939901E-3   -8.299839514954652E-3    6.837400288066351E-3   -8.096273819788146E-3    9.932891862891639E-1    7.669349909091665E-3
 1.809174007813277E5     9.929710889850473E-1    7.744329449474087E-3    7.005478351553221E-3   -8.253012106009270E-3    6.829869024776675E-3   -8.049101314533508E-3    9.932891342063702E-1    7.626414475166907E-3
 1.822977756996804E5     9.929755871846063E-1    7.696513621391131E-3    6.993975539114199E-3   -8.204385868546922E-3    6.824654899452174E-3   -8.003880473050437E-3    9.933560180138777E-1    7.574288508946138E-3
 1.836886826890609E5     9.930330201762879E-1    7.655873679702190E-3    6.981341995365231E-3   -8.156992607516421E-3    6.813082850045538E-3   -7.956992936818849E-3    9.933065315368043E-1    7.508353114276820E-3
 1.850902021077247E5     9.930365674570915E-1    7.592690260271816E-3    6.976040678385103E-3   -8.109041342923175E-3    6.801647106114422E-3   -7.907215880597881E-3    9.933396058795155E-1    7.494614649109817E-3
 1.865024149270491E5     9.930224338995294E-1    7.538598555646404E-3    6.967654075702674E-3   -8.064267096023843E-3    6.794667359598040E-3   -7.864447599997345E-3    9.933514738217608E-1    7.423587474653191E-3
 1.879254027362132E5     9.929988756999134E-1    7.503177917019496E-3    6.959897245632449E-3   -8.018111787381939E-3    6.786266245473610E-3   -7.820069819742282E-3    9.933877502369729E-1    7.372513114578109E-3
 1.893592477469092E5     9.930311889357221E-1    7.453038117350198E-3    6.966086909078234E-3   -7.987443180191692E-3    6.774069626719189E-3   -7.763870542645645E-3    9.933507262780618E-1    7.336985029445421E-3
 1.908040327980933E5     9.929923854919818E-1    7.399124950833768E-3    6.941644243429717E-3   -7.925855616802313E-3    6.771815366946311E-3   -7.730062602354530E-3    9.933808756861370E-1    7.278578533836544E-3
 1.922598413607715E5     9.930624299364335E-1    7.365360901073718E-3    6.931087564638904E-3   -7.884440472267881E-3    6.760995222132749E-3   -7.684509516902110E-3    9.933846449318355E-1    7.234800166462811E-3
 1.937267575428232E5     9.930967966689176E-1    7.314248065248915E-3    6.925611147250439E-3   -7.835162479593821E-3    6.753503765973675E-3   -7.641166675797604E-3    9.933953333299368E-1    7.186226121523722E-3
 1.952048660938581E5     9.931181765624957E-1    7.263618717270662E-3    6.911079730596273E-3   -7.791229755013577E-3    6.743434283414412E-3   -7.595194850070837E-3    9.934128193667499E-1    7.126416091066401E-3
 1.966942524101142E5     9.931111020645098E-1    7.202622663227179E-3    6.905649558655321E-3   -7.745363402012146E-3    6.733797990778606E-3   -7.552622832811425E-3    9.934102456953252E-1    7.090437608987452E-3
 1.981950025393913E5     9.931132959390346E-1    7.149046249784251E-3    6.895887041347741E-3   -7.701726591046456E-3    6.728946668209213E-3   -7.508490656872054E-3    9.934216037912228E-1    7.061821947395100E-3
