#  HZ   S   RI   R     50.00 
! Rohde & Schwarz Vector Network Analyzer 
! Rohde-Schwarz,ZNLE6-2Port,1323001256200024,1.71.1.10-23.02.1.238
! Created: UTC 4/8/2025, 1:48:31 AM
! freq[Hz]                re:S11                  im:S11                  re:S21                  im:S21                  re:S12                  im:S12                  re:S22                  im:S22
 1.000000000000000E5     9.930602927552808E-1    1.239705397101197E-2    7.062126909645746E-3   -1.255421788368202E-2    6.875297313553052E-3   -1.223243311843858E-2    9.932585234200305E-1    1.195206632741107E-2
 1.007629862646662E5     9.930428631278290E-1    1.227729218112758E-2    7.052889996066174E-3   -1.246497204176091E-2    6.867182779945365E-3   -1.215042197871486E-2    9.932326822746426E-1    1.186864309993755E-2
 1.015317940097331E5     9.930546273752071E-1    1.218818653783085E-2    7.048078474756185E-3   -1.237979590676467E-2    6.862476465332970E-3   -1.206975358524085E-2    9.932712702435269E-1    1.180490093590188E-2
 1.023064676522963E5     9.930367371268417E-1    1.209749513935339E-2    7.042998096584354E-3   -1.230140946474844E-2    6.859374749590293E-3   -1.198549566044729E-2    9.932806459455589E-1    1.171786668664369E-2
 1.030870519483485E5     9.930356756089948E-1    1.200334940188259E-2    7.038897103603179E-3   -1.221653385166738E-2    6.851435081120628E-3   -1.190763796271051E-2    9.932742063364117E-1    1.163970196927096E-2
 1.038735919953636E5     9.930640260436420E-1    1.190548783511243E-2    7.032940606784710E-3   -1.213868812003674E-2    6.849130912546761E-3   -1.182660105846056E-2    9.932913790754424E-1    1.154148638852383E-2
 1.046661332349037E5     9.930238268375454E-1    1.182295837647402E-2    7.027395025280098E-3   -1.205268676847776E-2    6.841980365158452E-3   -1.175170802535397E-2    9.932614558579462E-1    1.146078362164579E-2
 1.054647214552430E5     9.930636847019813E-1    1.173549297145096E-2    7.018618877860984E-3   -1.196935391918083E-2    6.837279784455659E-3   -1.166738701453794E-2    9.932540165812582E-1    1.137022076380348E-2
 1.062694027940149E5     9.930542906786008E-1    1.164731170215159E-2    7.012499991449026E-3   -1.189132040362891E-2    6.828744791107535E-3   -1.158901662720873E-2    9.933129151885585E-1    1.130482072444147E-2
 1.070802237408760E5     9.930661650239699E-1    1.157063971508498E-2    7.008071421967042E-3   -1.181324265154673E-2    6.823169465291849E-3   -1.151806284669534E-2    9.933416220899105E-1    1.122966358133375E-2
 1.078972311401927E5     9.930746976559284E-1    1.148865097491606E-2    7.000334551615397E-3   -1.173657319147857E-2    6.819286847622995E-3   -1.144071914725921E-2    9.933236233891065E-1    1.115544479067991E-2
 1.087204721937475E5     9.930510659836743E-1    1.140231489083225E-2    6.994756915518581E-3   -1.166125325271820E-2    6.814359448637803E-3   -1.136216220867954E-2    9.933245001911157E-1    1.106659294510153E-2
 1.095499944634658E5     9.930922362933715E-1    1.130694217261943E-2    6.988528255608567E-3   -1.158107944865918E-2    6.807186120898166E-3   -1.128463565967790E-2    9.933012569101334E-1    1.101057838552122E-2
 1.103858458741646E5     9.930665680518818E-1    1.123543775346890E-2    6.982391784155798E-3   -1.149842060672099E-2    6.803112204153377E-3   -1.121357558938676E-2    9.933220172033319E-1    1.092651290560479E-2
 1.112280747163201E5     9.930585692614473E-1    1.115193862379347E-2    6.975115024288119E-3   -1.142304345170716E-2    6.794129890734791E-3   -1.113559063771712E-2    9.932859680576404E-1    1.084700368227452E-2
 1.120767296488583E5     9.930373909892211E-1    1.106931502982707E-2    6.971441232061414E-3   -1.134854842954440E-2    6.791773376702662E-3   -1.106721374402023E-2    9.933106504388783E-1    1.076041254499025E-2
 1.129318597019661E5     9.930667945963918E-1    1.098021037390096E-2    6.961074788837920E-3   -1.127606668530937E-2    6.782375201556256E-3   -1.099215266959845E-2    9.933254641391570E-1    1.069305363099369E-2
 1.137935142799240E5     9.930747946436802E-1    1.090418315185569E-2    6.959404406446866E-3   -1.120472992881228E-2    6.775391846333603E-3   -1.092083035708055E-2    9.933683893941476E-1    1.062034544144526E-2
 1.146617431639607E5     9.930637093819612E-1    1.083205746212193E-2    6.954604114480440E-3   -1.112705765875225E-2    6.772382515663640E-3   -1.084688654071840E-2    9.933520986235964E-1    1.054721642344761E-2
 1.155365965151286E5     9.930918121808842E-1    1.073521145386523E-2    6.950415635491324E-3   -1.105635238204809E-2    6.766271193070495E-3   -1.077689851553382E-2    9.933439440324462E-1    1.047587516744572E-2
 1.164181248772018E5     9.930942793432125E-1    1.066886602781427E-2    6.939379140495651E-3   -1.097996006310999E-2    6.759411814546219E-3   -1.070611921032875E-2    9.933739017481678E-1    1.041267102739127E-2
 1.173063791795965E5     9.930855412252984E-1    1.060234109189051E-2    6.932934692963409E-3   -1.091028862800071E-2    6.751989694523733E-3   -1.063660739911150E-2    9.933616973459148E-1    1.032896469410088E-2
 1.182014107403141E5     9.931476519016278E-1    1.054300952178000E-2    6.928985474162504E-3   -1.083979177461724E-2    6.748706565268064E-3   -1.056970978567210E-2    9.933669031486361E-1    1.026118872868853E-2
 1.191032712689044E5     9.931246853976277E-1    1.044104867179042E-2    6.921117223039297E-3   -1.077253809584369E-2    6.743011268590280E-3   -1.049918659937298E-2    9.933683522300722E-1    1.019387686906691E-2
 1.200120128694542E5     9.930928913324155E-1    1.036557966759235E-2    6.914264266543604E-3   -1.070139610757590E-2    6.734159769619343E-3   -1.043297352214714E-2    9.934153910864685E-1    1.011975066836533E-2
 1.209276880435975E5     9.931131361618774E-1    1.031117728948566E-2    6.909489527600721E-3   -1.062869354294330E-2    6.730426766894109E-3   -1.036434715534773E-2    9.934402374012336E-1    1.004367358881531E-2
 1.218503496935483E5     9.931161499135167E-1    1.023121626541854E-2    6.899834842964298E-3   -1.056247241715537E-2    6.725061878695816E-3   -1.029758039157785E-2    9.934432815939644E-1    9.979615851006906E-3
 1.227800511251578E5     9.931449237363915E-1    1.014195682603117E-2    6.894259261160752E-3   -1.049118776445164E-2    6.720419631111476E-3   -1.023537290004246E-2    9.934375241218323E-1    9.919395783854411E-3
 1.237168460509929E5     9.931612130480187E-1    1.008248806639569E-2    6.887454980855696E-3   -1.042458952010645E-2    6.713568788498364E-3   -1.016614456740004E-2    9.934574828006520E-1    9.844583434556778E-3
 1.246607885934402E5     9.931673534598846E-1    1.002313016912664E-2    6.883537947279268E-3   -1.035617987781892E-2    6.705742194664489E-3   -1.010073790139618E-2    9.934137128595318E-1    9.772722748885711E-3
 1.256119332878327E5     9.931689418771601E-1    9.957749050843758E-3    6.878747326336340E-3   -1.029232958240293E-2    6.702043957708033E-3   -1.003553637806407E-2    9.934179955334967E-1    9.721013851581421E-3
 1.265703350856002E5     9.931636631606766E-1    9.891318697867949E-3    6.873070657013089E-3   -1.022390812096755E-2    6.695124720369225E-3   -9.969725158054521E-3    9.934593577620648E-1    9.661623775353276E-3
 1.275360493574453E5     9.931638294486140E-1    9.808045499813265E-3    6.865850956465694E-3   -1.016194051950608E-2    6.687224086949706E-3   -9.907267554769131E-3    9.934907525350910E-1    9.591782750851000E-3
 1.285091318965405E5     9.932057285808649E-1    9.754265306657897E-3    6.858260964857093E-3   -1.009149641125286E-2    6.680172522429367E-3   -9.846397874671316E-3    9.934869907302033E-1    9.512971752907853E-3
 1.294896389217529E5     9.931744875572354E-1    9.676308079563810E-3    6.851989413342816E-3   -1.002774134683056E-2    6.676720704435762E-3   -9.780708344574323E-3    9.934788399760078E-1    9.447903109141184E-3
 1.304776270808914E5     9.931788915402059E-1    9.609183606704130E-3    6.845858592290019E-3   -9.964231733678934E-3    6.671069992559936E-3   -9.717809723058404E-3    9.935107961327606E-1    9.390075645207666E-3
 1.314731534539810E5     9.931857743124661E-1    9.550530000890369E-3    6.842846604734661E-3   -9.910603114091397E-3    6.663543607842632E-3   -9.660198171329929E-3    9.935253329837180E-1    9.330332706683533E-3
 1.324762755565583E5     9.931643390884303E-1    9.497848526154712E-3    6.836541955189866E-3   -9.847955190058180E-3    6.660558519174769E-3   -9.595703191813219E-3    9.935062064648205E-1    9.280250718479609E-3
 1.334870513429962E5     9.931904708002357E-1    9.413931717825138E-3    6.830557759255328E-3   -9.784583872527716E-3    6.650888127748588E-3   -9.536077494567377E-3    9.935002737244193E-1    9.185718438919814E-3
 1.345055392098512E5     9.931917270876711E-1    9.366061452334198E-3    6.819822287635708E-3   -9.721170897029960E-3    6.642959457566312E-3   -9.474450287829967E-3    9.934786227867646E-1    9.150302867713019E-3
 1.355317979992373E5     9.931996547029630E-1    9.278395096933099E-3    6.812714589893487E-3   -9.653660464144250E-3    6.636342040390071E-3   -9.417345360946686E-3    9.935098364165263E-1    9.087187780095032E-3
 1.365658870022265E5     9.931935000283204E-1    9.200695729261689E-3    6.806365582555197E-3   -9.589022271350028E-3    6.631907603136379E-3   -9.354324859428356E-3    9.935317419436022E-1    9.026338783831564E-3
 1.376078659622731E5     9.931896015838032E-1    9.155305713883904E-3    6.796718434887593E-3   -9.530788610596098E-3    6.625821990477121E-3   -9.295932184653317E-3    9.935091104985850E-1    8.963738393138659E-3
 1.386577950786655E5     9.932688878541767E-1    9.095329982252152E-3    6.790190743575856E-3   -9.471082645231351E-3    6.619473559648821E-3   -9.237832375940799E-3    9.935169632020231E-1    8.895008256745664E-3
 1.397157350100044E5     9.932574824785043E-1    9.032355349517856E-3    6.785059492059947E-3   -9.411901129952905E-3    6.611709861313395E-3   -9.180072587029265E-3    9.935331114837658E-1    8.841385378511963E-3
 1.407817468777081E5     9.932517028366656E-1    8.962129588619437E-3    6.776125656532008E-3   -9.350160079987496E-3    6.608491833269740E-3   -9.121950226952337E-3    9.935321700934110E-1    8.783183512750873E-3
 1.418558922695422E5     9.932202056948128E-1    8.894334758938123E-3    6.770437035678866E-3   -9.292836627244816E-3    6.599860863643676E-3   -9.064335345663338E-3    9.935243766004483E-1    8.722534113865001E-3
 1.429382332431784E5     9.932366389006577E-1    8.840653016784827E-3    6.760252193022323E-3   -9.233422826098965E-3    6.592493476923689E-3   -9.012526601551073E-3    9.935350056696863E-1    8.648270249280816E-3
 1.440288323297804E5     9.932817069550750E-1    8.800291205459432E-3    6.755621737527771E-3   -9.175989432892670E-3    6.586153802942334E-3   -8.954411222187887E-3    9.935513416245231E-1    8.593938622822657E-3
 1.451277525376154E5     9.932959296422986E-1    8.729916183598465E-3    6.748353031600039E-3   -9.116437668787586E-3    6.582095123243563E-3   -8.897493156098800E-3    9.935481285791726E-1    8.548250157367319E-3
 1.462350573556962E5     9.932790492049020E-1    8.681183968833094E-3    6.741409312673517E-3   -9.063724107696670E-3    6.572113722757821E-3   -8.839712456530575E-3    9.935507671727343E-1    8.491515874542287E-3
 1.473508107574468E5     9.932900106455885E-1    8.622307849065810E-3    6.736231713438929E-3   -9.009789156832537E-3    6.566141708936693E-3   -8.788459380835278E-3    9.935644063355208E-1    8.433844628498770E-3
 1.484750772044004E5     9.932758693085156E-1    8.547878619482986E-3    6.727374682530030E-3   -8.952282786350765E-3    6.560531041987379E-3   -8.733560027266621E-3    9.935492063246050E-1    8.358989041851088E-3
 1.496079216499225E5     9.933108117095565E-1    8.485023118634211E-3    6.722493571550446E-3   -8.897545008250542E-3    6.554072615670060E-3   -8.678382743223087E-3    9.935329686363769E-1    8.303961680187755E-3
 1.507494095429637E5     9.933218748412951E-1    8.434570513212723E-3    6.711327651487711E-3   -8.843091293670332E-3    6.545836665695574E-3   -8.627180082967749E-3    9.936039765528417E-1    8.262719936519485E-3
 1.518996068318418E5     9.933258206797330E-1    8.384606643167831E-3    6.705499536415560E-3   -8.789449306538187E-3    6.538243256155149E-3   -8.575458778720292E-3    9.936119483490149E-1    8.201907666805005E-3
 1.530585799680507E5     9.933146835724628E-1    8.329576229377406E-3    6.699199329904226E-3   -8.734192107138919E-3    6.529902958661678E-3   -8.520567050042243E-3    9.935783931021677E-1    8.120978044412776E-3
 1.542263959101001E5     9.933264672491383E-1    8.281751821985782E-3    6.690786105229490E-3   -8.682999742906487E-3    6.524360606136510E-3   -8.471685888568503E-3    9.935828852289272E-1    8.086900012667176E-3
 1.554031221273835E5     9.933275054161411E-1    8.225149647171862E-3    6.685683864967486E-3   -8.628637991075477E-3    6.518485177490692E-3   -8.417391291103268E-3    9.935867312377298E-1    8.034267812865552E-3
 1.565888266040779E5     9.933586994245989E-1    8.153958082062485E-3    6.676505735106754E-3   -8.578155665722377E-3    6.509284896888030E-3   -8.368359626733544E-3    9.936269263445544E-1    7.984741305991683E-3
 1.577835778430689E5     9.933307070490898E-1    8.106557857061877E-3    6.669200127761852E-3   -8.521990199587519E-3    6.505209056126869E-3   -8.315996559909526E-3    9.936170071423465E-1    7.940356221346211E-3
 1.589874448699104E5     9.933115738464160E-1    8.049066818790451E-3    6.662886452498555E-3   -8.471841520161026E-3    6.494395053688615E-3   -8.265674037867779E-3    9.936037153510194E-1    7.865464738264770E-3
 1.602004972368116E5     9.933504380971254E-1    7.990134680509867E-3    6.655739353957445E-3   -8.421384421105687E-3    6.489118498043882E-3   -8.215890445438504E-3    9.936471022381026E-1    7.831008251536417E-3
 1.614228050266550E5     9.933429280915944E-1    7.923942286519067E-3    6.646555951166810E-3   -8.366564052819270E-3    6.482533955116362E-3   -8.166092898165727E-3    9.936560433477335E-1    7.770113968721725E-3
 1.626544388570473E5     9.933385666490462E-1    7.885154312499544E-3    6.640843785366123E-3   -8.320890261792228E-3    6.477224808633928E-3   -8.119209931850779E-3    9.936803519369586E-1    7.734252829897602E-3
 1.638954698843964E5     9.933329568259271E-1    7.818313250178220E-3    6.632870672698875E-3   -8.267547727910584E-3    6.468024740617930E-3   -8.069372279451190E-3    9.936732693903747E-1    7.672425502012318E-3
 1.651459698080244E5     9.933642158069863E-1    7.768260578953438E-3    6.625231167870284E-3   -8.216660137798149E-3    6.460428781539638E-3   -8.022124918834268E-3    9.936633188085935E-1    7.613548460411015E-3
 1.664060108743095E5     9.934021403871239E-1    7.719886140310546E-3    6.614133779274013E-3   -8.170050597664751E-3    6.451909906401731E-3   -7.971182147041759E-3    9.936932521483092E-1    7.574556894955909E-3
 1.676756658808590E5     9.934055762702522E-1    7.669030577036062E-3    6.608828826639558E-3   -8.117410193716073E-3    6.446363988415268E-3   -7.922117363104809E-3    9.937359691269456E-1    7.524995295396126E-3
 1.689550081807175E5     9.933905375113939E-1    7.627584361905614E-3    6.602487546977441E-3   -8.070817557077854E-3    6.442342860685123E-3   -7.878473592680599E-3    9.937585064315432E-1    7.482964649240161E-3
 1.702441116866020E5     9.934246559972524E-1    7.564778253600529E-3    6.594842487128759E-3   -8.022201890617663E-3    6.432986957416858E-3   -7.829935720600202E-3    9.937116981457127E-1    7.421063677712104E-3
 1.715430508751738E5     9.934012801078478E-1    7.508470147035389E-3    6.585861866435631E-3   -7.974663735118277E-3    6.423646985513599E-3   -7.782487173501742E-3    9.937172373383447E-1    7.375548486297836E-3
 1.728519007913403E5     9.933914400536561E-1    7.440034871929610E-3    6.575947872553890E-3   -7.929484883113310E-3    6.417850907268876E-3   -7.737965410890679E-3    9.937301570383084E-1    7.300574667216289E-3
 1.741707370525927E5     9.933847506086847E-1    7.413552630905933E-3    6.570665665186951E-3   -7.880733914962711E-3    6.410376571903230E-3   -7.691970079731429E-3    9.937221496102910E-1    7.265245427235590E-3
 1.754996358533718E5     9.934160078015856E-1    7.363571017823155E-3    6.561665383728793E-3   -7.836524779979709E-3    6.401617593328832E-3   -7.645518033471631E-3    9.937155524944626E-1    7.224079610597501E-3
 1.768386739694722E5     9.934653013970282E-1    7.313996841159184E-3    6.553627411338992E-3   -7.787859137131390E-3    6.394142420657599E-3   -7.603261740147507E-3    9.937116453412527E-1    7.178401276841171E-3
 1.781879287624771E5     9.934386956233507E-1    7.277176621160680E-3    6.547145144950605E-3   -7.745880369606238E-3    6.388433605016716E-3   -7.557237639999117E-3    9.937363864233462E-1    7.123327722178417E-3
 1.795474781842276E5     9.934762139901896E-1    7.201485230060724E-3    6.542169412196418E-3   -7.701717730736833E-3    6.376760985053686E-3   -7.512183457025658E-3    9.937615231119127E-1    7.095354132300302E-3
 1.809174007813277E5     9.934683560975913E-1    7.164839628317566E-3    6.533303370286339E-3   -7.653852180953699E-3    6.368747392922705E-3   -7.468355200330725E-3    9.937795282824812E-1    7.043240527488595E-3
 1.822977756996804E5     9.934815329416252E-1    7.110406684374028E-3    6.522445858748423E-3   -7.609926405654593E-3    6.365256754766217E-3   -7.425351200789627E-3    9.938087878200033E-1    6.983368576356747E-3
 1.836886826890609E5     9.935213029535374E-1    7.073840968922198E-3    6.514703508787420E-3   -7.568193714008108E-3    6.356972721708264E-3   -7.379751874731362E-3    9.937658039864080E-1    6.930242290570569E-3
 1.850902021077247E5     9.935510929756730E-1    7.030207250256199E-3    6.506709727061670E-3   -7.519341412984926E-3    6.345629415602331E-3   -7.337925981477522E-3    9.937886102195767E-1    6.907956811054029E-3
 1.865024149270491E5     9.935141702355346E-1    6.976278711095538E-3    6.495598730677771E-3   -7.476677147656694E-3    6.339868553231542E-3   -7.296492312634612E-3    9.937861257456272E-1    6.843428123135600E-3
 1.879254027362132E5     9.934557278675658E-1    6.906964601262722E-3    6.487512726015335E-3   -7.432688778699760E-3    6.328898155955831E-3   -7.251113616902151E-3    9.938516300758584E-1    6.807741287355220E-3
 1.893592477469092E5     9.935122250510136E-1    6.910289822196477E-3    6.500020602738863E-3   -7.384633282330318E-3    6.332632583907656E-3   -7.224090332243530E-3    9.938103941911841E-1    6.766743890527494E-3
 1.908040327980933E5     9.935145260718963E-1    6.815025573217685E-3    6.474129402669901E-3   -7.347439611376330E-3    6.313003622949361E-3   -7.167547140565074E-3    9.938075177368825E-1    6.721991309614751E-3
 1.922598413607715E5     9.935373473529704E-1    6.805957622644310E-3    6.465923559158329E-3   -7.304162273975385E-3    6.304356072066565E-3   -7.129006726686950E-3    9.938299532182945E-1    6.673317520908274E-3
 1.937267575428232E5     9.935670341187727E-1    6.750148553978751E-3    6.457342134385047E-3   -7.259486015270737E-3    6.299098499151868E-3   -7.086442434511203E-3    9.938368265231692E-1    6.626806622415905E-3
 1.952048660938581E5     9.935837798818434E-1    6.709230234250109E-3    6.445800896152196E-3   -7.221438490631343E-3    6.288392272443838E-3   -7.047877371731258E-3    9.938581075366433E-1    6.569217203804404E-3
 1.966942524101142E5     9.935840904811114E-1    6.641065050566700E-3    6.440333788160536E-3   -7.179887653038628E-3    6.279070110565150E-3   -7.007053721902123E-3    9.938396189697768E-1    6.534264006491122E-3
 1.981950025393913E5     9.935928729275459E-1    6.603822167586012E-3    6.429219122854810E-3   -7.139024430112650E-3    6.273483548926467E-3   -6.965893084857052E-3    9.938547762536230E-1    6.497941256672066E-3
