#  HZ   S   RI   R     50.00 
! Rohde & Schwarz Vector Network Analyzer 
! Rohde-Schwarz,ZNLE6-2Port,1323001256200024,1.71.1.10-23.02.1.238
! Created: UTC 4/8/2025, 1:35:18 AM
! freq[Hz]                re:S11                  im:S11                  re:S21                  im:S21                  re:S12                  im:S12                  re:S22                  im:S22
 1.000000000000000E5     9.935165708669894E-1    1.146385510468604E-2    6.612561036222675E-3   -1.157632625504220E-2    6.440596640792216E-3   -1.128571466749541E-2    9.936279336552150E-1    1.100976072670732E-2
 1.007629862646662E5     9.935329226194373E-1    1.134889788056199E-2    6.606677840359596E-3   -1.149735942775372E-2    6.433938161496022E-3   -1.120631185087299E-2    9.936238131353792E-1    1.091498436252728E-2
 1.015317940097331E5     9.935482097480850E-1    1.126161761568976E-2    6.597600131274812E-3   -1.141988307036948E-2    6.432356518724115E-3   -1.113608636874685E-2    9.936153969173582E-1    1.086197087524432E-2
 1.023064676522963E5     9.934982375497445E-1    1.118403466292179E-2    6.598653840442922E-3   -1.134467589716442E-2    6.426141715446659E-3   -1.105627573106613E-2    9.936045900892229E-1    1.077408491021163E-2
 1.030870519483485E5     9.934894266455070E-1    1.109424902872445E-2    6.592634692058685E-3   -1.127158076301974E-2    6.418576308186637E-3   -1.098365991051544E-2    9.936176194247086E-1    1.071443072860140E-2
 1.038735919953636E5     9.934851302859172E-1    1.101036916831396E-2    6.587475665149130E-3   -1.119298048418338E-2    6.413431919590425E-3   -1.091351782549940E-2    9.936419507566134E-1    1.062327076088108E-2
 1.046661332349037E5     9.935068068032055E-1    1.091390338972278E-2    6.580392152795213E-3   -1.111939912694316E-2    6.408029770213035E-3   -1.083601519474505E-2    9.936110491238265E-1    1.055966586208130E-2
 1.054647214552430E5     9.934970358302446E-1    1.083624910898267E-2    6.573870592582735E-3   -1.104303877374742E-2    6.404258503815550E-3   -1.076691329064141E-2    9.936095164333573E-1    1.046376879791780E-2
 1.062694027940149E5     9.935393805905735E-1    1.076792644120744E-2    6.569080505523091E-3   -1.097094170606491E-2    6.401239046603903E-3   -1.069901258361195E-2    9.936312721439265E-1    1.041898385377697E-2
 1.070802237408760E5     9.935045296800793E-1    1.069858239073345E-2    6.564910655343095E-3   -1.089710266465665E-2    6.392532993488082E-3   -1.062569053895591E-2    9.936566643251278E-1    1.032853399960601E-2
 1.078972311401927E5     9.935157339587084E-1    1.061171195279698E-2    6.558258142801719E-3   -1.082823351681990E-2    6.388491984191795E-3   -1.055329743807943E-2    9.936509638431574E-1    1.026974408739754E-2
 1.087204721937475E5     9.935082537322016E-1    1.054168353129939E-2    6.552461686564008E-3   -1.076147251182621E-2    6.382310349528323E-3   -1.048417721295005E-2    9.936967987059175E-1    1.018944055836379E-2
 1.095499944634658E5     9.935507036608122E-1    1.046275276692029E-2    6.546791511584461E-3   -1.068377271926575E-2    6.381091595289093E-3   -1.041683334373494E-2    9.937109075917107E-1    1.012797125569262E-2
 1.103858458741646E5     9.935088948460910E-1    1.039047596110607E-2    6.537833658021511E-3   -1.061134141322875E-2    6.372607960716035E-3   -1.034730918274220E-2    9.936985771348741E-1    1.004753030159821E-2
 1.112280747163201E5     9.935179881426465E-1    1.031159004285129E-2    6.534827452137330E-3   -1.053522357403742E-2    6.366940918199133E-3   -1.028054240037805E-2    9.936723024286080E-1    9.986090982228253E-3
 1.120767296488583E5     9.934900292751004E-1    1.023227122000031E-2    6.526923483196036E-3   -1.046904403904701E-2    6.359095230839622E-3   -1.021185712559405E-2    9.936652217292361E-1    9.914607594739947E-3
 1.129318597019661E5     9.935079292877724E-1    1.015144736783553E-2    6.525766136970711E-3   -1.040495602364202E-2    6.357515169066636E-3   -1.014411189942267E-2    9.936839651796811E-1    9.847975927648980E-3
 1.137935142799240E5     9.935062073176427E-1    1.008945340136635E-2    6.512710821341008E-3   -1.034051624045271E-2    6.350571011655260E-3   -1.007671996764960E-2    9.936915212683450E-1    9.773704406979606E-3
 1.146617431639607E5     9.935140319181901E-1    1.001290396428813E-2    6.512844465285595E-3   -1.026984608072707E-2    6.344588626227376E-3   -1.000960808278170E-2    9.937095554139008E-1    9.719434726185559E-3
 1.155365965151286E5     9.935391784611280E-1    9.941774030042280E-3    6.507223675134836E-3   -1.020039049109396E-2    6.337576019223174E-3   -9.946093495160065E-3    9.936913050630688E-1    9.637905445124044E-3
 1.164181248772018E5     9.935272787958249E-1    9.862989890516229E-3    6.500779450580713E-3   -1.013421693775170E-2    6.331528157591929E-3   -9.881265364393998E-3    9.937027958072430E-1    9.561471275374654E-3
 1.173063791795965E5     9.935238511144919E-1    9.796985197038824E-3    6.495129324171780E-3   -1.007060995073852E-2    6.325997965928734E-3   -9.815855898375150E-3    9.936909830847921E-1    9.500561318561009E-3
 1.182014107403141E5     9.935618658845347E-1    9.740615159744835E-3    6.489341356171460E-3   -1.000428007265343E-2    6.321198413299143E-3   -9.753345995660495E-3    9.936778490273155E-1    9.451620393892442E-3
 1.191032712689044E5     9.935505316239479E-1    9.664356532232915E-3    6.486037528385048E-3   -9.936049155297515E-3    6.319601734067324E-3   -9.692695090258328E-3    9.937076125295102E-1    9.386617013041318E-3
 1.200120128694542E5     9.935258689320746E-1    9.591587488290214E-3    6.478029287729161E-3   -9.872743716917695E-3    6.310807906088020E-3   -9.628327147297260E-3    9.937309367226531E-1    9.310573665733389E-3
 1.209276880435975E5     9.935353393649649E-1    9.529206939759964E-3    6.470888186889735E-3   -9.808470576959520E-3    6.309924263779774E-3   -9.566134443514543E-3    9.937421773553360E-1    9.248733857532512E-3
 1.218503496935483E5     9.935668618830019E-1    9.455025122075694E-3    6.465662753005081E-3   -9.744283153678892E-3    6.300303585040274E-3   -9.500965923530650E-3    9.937661843308274E-1    9.190748720699374E-3
 1.227800511251578E5     9.935943168086874E-1    9.382403379799816E-3    6.457970132840065E-3   -9.680717120139804E-3    6.294962053138817E-3   -9.443625310773010E-3    9.937494777516034E-1    9.117115865676751E-3
 1.237168460509929E5     9.936193165563043E-1    9.333534602054468E-3    6.452614533755755E-3   -9.620893413581520E-3    6.285215210249246E-3   -9.381456257437333E-3    9.937678827912018E-1    9.065518038832220E-3
 1.246607885934402E5     9.935944437570613E-1    9.244899933205264E-3    6.447572809583533E-3   -9.560257308079252E-3    6.284563308536910E-3   -9.323382821320688E-3    9.937567868218292E-1    9.015842632787992E-3
 1.256119332878327E5     9.935934962343129E-1    9.208214936204296E-3    6.442970144802485E-3   -9.500242659189627E-3    6.274565786863049E-3   -9.261590512750625E-3    9.937692598116575E-1    8.955940271210282E-3
 1.265703350856002E5     9.935923872817549E-1    9.132881930690940E-3    6.435529212579040E-3   -9.438498127818608E-3    6.274037855366742E-3   -9.201561226133850E-3    9.938137423989224E-1    8.893569974700916E-3
 1.275360493574453E5     9.936089480376872E-1    9.052480626694255E-3    6.432317702672117E-3   -9.376727174240615E-3    6.265055695480005E-3   -9.145251530505299E-3    9.938135293615949E-1    8.837701181863286E-3
 1.285091318965405E5     9.936129639602698E-1    9.015626685432697E-3    6.424384442512504E-3   -9.315872360374133E-3    6.258989525658541E-3   -9.089512400224306E-3    9.938510600733758E-1    8.758550380202448E-3
 1.294896389217529E5     9.936063228909877E-1    8.929640798324886E-3    6.414494820945305E-3   -9.254169100643334E-3    6.253943930749167E-3   -9.024492958425966E-3    9.938206405104230E-1    8.702469727033681E-3
 1.304776270808914E5     9.936163401069830E-1    8.874603958154328E-3    6.413128928332540E-3   -9.197925502686154E-3    6.251094541293209E-3   -8.971629140161483E-3    9.938370020486456E-1    8.645108463364351E-3
 1.314731534539810E5     9.936115949697977E-1    8.822791228147275E-3    6.407898364304251E-3   -9.145240969734070E-3    6.242089408528461E-3   -8.912659454556264E-3    9.938076289750578E-1    8.576752672324202E-3
 1.324762755565583E5     9.935958266493692E-1    8.769793162701824E-3    6.402854252219333E-3   -9.086324905849002E-3    6.237927361875390E-3   -8.858006435336621E-3    9.938015324461986E-1    8.525182697078623E-3
 1.334870513429962E5     9.936231193422180E-1    8.710899834519340E-3    6.396684156930763E-3   -9.031998890407093E-3    6.231079324111130E-3   -8.802953810304121E-3    9.938269297586821E-1    8.460029034093696E-3
 1.345055392098512E5     9.936303619188829E-1    8.654614067582398E-3    6.394989390386922E-3   -8.971122189486863E-3    6.223644219485799E-3   -8.743452935078245E-3    9.938246026305293E-1    8.420224446713774E-3
 1.355317979992373E5     9.936478026479632E-1    8.574365875748453E-3    6.380308246997961E-3   -8.912250682005419E-3    6.216967665638836E-3   -8.690168695948556E-3    9.938683952916176E-1    8.363993523250721E-3
 1.365658870022265E5     9.936512473911018E-1    8.510392049229425E-3    6.371099404418173E-3   -8.851645840159059E-3    6.212770038670444E-3   -8.636209214751519E-3    9.938764313436106E-1    8.302518588063534E-3
 1.376078659622731E5     9.936244429881280E-1    8.453734518877732E-3    6.370414951399648E-3   -8.799265486759574E-3    6.205165801593528E-3   -8.582164579157961E-3    9.938618383480564E-1    8.230287238476327E-3
 1.386577950786655E5     9.936474061244409E-1    8.397582274652529E-3    6.361290038851708E-3   -8.745394913155194E-3    6.203244295583272E-3   -8.528315638543253E-3    9.938490030635336E-1    8.198185978610125E-3
 1.397157350100044E5     9.936578566292525E-1    8.349277168634933E-3    6.353796335190587E-3   -8.689976539985199E-3    6.192890273086585E-3   -8.474908465199367E-3    9.938699341226533E-1    8.132976855002761E-3
 1.407817468777081E5     9.936942616329290E-1    8.285464608377620E-3    6.347280526183492E-3   -8.634161855758793E-3    6.189065405111605E-3   -8.421634427945657E-3    9.939081391065391E-1    8.081595824030714E-3
 1.418558922695422E5     9.936709180498660E-1    8.220660623652539E-3    6.341067784791403E-3   -8.583045693168203E-3    6.180715431612902E-3   -8.372625046629972E-3    9.938655729027042E-1    8.010587053639769E-3
 1.429382332431784E5     9.936911030260340E-1    8.169974599852253E-3    6.336159886439584E-3   -8.525071445971205E-3    6.175041044609267E-3   -8.317217005109239E-3    9.939048445439977E-1    7.974633380239775E-3
 1.440288323297804E5     9.937000495321362E-1    8.131922368206127E-3    6.328481059340988E-3   -8.473237520123827E-3    6.170383855311544E-3   -8.266037688124523E-3    9.939131535293443E-1    7.917563844414355E-3
 1.451277525376154E5     9.937039129644004E-1    8.060878314743804E-3    6.321194371089553E-3   -8.421657806305478E-3    6.162186605800317E-3   -8.211951176148305E-3    9.939142276004778E-1    7.847128074339941E-3
 1.462350573556962E5     9.937176088268282E-1    8.015233320069750E-3    6.314278700856685E-3   -8.367301426313447E-3    6.158053112945508E-3   -8.161642742008784E-3    9.939393888569504E-1    7.808022323969718E-3
 1.473508107574468E5     9.937053154207897E-1    7.968434148314501E-3    6.307570551530305E-3   -8.319998385342864E-3    6.148193871789524E-3   -8.115030094877164E-3    9.939394731792417E-1    7.755683934411702E-3
 1.484750772044004E5     9.937012330794979E-1    7.895722814320986E-3    6.299111823923182E-3   -8.270715689476953E-3    6.144930545631223E-3   -8.067072156404721E-3    9.939007281721973E-1    7.685318788636143E-3
 1.496079216499225E5     9.937165885895828E-1    7.832255110974434E-3    6.291545784643205E-3   -8.217378514659139E-3    6.140285029280490E-3   -8.015303233733182E-3    9.938787644614699E-1    7.633171736822144E-3
 1.507494095429637E5     9.937370136688177E-1    7.788000312146142E-3    6.286595464602007E-3   -8.164659978282147E-3    6.131628955846537E-3   -7.968007252393215E-3    9.939290163784927E-1    7.581642871676724E-3
 1.518996068318418E5     9.937346237231460E-1    7.739864967863308E-3    6.275601125656828E-3   -8.113343348902459E-3    6.127146256617939E-3   -7.918807598537074E-3    9.939471593606651E-1    7.531909769474533E-3
 1.530585799680507E5     9.937030728327831E-1    7.681704413727649E-3    6.272941385453963E-3   -8.066653909279147E-3    6.117739845224935E-3   -7.870812469050505E-3    9.939423306385683E-1    7.477411265353217E-3
 1.542263959101001E5     9.937546317399719E-1    7.629700704765865E-3    6.265005590322683E-3   -8.014964044200211E-3    6.109195120915720E-3   -7.819134568778767E-3    9.939325766246844E-1    7.441649207300513E-3
 1.554031221273835E5     9.937474333597475E-1    7.583660875475839E-3    6.256660697694223E-3   -7.971536502434142E-3    6.103123514426897E-3   -7.773288466051395E-3    9.939529167442740E-1    7.389786035648670E-3
 1.565888266040779E5     9.937560693939658E-1    7.535483331316700E-3    6.253616178524284E-3   -7.919709818155218E-3    6.097531357709852E-3   -7.728261378650743E-3    9.939783323688791E-1    7.355912069273065E-3
 1.577835778430689E5     9.937643112798307E-1    7.472237844596768E-3    6.245557393343031E-3   -7.872157451766965E-3    6.091337841233439E-3   -7.679800047925000E-3    9.939799619235340E-1    7.299226927996855E-3
 1.589874448699104E5     9.937639840643523E-1    7.414378434565151E-3    6.236669282186326E-3   -7.823642218456483E-3    6.087748906449135E-3   -7.631744198211160E-3    9.939870430357715E-1    7.244362189335810E-3
 1.602004972368116E5     9.937512250695576E-1    7.375567341610073E-3    6.229347185380483E-3   -7.777299669152140E-3    6.081241794370138E-3   -7.586123921996202E-3    9.939920406441042E-1    7.203251427784432E-3
 1.614228050266550E5     9.937672783853702E-1    7.326628764517091E-3    6.221738509197006E-3   -7.729648867477003E-3    6.068626858990153E-3   -7.538377453427312E-3    9.939584913407469E-1    7.151075758803192E-3
 1.626544388570473E5     9.937447948065109E-1    7.274109225840392E-3    6.217608880425212E-3   -7.686277501642439E-3    6.063538488723527E-3   -7.497284724984915E-3    9.939611513126498E-1    7.097972901825122E-3
 1.638954698843964E5     9.937595700159638E-1    7.219329978645134E-3    6.211194622772335E-3   -7.635250166196634E-3    6.056997508799253E-3   -7.447305847737228E-3    9.939992630342920E-1    7.066028144460154E-3
 1.651459698080244E5     9.937849748850703E-1    7.172387519055187E-3    6.201008690741617E-3   -7.588570118449790E-3    6.048426189205675E-3   -7.406312892304065E-3    9.940106465047704E-1    7.007081719220034E-3
 1.664060108743095E5     9.937897431829559E-1    7.120137955432252E-3    6.196457816242323E-3   -7.545134467430867E-3    6.041881642976690E-3   -7.361732333962988E-3    9.939730142508858E-1    6.960706674759357E-3
 1.676756658808590E5     9.938008553262569E-1    7.062754176021264E-3    6.186862283311175E-3   -7.500879227760425E-3    6.035833694634053E-3   -7.319108737477157E-3    9.940208288947963E-1    6.919029831281946E-3
 1.689550081807175E5     9.937839347329624E-1    7.043978892028282E-3    6.178891083502047E-3   -7.457219694074763E-3    6.028486423384330E-3   -7.275675601948699E-3    9.940538959339262E-1    6.863111138996256E-3
 1.702441116866020E5     9.938407639757190E-1    6.976595338467045E-3    6.173355146901214E-3   -7.412322804643615E-3    6.023193069846836E-3   -7.232373039095028E-3    9.940405452733794E-1    6.825792597869407E-3
 1.715430508751738E5     9.938159654603670E-1    6.937641172553792E-3    6.164131511744751E-3   -7.369395009791888E-3    6.015672896223521E-3   -7.187724444132392E-3    9.940192065121380E-1    6.779703815264544E-3
 1.728519007913403E5     9.938356138486841E-1    6.884234486483951E-3    6.158524919726135E-3   -7.323216294146686E-3    6.006741342538533E-3   -7.146031091180969E-3    9.940238031398486E-1    6.730925390610004E-3
 1.741707370525927E5     9.938545744786877E-1    6.845079746784969E-3    6.154063040837052E-3   -7.282122850931296E-3    5.999142918427913E-3   -7.104323574742865E-3    9.939841393274882E-1    6.683594556638472E-3
 1.754996358533718E5     9.938564527767949E-1    6.810815565133832E-3    6.145999879769463E-3   -7.239746601151009E-3    5.992885206466203E-3   -7.064519592978469E-3    9.940006148087283E-1    6.639040159054036E-3
 1.768386739694722E5     9.938989898724289E-1    6.757871984230451E-3    6.133841877642907E-3   -7.196447389692166E-3    5.984374760801279E-3   -7.020171071813587E-3    9.940265548078048E-1    6.588267889619167E-3
 1.781879287624771E5     9.938549105806811E-1    6.719298612418936E-3    6.127233043196088E-3   -7.153423140578007E-3    5.979244850929604E-3   -6.977293246696356E-3    9.940120572425228E-1    6.547209946720807E-3
 1.795474781842276E5     9.938717761278983E-1    6.659472946559573E-3    6.124083648511541E-3   -7.114189685907972E-3    5.971703466206068E-3   -6.940057483057318E-3    9.940562303061159E-1    6.510952983599664E-3
 1.809174007813277E5     9.938701391551820E-1    6.620348911676929E-3    6.113047859492524E-3   -7.072636278891993E-3    5.960566844314918E-3   -6.900545615045527E-3    9.940760689552481E-1    6.481573551405397E-3
 1.822977756996804E5     9.938820028644111E-1    6.564704094674918E-3    6.101558918930491E-3   -7.029482119322323E-3    5.957152696012340E-3   -6.859810881240048E-3    9.941062960740689E-1    6.420752564077904E-3
 1.836886826890609E5     9.938906563546648E-1    6.523672488483267E-3    6.097515674413958E-3   -6.988240903797580E-3    5.949797726542421E-3   -6.819971089671327E-3    9.940907262885341E-1    6.364524178063897E-3
 1.850902021077247E5     9.939269814096245E-1    6.478357602752696E-3    6.088846939620207E-3   -6.948960965170180E-3    5.940544282839698E-3   -6.781651348734292E-3    9.941225354311072E-1    6.342284752894251E-3
 1.865024149270491E5     9.938820488114023E-1    6.423735435784247E-3    6.082613014155464E-3   -6.910701718742729E-3    5.930952549896559E-3   -6.740604368729677E-3    9.940697205320571E-1    6.287175833838762E-3
 1.879254027362132E5     9.938947625617782E-1    6.378025033320839E-3    6.075045034058544E-3   -6.871363938480997E-3    5.923256027726445E-3   -6.702016422616466E-3    9.941363332309463E-1    6.234269111733805E-3
 1.893592477469092E5     9.939244669624610E-1    6.302998074520185E-3    6.051424164473389E-3   -6.834275782120394E-3    5.931270602443096E-3   -6.658553588248016E-3    9.941380677957886E-1    6.225550950767980E-3
 1.908040327980933E5     9.938963369414129E-1    6.297321306469920E-3    6.060891769744203E-3   -6.790757612515809E-3    5.906990575174151E-3   -6.622807185858748E-3    9.941191723910981E-1    6.161631270203066E-3
 1.922598413607715E5     9.939594934782613E-1    6.280301272298947E-3    6.048667796985379E-3   -6.753140882824851E-3    5.901808818581056E-3   -6.587279229851686E-3    9.941431005735358E-1    6.133442089565453E-3
 1.937267575428232E5     9.939863475886068E-1    6.240660972712319E-3    6.044153357282333E-3   -6.712965832773717E-3    5.895420190701458E-3   -6.551745871980182E-3    9.941424498206124E-1    6.080668400761133E-3
 1.952048660938581E5     9.939807473098047E-1    6.184712618606043E-3    6.034513483317192E-3   -6.675716314118662E-3    5.886100074680540E-3   -6.512239932688843E-3    9.941623322771821E-1    6.021692436683933E-3
 1.966942524101142E5     9.940161517777940E-1    6.136053327586545E-3    6.026413271620338E-3   -6.636829117982479E-3    5.878855408648330E-3   -6.471626844905393E-3    9.941458259431480E-1    5.984195452415063E-3
 1.981950025393913E5     9.939927688839691E-1    6.084891501493046E-3    6.018210968946272E-3   -6.599247640177547E-3    5.868968114196984E-3   -6.436309093843931E-3    9.941549349050336E-1    5.965050647250322E-3
