#  HZ   S   RI   R     50.00 
! Rohde & Schwarz Vector Network Analyzer 
! Rohde-Schwarz,ZNLE6-2Port,1323001256200024,1.71.1.10-23.02.1.238
! Created: UTC 4/7/2025, 10:17:24 AM
! freq[Hz]                re:S11                  im:S11                  re:S21                  im:S21                  re:S12                  im:S12                  re:S22                  im:S22
 1.000000000000000E5     2.626174819113276E-2    5.020900614948759E-2    9.740627256805636E-1   -5.046494896257730E-2    9.742851534728590E-1   -5.020755178358840E-2    2.623827237754777E-2    5.019338980196111E-2
 1.007629862646662E5     2.651507936124064E-2    5.041740764955167E-2    9.737851285981164E-1   -5.067823705638113E-2    9.740161552816321E-1   -5.041149237601675E-2    2.651397330706996E-2    5.040841739124373E-2
 1.015317940097331E5     2.680930285224583E-2    5.063062978889145E-2    9.735265331580206E-1   -5.087840652857349E-2    9.737417439866223E-1   -5.062734814235019E-2    2.679002825568470E-2    5.062145159119390E-2
 1.023064676522963E5     2.708056069100789E-2    5.083482680092338E-2    9.732482565322783E-1   -5.110182813736955E-2    9.734759409217277E-1   -5.084037235997295E-2    2.704760613696551E-2    5.083017702561303E-2
 1.030870519483485E5     2.736462369189500E-2    5.104314137522685E-2    9.729778963490090E-1   -5.131430134767704E-2    9.731878279176334E-1   -5.105233092440071E-2    2.732805177328969E-2    5.104502452724897E-2
 1.038735919953636E5     2.764152363888270E-2    5.126258314082369E-2    9.726953486405180E-1   -5.151176637510708E-2    9.729091638163835E-1   -5.126871841234188E-2    2.760297597061779E-2    5.125116976865648E-2
 1.046661332349037E5     2.792580375322199E-2    5.146497609451794E-2    9.724116767868672E-1   -5.172915092250091E-2    9.726083454012990E-1   -5.148052548893021E-2    2.786610907697621E-2    5.145475989651072E-2
 1.054647214552430E5     2.819585239192107E-2    5.166753312274265E-2    9.721101450345081E-1   -5.195124574437161E-2    9.723318883938113E-1   -5.168879244058760E-2    2.815861618715815E-2    5.166445406967026E-2
 1.062694027940149E5     2.847667729535847E-2    5.187046982904191E-2    9.718164397584198E-1   -5.216108941096031E-2    9.720644600007649E-1   -5.189565416531270E-2    2.845648202585626E-2    5.187043914739686E-2
 1.070802237408760E5     2.877061873517579E-2    5.208001084128623E-2    9.715352230602655E-1   -5.236864943161932E-2    9.717809059559528E-1   -5.210060854623626E-2    2.873582056504145E-2    5.207752648738109E-2
 1.078972311401927E5     2.904821580589224E-2    5.229644504104158E-2    9.712546905728123E-1   -5.255135389615433E-2    9.715082499610415E-1   -5.229893468977593E-2    2.903993038008090E-2    5.228674243366300E-2
 1.087204721937475E5     2.934867364257151E-2    5.250261263491020E-2    9.709686373558952E-1   -5.275772094155289E-2    9.712019349838914E-1   -5.252185004525625E-2    2.932514601818133E-2    5.248978717324143E-2
 1.095499944634658E5     2.964701994289659E-2    5.271045014267655E-2    9.706591029019304E-1   -5.296563273575357E-2    9.709181491891863E-1   -5.272326230082257E-2    2.962033552917421E-2    5.268305887398396E-2
 1.103858458741646E5     2.991410485220997E-2    5.291764348971409E-2    9.703440114744153E-1   -5.317217232621761E-2    9.706262931786220E-1   -5.292872559029396E-2    2.990292112663966E-2    5.289627987624730E-2
 1.112280747163201E5     3.023101654662540E-2    5.310537963210517E-2    9.700623340203578E-1   -5.338575404659863E-2    9.703416117186089E-1   -5.313419469279676E-2    3.020295256910462E-2    5.309346841166820E-2
 1.120767296488583E5     3.051464027560542E-2    5.331070427131802E-2    9.697491246280314E-1   -5.359488783209464E-2    9.700479842101997E-1   -5.334289811444726E-2    3.049436364404988E-2    5.329268659097490E-2
 1.129318597019661E5     3.082566851514464E-2    5.350972172835922E-2    9.694720149121814E-1   -5.378926996171375E-2    9.697642917837164E-1   -5.354369417445159E-2    3.080932643314623E-2    5.348416193956970E-2
 1.137935142799240E5     3.113410681807684E-2    5.370299287793326E-2    9.691920053247496E-1   -5.399697677484797E-2    9.694539090880913E-1   -5.374788058640832E-2    3.109838822865173E-2    5.368139818065389E-2
 1.146617431639607E5     3.142870884022468E-2    5.389928087848579E-2    9.688943138624578E-1   -5.419042992186040E-2    9.691663091613182E-1   -5.394147548293877E-2    3.139797752714446E-2    5.388444493041687E-2
 1.155365965151286E5     3.173854699466842E-2    5.410826460080608E-2    9.686024633105023E-1   -5.438162027050102E-2    9.688647295201909E-1   -5.415719377764024E-2    3.169882357642684E-2    5.407304610809153E-2
 1.164181248772018E5     3.203100815018927E-2    5.429441549028209E-2    9.682749254971125E-1   -5.457929162372071E-2    9.685467371554878E-1   -5.434488677574024E-2    3.199159157571003E-2    5.427255258821490E-2
 1.173063791795965E5     3.232930581869172E-2    5.450238670979490E-2    9.679838880570948E-1   -5.476677723408801E-2    9.682638751816208E-1   -5.453223868808986E-2    3.229115068460090E-2    5.446556177887265E-2
 1.182014107403141E5     3.264792485673555E-2    5.468283115832664E-2    9.676967207888902E-1   -5.495540514113152E-2    9.679549508512469E-1   -5.473675445673030E-2    3.259438784201166E-2    5.466206366698259E-2
 1.191032712689044E5     3.296676000534661E-2    5.488259523942567E-2    9.673992851366688E-1   -5.515228342357976E-2    9.676418903394096E-1   -5.493260880849542E-2    3.291493765483157E-2    5.485656415513572E-2
 1.200120128694542E5     3.327196426623378E-2    5.506478739270872E-2    9.670889195087589E-1   -5.535749520472160E-2    9.673556197990836E-1   -5.511763105669586E-2    3.322509955471604E-2    5.503909309702047E-2
 1.209276880435975E5     3.357582631687529E-2    5.526482495956059E-2    9.667886316658393E-1   -5.552711193939944E-2    9.670368566181403E-1   -5.530514095809474E-2    3.354631039281386E-2    5.524482337422960E-2
 1.218503496935483E5     3.389292737212850E-2    5.545518202999350E-2    9.664802105489622E-1   -5.571080149136557E-2    9.667654380495279E-1   -5.550366482823667E-2    3.386437566455623E-2    5.542472115577277E-2
 1.227800511251578E5     3.418868410435438E-2    5.565060652679699E-2    9.661497783675894E-1   -5.591059173043958E-2    9.664125869952298E-1   -5.569508888962516E-2    3.417383729529153E-2    5.561032637745226E-2
 1.237168460509929E5     3.452891960250658E-2    5.581843030678663E-2    9.658391404983675E-1   -5.610519903972299E-2    9.660950448646476E-1   -5.588284415989161E-2    3.449391203768136E-2    5.579821606469881E-2
 1.246607885934402E5     3.483181471633693E-2    5.600724146693507E-2    9.655211294556397E-1   -5.629472073949539E-2    9.657764614971790E-1   -5.607774943687562E-2    3.479519992796519E-2    5.597957753798471E-2
 1.256119332878327E5     3.515228696996867E-2    5.619052229995621E-2    9.651970554179955E-1   -5.649910639107902E-2    9.654926401650018E-1   -5.626273562885504E-2    3.511624462496275E-2    5.616601790873336E-2
 1.265703350856002E5     3.544813709004412E-2    5.638151098241925E-2    9.648580341481661E-1   -5.666237577886886E-2    9.651589813686430E-1   -5.645244572972451E-2    3.543626834229982E-2    5.634705273967537E-2
 1.275360493574453E5     3.577055541502014E-2    5.655919629980574E-2    9.645359237094996E-1   -5.685918996107316E-2    9.648460848409630E-1   -5.662818331021219E-2    3.575473748773916E-2    5.653363318451985E-2
 1.285091318965405E5     3.609014061822013E-2    5.673808358858809E-2    9.642025586985592E-1   -5.705137244904628E-2    9.645175447708221E-1   -5.682014490015353E-2    3.608743800709235E-2    5.671297139065254E-2
 1.294896389217529E5     3.640535783443576E-2    5.693180346877567E-2    9.638963230716551E-1   -5.722514345413070E-2    9.642056280737169E-1   -5.699385425124404E-2    3.641129066834799E-2    5.689185781283886E-2
 1.304776270808914E5     3.673720407850231E-2    5.709991565625972E-2    9.635803096941857E-1   -5.740363112018002E-2    9.638648531389684E-1   -5.718632488747576E-2    3.671016501077819E-2    5.707011462682533E-2
 1.314731534539810E5     3.706890474853670E-2    5.729051009633180E-2    9.632612780779850E-1   -5.757914929424097E-2    9.635608808654524E-1   -5.735614232746979E-2    3.704215787435593E-2    5.724202796991062E-2
 1.324762755565583E5     3.739755512092195E-2    5.746300254574269E-2    9.629469548805915E-1   -5.773989116293131E-2    9.632179061298962E-1   -5.753404996490173E-2    3.736389101852002E-2    5.742974279476188E-2
 1.334870513429962E5     3.771467687136319E-2    5.763949170544720E-2    9.626147425952575E-1   -5.793359291970944E-2    9.629342239125559E-1   -5.771383964328496E-2    3.770528260229748E-2    5.759068928416268E-2
 1.345055392098512E5     3.805203549550892E-2    5.780254925365658E-2    9.622793298197712E-1   -5.811755197258747E-2    9.626007212648359E-1   -5.788127281570760E-2    3.802529157684559E-2    5.776898553797389E-2
 1.355317979992373E5     3.839513335541459E-2    5.798288609756967E-2    9.619683956831218E-1   -5.828361918628044E-2    9.622889275672505E-1   -5.806261467107782E-2    3.834714054791277E-2    5.794111588244812E-2
 1.365658870022265E5     3.870027232716931E-2    5.815103694931900E-2    9.616218962165307E-1   -5.845891704196415E-2    9.619627526253395E-1   -5.822867791471587E-2    3.869090279723454E-2    5.811306805146894E-2
 1.376078659622731E5     3.905577024506490E-2    5.832464454435189E-2    9.613460925912450E-1   -5.861402837268199E-2    9.616525316324520E-1   -5.840444838102977E-2    3.902803521501666E-2    5.828502429099856E-2
 1.386577950786655E5     3.938532476115354E-2    5.849455726538172E-2    9.610098556764678E-1   -5.879236015126550E-2    9.613189450431597E-1   -5.857412384560961E-2    3.934624463586830E-2    5.845136201811177E-2
 1.397157350100044E5     3.971421396809503E-2    5.866445913823413E-2    9.606943466126702E-1   -5.895220944211416E-2    9.609701045124391E-1   -5.873811580294774E-2    3.967406706440849E-2    5.861947337500992E-2
 1.407817468777081E5     4.004575613308005E-2    5.882942667230246E-2    9.603559982104267E-1   -5.912489181000009E-2    9.606447037779904E-1   -5.891571515766864E-2    4.001260075782688E-2    5.877942984389421E-2
 1.418558922695422E5     4.036800531181503E-2    5.899374742111739E-2    9.600054277947635E-1   -5.928656379161516E-2    9.603130698636746E-1   -5.908114534935500E-2    4.033987198319888E-2    5.894791835376786E-2
 1.429382332431784E5     4.069821497098954E-2    5.916388555618893E-2    9.596698190351278E-1   -5.944787625647537E-2    9.600005816543884E-1   -5.924385887509775E-2    4.068060528604321E-2    5.910806136896767E-2
 1.440288323297804E5     4.105571199902956E-2    5.931967595545506E-2    9.593590195305721E-1   -5.961279908786703E-2    9.596538392271491E-1   -5.942278073860553E-2    4.100919288003005E-2    5.927271558523688E-2
 1.451277525376154E5     4.138509020942437E-2    5.947639324353745E-2    9.590247680360761E-1   -5.977940686669343E-2    9.593086449983201E-1   -5.958321828266314E-2    4.132521384083555E-2    5.944039110130594E-2
 1.462350573556962E5     4.173357510184181E-2    5.964020978095026E-2    9.586933671541427E-1   -5.994531150723195E-2    9.589755353239017E-1   -5.974718247623283E-2    4.167867294326748E-2    5.959090538636344E-2
 1.473508107574468E5     4.206229871093178E-2    5.979796477418794E-2    9.583514794764408E-1   -6.011148786136990E-2    9.586383735812215E-1   -5.989815686790134E-2    4.201705057871153E-2    5.976066886556933E-2
 1.484750772044004E5     4.240614230501553E-2    5.995800036645264E-2    9.580134591526217E-1   -6.025970272891424E-2    9.583292955966700E-1   -6.005634632439696E-2    4.235418345379482E-2    5.990709953805358E-2
 1.496079216499225E5     4.274596927175342E-2    6.011834817765929E-2    9.576789047415519E-1   -6.042391113367906E-2    9.580103943201190E-1   -6.022189146598028E-2    4.270740177409428E-2    6.006323743248317E-2
 1.507494095429637E5     4.308023803680823E-2    6.027218610708985E-2    9.573474955580312E-1   -6.057509709197292E-2    9.576588315122410E-1   -6.036935368748704E-2    4.303866559312466E-2    6.022126966775315E-2
 1.518996068318418E5     4.341032616730450E-2    6.042573389031849E-2    9.569795133197617E-1   -6.074494349594076E-2    9.573304459169505E-1   -6.052997989283697E-2    4.336905462230889E-2    6.037545256358430E-2
 1.530585799680507E5     4.374754974508106E-2    6.058840443908749E-2    9.566531032258349E-1   -6.088646468430546E-2    9.569668893809117E-1   -6.069135827892760E-2    4.370769791476236E-2    6.052909291484358E-2
 1.542263959101001E5     4.410141411896414E-2    6.072730309505902E-2    9.563204865704679E-1   -6.104759187671108E-2    9.566509391907125E-1   -6.084691664242296E-2    4.405802065086328E-2    6.067440832186660E-2
 1.554031221273835E5     4.444367894375024E-2    6.088244027066134E-2    9.559802354385489E-1   -6.119815195315910E-2    9.562934069224736E-1   -6.099193892414530E-2    4.438794153691328E-2    6.082873628219851E-2
 1.565888266040779E5     4.478313738254108E-2    6.102459093309071E-2    9.556284838153409E-1   -6.135102877023289E-2    9.559571952275173E-1   -6.114806006232706E-2    4.472573619389877E-2    6.096796921654997E-2
 1.577835778430689E5     4.514028613120562E-2    6.118093632895029E-2    9.552875577994627E-1   -6.150117142754063E-2    9.556039623822825E-1   -6.128981026447977E-2    4.506007747716530E-2    6.112750030399398E-2
 1.589874448699104E5     4.546831235115219E-2    6.132482411022354E-2    9.549435023309903E-1   -6.164539509065008E-2    9.552440088889091E-1   -6.145586530292974E-2    4.540906049145341E-2    6.125328736787462E-2
 1.602004972368116E5     4.580480238124891E-2    6.146211483608627E-2    9.545892663604929E-1   -6.179811113893201E-2    9.549331809227060E-1   -6.159735245504366E-2    4.576594557564860E-2    6.140519774807026E-2
 1.614228050266550E5     4.614817972067692E-2    6.161108817810970E-2    9.542516993404403E-1   -6.194425475650644E-2    9.545797016588357E-1   -6.174708873149566E-2    4.609211287127019E-2    6.154910937721179E-2
 1.626544388570473E5     4.650645742620488E-2    6.175960623978442E-2    9.539262632977252E-1   -6.207377871954129E-2    9.542411644417191E-1   -6.188299557047985E-2    4.643000385132186E-2    6.169372370523633E-2
 1.638954698843964E5     4.683308109208979E-2    6.189700944588723E-2    9.535590858338056E-1   -6.222810350455062E-2    9.539021033840646E-1   -6.202426756509231E-2    4.677117740404749E-2    6.183743133624406E-2
 1.651459698080244E5     4.719531042887193E-2    6.204385987190081E-2    9.532340433910774E-1   -6.236665620342705E-2    9.535616019105225E-1   -6.216419090651432E-2    4.712672933417294E-2    6.197086055213501E-2
 1.664060108743095E5     4.754417348618773E-2    6.216794833670828E-2    9.529104759604545E-1   -6.250575362631659E-2    9.532184523012757E-1   -6.231603825069762E-2    4.746757838726286E-2    6.210269768661490E-2
 1.676756658808590E5     4.789095266438437E-2    6.231638045879372E-2    9.525603231735802E-1   -6.264821507850829E-2    9.528879860235664E-1   -6.244824914386714E-2    4.780597876292618E-2    6.224626187656234E-2
 1.689550081807175E5     4.823173369626228E-2    6.243879733926051E-2    9.522198742659965E-1   -6.279396456503750E-2    9.525318098102949E-1   -6.258630547413839E-2    4.815868605134745E-2    6.238676741410048E-2
 1.702441116866020E5     4.857344515994467E-2    6.258874176775188E-2    9.518530986368061E-1   -6.292652218798392E-2    9.521833582265214E-1   -6.273670656940611E-2    4.849897521448632E-2    6.251179328066717E-2
 1.715430508751738E5     4.892431734288630E-2    6.271782756008032E-2    9.515187429926463E-1   -6.306434705701272E-2    9.518607702713721E-1   -6.286866651094643E-2    4.884509019797310E-2    6.264660146271175E-2
 1.728519007913403E5     4.926805208510424E-2    6.285496135837747E-2    9.511648808574179E-1   -6.319439265700572E-2    9.515046387084337E-1   -6.300720352455615E-2    4.920208194634335E-2    6.278242259839688E-2
 1.741707370525927E5     4.961253334081445E-2    6.298343209452066E-2    9.508152896810765E-1   -6.332972342775695E-2    9.511486953056343E-1   -6.314818408207483E-2    4.954512631633168E-2    6.291747239756822E-2
 1.754996358533718E5     4.995084754259058E-2    6.311782052971635E-2    9.504757565962422E-1   -6.346192926914204E-2    9.508261370373090E-1   -6.328236489530167E-2    4.989806615566536E-2    6.303198228515607E-2
 1.768386739694722E5     5.029666690482697E-2    6.323561220310199E-2    9.501339066612937E-1   -6.360071718435199E-2    9.504734191106136E-1   -6.341564622014960E-2    5.024075160107114E-2    6.317214513820978E-2
 1.781879287624771E5     5.066802918311077E-2    6.336617155754368E-2    9.498062031018731E-1   -6.372161759960673E-2    9.501365367674749E-1   -6.353707605561117E-2    5.059027153922324E-2    6.329826366426802E-2
 1.795474781842276E5     5.100374317488988E-2    6.350267036440944E-2    9.494611855237780E-1   -6.385354897706076E-2    9.497504734894043E-1   -6.368260426784043E-2    5.093082546545236E-2    6.342695130958739E-2
 1.809174007813277E5     5.135379323407493E-2    6.362897892570442E-2    9.491098675166196E-1   -6.399182644467685E-2    9.494324033580316E-1   -6.380642074604057E-2    5.129214550437138E-2    6.355793421539019E-2
 1.822977756996804E5     5.171446222480051E-2    6.374916262733960E-2    9.487658339399828E-1   -6.413349903353843E-2    9.490627533291637E-1   -6.393361446106680E-2    5.163484525567495E-2    6.368600158762652E-2
 1.836886826890609E5     5.204750646550975E-2    6.387035119117568E-2    9.484286313393109E-1   -6.423567531611488E-2    9.487159240140598E-1   -6.405370654244830E-2    5.197217731281867E-2    6.380729161551174E-2
 1.850902021077247E5     5.240100894328471E-2    6.400155558719926E-2    9.480781382167313E-1   -6.436521145697975E-2    9.483699844547117E-1   -6.418916521174611E-2    5.232295982167753E-2    6.392808960188887E-2
 1.865024149270491E5     5.275916774661611E-2    6.412238149086025E-2    9.477451792377117E-1   -6.449372595255727E-2    9.480519416436654E-1   -6.430495010892942E-2    5.267288792737297E-2    6.405204774277864E-2
 1.879254027362132E5     5.310269568109952E-2    6.425216369087917E-2    9.473988747571366E-1   -6.460909959974259E-2    9.477081305868400E-1   -6.442668920477809E-2    5.301905254240087E-2    6.417528567943857E-2
 1.893592477469092E5     5.346510833802863E-2    6.437603127947052E-2    9.470375455514987E-1   -6.473674453537082E-2    9.473781131247867E-1   -6.453257388312714E-2    5.335647982686581E-2    6.427930885898644E-2
 1.908040327980933E5     5.377847324566207E-2    6.448462660920427E-2    9.466855698427589E-1   -6.486449119274927E-2    9.470006097458429E-1   -6.469028223734465E-2    5.371600805894924E-2    6.440888381755200E-2
 1.922598413607715E5     5.413234813746085E-2    6.459473991456834E-2    9.463659111329826E-1   -6.498560732941755E-2    9.466404595542034E-1   -6.480801822377273E-2    5.405095514739598E-2    6.453271711986389E-2
 1.937267575428232E5     5.447644289412568E-2    6.471911766299585E-2    9.460174547905030E-1   -6.509573099324559E-2    9.463251753962714E-1   -6.491336965625713E-2    5.440011847384559E-2    6.464661457244003E-2
 1.952048660938581E5     5.482647976522446E-2    6.483738304150467E-2    9.456818777491444E-1   -6.521958841510926E-2    9.459770820804037E-1   -6.505135749631888E-2    5.475014384621062E-2    6.477015169575141E-2
 1.966942524101142E5     5.517849359383697E-2    6.495244149667999E-2    9.453451971791033E-1   -6.533401456700411E-2    9.456302453341242E-1   -6.515118152779464E-2    5.509396516388010E-2    6.488287023861747E-2
 1.981950025393913E5     5.552051472273416E-2    6.506475397169570E-2    9.450049480367614E-1   -6.544331748832792E-2    9.452796668642791E-1   -6.527361652007176E-2    5.543495524875815E-2    6.499310530942776E-2
