#  HZ   S   RI   R     50.00 
! Rohde & Schwarz Vector Network Analyzer 
! Rohde-Schwarz,ZNLE6-2Port,1323001256200024,1.71.1.10-23.02.1.238
! Created: UTC 4/7/2025, 10:07:45 AM
! freq[Hz]                re:S11                  im:S11                  re:S21                  im:S21                  re:S12                  im:S12                  re:S22                  im:S22
 1.000000000000000E5     1.195256161873612E-1    1.684667315343750E-1    8.818643542377618E-1   -1.685249595643999E-1    8.823731172856567E-1   -1.681942161719829E-1    1.192720618340170E-1    1.682443153230285E-1
 1.007629862646662E5     1.205945892472324E-1    1.688796573217572E-1    8.807987421996034E-1   -1.689425357014863E-1    8.813222375248724E-1   -1.686148065134180E-1    1.203526234730166E-1    1.686552419378498E-1
 1.015317940097331E5     1.216790673924456E-1    1.692889750648602E-1    8.797411832392344E-1   -1.693517016179110E-1    8.802467266560803E-1   -1.690540360383147E-1    1.214231915496870E-1    1.690575586633645E-1
 1.023064676522963E5     1.227796882962434E-1    1.696918895847928E-1    8.786647489458426E-1   -1.697845636803712E-1    8.791955064436708E-1   -1.694677939399404E-1    1.225072739716918E-1    1.694742713293761E-1
 1.030870519483485E5     1.238729554274770E-1    1.700802005136935E-1    8.775903571222871E-1   -1.701812340367269E-1    8.781045431330595E-1   -1.698586149513495E-1    1.235826394213938E-1    1.698763399848098E-1
 1.038735919953636E5     1.249294533440275E-1    1.704781391853416E-1    8.764869246277472E-1   -1.705726159761993E-1    8.770263330802295E-1   -1.702704022446514E-1    1.246763275936463E-1    1.702693609804103E-1
 1.046661332349037E5     1.260315688079807E-1    1.708730219963642E-1    8.754133179346819E-1   -1.709682380954984E-1    8.759349504069804E-1   -1.706695780820595E-1    1.257532386525015E-1    1.706502566977655E-1
 1.054647214552430E5     1.271160732385956E-1    1.712488823436002E-1    8.742982283002119E-1   -1.713629197794679E-1    8.748247281599036E-1   -1.710483720301864E-1    1.268365536455922E-1    1.710432151721835E-1
 1.062694027940149E5     1.282167231654172E-1    1.716157787065038E-1    8.732051541670995E-1   -1.717454380173265E-1    8.737376797772555E-1   -1.714273421834505E-1    1.279319378606301E-1    1.714148372186166E-1
 1.070802237408760E5     1.293235283057239E-1    1.720001344571393E-1    8.721045718414560E-1   -1.721213920766419E-1    8.726579081219653E-1   -1.717993122238021E-1    1.290306436067027E-1    1.717859713805634E-1
 1.078972311401927E5     1.304242154842157E-1    1.723638605497906E-1    8.710367356659477E-1   -1.724741240724232E-1    8.715657870299603E-1   -1.721627565694517E-1    1.301564730868803E-1    1.721539304820425E-1
 1.087204721937475E5     1.315274264029333E-1    1.727187036329073E-1    8.699257364423416E-1   -1.728404177547772E-1    8.704543048092365E-1   -1.725406919833532E-1    1.312552690182059E-1    1.725176272199699E-1
 1.095499944634658E5     1.326400410671419E-1    1.730820031285390E-1    8.688075918432938E-1   -1.731994978933714E-1    8.693682495960898E-1   -1.728943230608485E-1    1.323650012709471E-1    1.728631986077358E-1
 1.103858458741646E5     1.337427327516537E-1    1.734299748545152E-1    8.676891918373169E-1   -1.735584555776527E-1    8.682751393561473E-1   -1.732574073406533E-1    1.334711088971370E-1    1.732160270419839E-1
 1.112280747163201E5     1.348542389966729E-1    1.737557989411471E-1    8.665819873735804E-1   -1.739063899771496E-1    8.671595332014712E-1   -1.735984319213099E-1    1.345874875125286E-1    1.735595834635446E-1
 1.120767296488583E5     1.359693039921216E-1    1.740986613129256E-1    8.654605597764046E-1   -1.742466454146155E-1    8.660506327512055E-1   -1.739489056061546E-1    1.356986735758646E-1    1.738903561995472E-1
 1.129318597019661E5     1.370955011449098E-1    1.744138863091276E-1    8.643648379771273E-1   -1.745821886228301E-1    8.649387628236233E-1   -1.742779998405221E-1    1.368127002579855E-1    1.742109586808929E-1
 1.137935142799240E5     1.382184558608263E-1    1.747409615218449E-1    8.632428673251954E-1   -1.749199473762230E-1    8.638124505160097E-1   -1.746144774926879E-1    1.379381130636093E-1    1.745356481875802E-1
 1.146617431639607E5     1.393424742183013E-1    1.750687024561257E-1    8.621366044577945E-1   -1.752297330388952E-1    8.627071495159780E-1   -1.749196286761843E-1    1.390537814867873E-1    1.748601775316558E-1
 1.155365965151286E5     1.404772241004556E-1    1.753803581528936E-1    8.610316743600011E-1   -1.755421857079441E-1    8.615851443256403E-1   -1.752569043219339E-1    1.401792217629053E-1    1.751676394694449E-1
 1.164181248772018E5     1.415873526060691E-1    1.756688718485249E-1    8.598784711693340E-1   -1.758527877704575E-1    8.604692277307151E-1   -1.755696127295344E-1    1.413002523747777E-1    1.754641758677686E-1
 1.173063791795965E5     1.427049061518199E-1    1.759769382719899E-1    8.587518965877021E-1   -1.761498146818217E-1    8.593671837105953E-1   -1.758565418125391E-1    1.424113922516152E-1    1.757620038470622E-1
 1.182014107403141E5     1.438399589282082E-1    1.762664586971759E-1    8.576553506898865E-1   -1.764464362419808E-1    8.582394871209338E-1   -1.761659577562456E-1    1.435350481754790E-1    1.760624559564360E-1
 1.191032712689044E5     1.449750444992063E-1    1.765558395686319E-1    8.565304867653998E-1   -1.767431363211838E-1    8.571259657275703E-1   -1.764487578538327E-1    1.446778365525637E-1    1.763587807119246E-1
 1.200120128694542E5     1.461175178425337E-1    1.768238786281866E-1    8.554099920496476E-1   -1.770356177910474E-1    8.559931257092054E-1   -1.767384646434417E-1    1.457891613983507E-1    1.766300143617894E-1
 1.209276880435975E5     1.472172323629736E-1    1.771071556264883E-1    8.542513665979869E-1   -1.773034320901881E-1    8.548595840981476E-1   -1.770132823588979E-1    1.469294146802751E-1    1.769084822262439E-1
 1.218503496935483E5     1.483674394777805E-1    1.773818398585756E-1    8.531473446199026E-1   -1.775593746101423E-1    8.537492888201629E-1   -1.772979607349960E-1    1.480611513954742E-1    1.771846288687193E-1
 1.227800511251578E5     1.494924551064846E-1    1.776531879091675E-1    8.520034636932012E-1   -1.778360529133739E-1    8.526045864243412E-1   -1.775696866028184E-1    1.492057204320626E-1    1.774384319619368E-1
 1.237168460509929E5     1.506504513827829E-1    1.778985048559489E-1    8.508888045188200E-1   -1.781037937079115E-1    8.514657212101475E-1   -1.778276881423820E-1    1.503408658227472E-1    1.776937740541989E-1
 1.246607885934402E5     1.517739321444505E-1    1.781424851973772E-1    8.497520949812200E-1   -1.783641540156702E-1    8.503450338048640E-1   -1.780916179898527E-1    1.514843885262594E-1    1.779498384782296E-1
 1.256119332878327E5     1.529098866669992E-1    1.783991378745305E-1    8.486219231132214E-1   -1.786102080653721E-1    8.492224363286500E-1   -1.783431631501451E-1    1.526153200619778E-1    1.781874471892201E-1
 1.265703350856002E5     1.540355115433618E-1    1.786316415222890E-1    8.474807404827703E-1   -1.788421794495912E-1    8.480749156096410E-1   -1.785890288847200E-1    1.537463792072833E-1    1.784292974343374E-1
 1.275360493574453E5     1.551870128049686E-1    1.788624737426621E-1    8.463290933563852E-1   -1.790934845199792E-1    8.469480725073986E-1   -1.788044316662897E-1    1.548728216409834E-1    1.786609908148439E-1
 1.285091318965405E5     1.563270614895503E-1    1.790867480961378E-1    8.451857901525458E-1   -1.793328237606915E-1    8.457993856614120E-1   -1.790435676893707E-1    1.560090494680821E-1    1.788835650260786E-1
 1.294896389217529E5     1.574673689229038E-1    1.793060111427737E-1    8.440499348863366E-1   -1.795601350714097E-1    8.446796567913860E-1   -1.792785281961299E-1    1.571607774943470E-1    1.791092598633906E-1
 1.304776270808914E5     1.586177834115700E-1    1.795303216929869E-1    8.429342058027683E-1   -1.797630014457101E-1    8.435270692964626E-1   -1.794983623326852E-1    1.582671082574064E-1    1.793279547657274E-1
 1.314731534539810E5     1.597583859373280E-1    1.797342693858184E-1    8.417850853508829E-1   -1.799893909628995E-1    8.424068691744039E-1   -1.797091865740745E-1    1.594137140840031E-1    1.795280887898610E-1
 1.324762755565583E5     1.608936090520001E-1    1.799348062863848E-1    8.406586136616714E-1   -1.801862617744910E-1    8.412618409331235E-1   -1.799200716370419E-1    1.605481363572724E-1    1.797316093776458E-1
 1.334870513429962E5     1.620229656940964E-1    1.801303271457434E-1    8.395183454544233E-1   -1.803930907332059E-1    8.401495251943981E-1   -1.801264296778789E-1    1.616960085219078E-1    1.799283104701133E-1
 1.345055392098512E5     1.631807952110797E-1    1.803184250270256E-1    8.383880985854721E-1   -1.805897270839040E-1    8.390059660199282E-1   -1.803042699194902E-1    1.628207310735583E-1    1.801253936016602E-1
 1.355317979992373E5     1.643229504492764E-1    1.805056296767171E-1    8.372611238942506E-1   -1.807761949176044E-1    8.379039906188814E-1   -1.805185156417991E-1    1.639651938938290E-1    1.803060102134825E-1
 1.365658870022265E5     1.654543588775276E-1    1.806827712911584E-1    8.361213201882137E-1   -1.809582082206881E-1    8.367697595169900E-1   -1.806983729938391E-1    1.651095826748457E-1    1.804927514494505E-1
 1.376078659622731E5     1.665976262913353E-1    1.808521796499274E-1    8.350107444280931E-1   -1.811336402733058E-1    8.356439271012592E-1   -1.808789792134077E-1    1.662571444949429E-1    1.806627519110608E-1
 1.386577950786655E5     1.677231429322014E-1    1.810298294387774E-1    8.338605255362505E-1   -1.813031052872289E-1    8.345364661038979E-1   -1.810545320440506E-1    1.674026278780701E-1    1.808359576656774E-1
 1.397157350100044E5     1.688938060030748E-1    1.812001946616860E-1    8.327445866106312E-1   -1.814671324479076E-1    8.333714689186220E-1   -1.812025339124778E-1    1.685318235040670E-1    1.810042468037024E-1
 1.407817468777081E5     1.700097866338865E-1    1.813537731948014E-1    8.315929056357138E-1   -1.816366009632117E-1    8.322517505072962E-1   -1.813791840313326E-1    1.696564400087232E-1    1.811565874777196E-1
 1.418558922695422E5     1.711247822409097E-1    1.815027867353091E-1    8.304560660273295E-1   -1.817884454878665E-1    8.311293242001501E-1   -1.815290487528576E-1    1.707956475699831E-1    1.813144797325310E-1
 1.429382332431784E5     1.722586766432435E-1    1.816540245990936E-1    8.293201728397043E-1   -1.819349889187216E-1    8.300176100656919E-1   -1.816756672936808E-1    1.719433646682254E-1    1.814545317977395E-1
 1.440288323297804E5     1.733930430374075E-1    1.817893737874965E-1    8.281945422535977E-1   -1.820745752261671E-1    8.288547120695061E-1   -1.818347355658467E-1    1.730609085097806E-1    1.815898049701102E-1
 1.451277525376154E5     1.745299811527340E-1    1.819161936044418E-1    8.270726768172196E-1   -1.822225651512453E-1    8.277302605756569E-1   -1.819844611192090E-1    1.741895049935349E-1    1.817330587633442E-1
 1.462350573556962E5     1.756782944076614E-1    1.820455804914816E-1    8.259561667679040E-1   -1.823644438305670E-1    8.265941946401988E-1   -1.821086907618594E-1    1.753186678438497E-1    1.818634379858357E-1
 1.473508107574468E5     1.767971622962125E-1    1.821729817163315E-1    8.248197144194916E-1   -1.824773212316131E-1    8.254701266609968E-1   -1.822288016346560E-1    1.764489272270476E-1    1.819841798729611E-1
 1.484750772044004E5     1.779360914520400E-1    1.822934958673338E-1    8.237123967596832E-1   -1.826059938060007E-1    8.243502890988210E-1   -1.823590031110003E-1    1.775721626260619E-1    1.820928943401238E-1
 1.496079216499225E5     1.790565275032129E-1    1.824095095943453E-1    8.225676816348769E-1   -1.827314840400991E-1    8.232499549625688E-1   -1.824905784083265E-1    1.787098204673719E-1    1.822061302593905E-1
 1.507494095429637E5     1.801771485702766E-1    1.825159262748740E-1    8.214262420278949E-1   -1.828498422862026E-1    8.221071911933778E-1   -1.825940028747239E-1    1.798239978393788E-1    1.823173196491462E-1
 1.518996068318418E5     1.813123338652253E-1    1.826321968006994E-1    8.203020220960200E-1   -1.829490123370855E-1    8.209907767328976E-1   -1.827100871161429E-1    1.809477877766887E-1    1.824203996957687E-1
 1.530585799680507E5     1.824338114849400E-1    1.827358067025432E-1    8.191823842724943E-1   -1.830412367560283E-1    8.198591506178550E-1   -1.828143859806339E-1    1.820706563757581E-1    1.825222112891309E-1
 1.542263959101001E5     1.835462317191990E-1    1.828145010678664E-1    8.180635256779503E-1   -1.831542897173726E-1    8.187561197615233E-1   -1.829185610586830E-1    1.831885769397086E-1    1.826148525690096E-1
 1.554031221273835E5     1.846647799888057E-1    1.828952540113350E-1    8.169439906129076E-1   -1.832402647040657E-1    8.176344758025419E-1   -1.830134714818296E-1    1.843165895871869E-1    1.827062050400941E-1
 1.565888266040779E5     1.857877587903035E-1    1.829868258479476E-1    8.158270750905937E-1   -1.833262885931423E-1    8.165433322364607E-1   -1.830965657331749E-1    1.854342601723826E-1    1.827913953260167E-1
 1.577835778430689E5     1.869170652672608E-1    1.830601508054279E-1    8.147202167670448E-1   -1.834167563896630E-1    8.154456036118642E-1   -1.831850538066684E-1    1.865592738666771E-1    1.828789433257734E-1
 1.589874448699104E5     1.880062823127928E-1    1.831401349066646E-1    8.136096732704284E-1   -1.834898803950378E-1    8.143398300308190E-1   -1.832680792955878E-1    1.876831415821711E-1    1.829440582266635E-1
 1.602004972368116E5     1.891306872932418E-1    1.832134941183765E-1    8.124959037857222E-1   -1.835674902535556E-1    8.132222016043353E-1   -1.833441021966853E-1    1.887782079388229E-1    1.830044360128421E-1
 1.614228050266550E5     1.902475073867531E-1    1.832798909573206E-1    8.114077683085325E-1   -1.836328140897955E-1    8.121095226887614E-1   -1.834035805026678E-1    1.898789079888140E-1    1.830707697794988E-1
 1.626544388570473E5     1.913468467186027E-1    1.833409834136761E-1    8.102928479700903E-1   -1.836954932735614E-1    8.110118187217391E-1   -1.834638479605672E-1    1.909875172530618E-1    1.831284164077365E-1
 1.638954698843964E5     1.924661492472237E-1    1.833917283948177E-1    8.091829945103427E-1   -1.837616099073884E-1    8.099014018589341E-1   -1.835274319505473E-1    1.920812426958854E-1    1.831888988178435E-1
 1.651459698080244E5     1.935616800469149E-1    1.834445696136805E-1    8.081048293688258E-1   -1.838094950589210E-1    8.088248220858355E-1   -1.835856408712323E-1    1.932020833033675E-1    1.832373340078161E-1
 1.664060108743095E5     1.946647508175962E-1    1.834869049270626E-1    8.070188425815260E-1   -1.838544791672438E-1    8.077322442883248E-1   -1.836397972285448E-1    1.943011623785821E-1    1.832843638485399E-1
 1.676756658808590E5     1.957898710719534E-1    1.835386143997193E-1    8.059296762130402E-1   -1.839096115227388E-1    8.066423888996002E-1   -1.836802817176067E-1    1.953926278042961E-1    1.833342803373421E-1
 1.689550081807175E5     1.968714720665229E-1    1.835673335910909E-1    8.048301512057188E-1   -1.839581563726304E-1    8.055489618382121E-1   -1.837428310522002E-1    1.964982552782265E-1    1.833648419721303E-1
 1.702441116866020E5     1.979673260871008E-1    1.836106841030896E-1    8.037271805196278E-1   -1.839978083136055E-1    8.044553282138007E-1   -1.837825256814673E-1    1.975787782041705E-1    1.834052210723561E-1
 1.715430508751738E5     1.990569682607476E-1    1.836360321172404E-1    8.026404980567137E-1   -1.840294257101478E-1    8.033915836235273E-1   -1.838169584160197E-1    1.986835376561477E-1    1.834302514668709E-1
 1.728519007913403E5     2.001578872326509E-1    1.836780183669927E-1    8.015681959951807E-1   -1.840508474332505E-1    8.023068036961567E-1   -1.838462447385930E-1    1.997635237349134E-1    1.834740442008986E-1
 1.741707370525927E5     2.012365310808353E-1    1.836883161189183E-1    8.004819373420898E-1   -1.840903591475350E-1    8.011965374680518E-1   -1.838927593599073E-1    2.008561868367074E-1    1.834909081820827E-1
 1.754996358533718E5     2.023393469752079E-1    1.837131711770434E-1    7.994184932978733E-1   -1.841110055744426E-1    8.001240550588287E-1   -1.839102642203335E-1    2.019390712340355E-1    1.834894987372185E-1
 1.768386739694722E5     2.034113643518233E-1    1.837248840793656E-1    7.983289119488688E-1   -1.841370235241674E-1    7.990477944668495E-1   -1.839247173453906E-1    2.030200290309595E-1    1.835262050785826E-1
 1.781879287624771E5     2.044840863416497E-1    1.837268815118172E-1    7.972617760292332E-1   -1.841551517081616E-1    7.979906677390853E-1   -1.839476085774478E-1    2.040952286964254E-1    1.835369753410233E-1
 1.795474781842276E5     2.055677604341674E-1    1.837409021931323E-1    7.961672880455243E-1   -1.841751670878284E-1    7.968865384632443E-1   -1.839648554710153E-1    2.051639677513851E-1    1.835474910938654E-1
 1.809174007813277E5     2.066460980519958E-1    1.837456869510070E-1    7.951150049769176E-1   -1.841813161826107E-1    7.958399279379214E-1   -1.839791386198277E-1    2.062285717578955E-1    1.835468213424827E-1
 1.822977756996804E5     2.077182065072749E-1    1.837502745498014E-1    7.940504212149250E-1   -1.841890551232826E-1    7.947573112222888E-1   -1.839799329755043E-1    2.073080175092463E-1    1.835559037597624E-1
 1.836886826890609E5     2.087907200742466E-1    1.837496219012257E-1    7.930041914961512E-1   -1.841924640036903E-1    7.936849292060049E-1   -1.839800556415056E-1    2.083643982314210E-1    1.835669877211521E-1
 1.850902021077247E5     2.098494128331116E-1    1.837470898867244E-1    7.919454050271894E-1   -1.841815876139344E-1    7.926486667401904E-1   -1.839829247268499E-1    2.094464639583618E-1    1.835590586923410E-1
 1.865024149270491E5     2.109122022568860E-1    1.837352372636768E-1    7.908779634861979E-1   -1.841832299129455E-1    7.915982866202492E-1   -1.839814276509689E-1    2.105041480098101E-1    1.835496099955405E-1
 1.879254027362132E5     2.119516337464866E-1    1.837349395766210E-1    7.898158092033771E-1   -1.841683096305038E-1    7.905578321286929E-1   -1.839803910620061E-1    2.115649396725516E-1    1.835407397847702E-1
 1.893592477469092E5     2.129918948857949E-1    1.837513415123990E-1    7.887992910211579E-1   -1.841401490828217E-1    7.894919171330088E-1   -1.839975707810136E-1    2.126311608868115E-1    1.834936208499309E-1
 1.908040327980933E5     2.140652086728839E-1    1.836995262718680E-1    7.877290332047983E-1   -1.841523054505357E-1    7.884212875326096E-1   -1.839662060279158E-1    2.136605143628727E-1    1.834990785790049E-1
 1.922598413607715E5     2.151052647245850E-1    1.836705245231919E-1    7.866838602649028E-1   -1.841312813955765E-1    7.873961303730715E-1   -1.839548232660159E-1    2.147310601518179E-1    1.834924139077436E-1
 1.937267575428232E5     2.161366267109502E-1    1.836514584764640E-1    7.856300061252022E-1   -1.841176107854910E-1    7.863692427774741E-1   -1.839262405794708E-1    2.157613658693406E-1    1.834631344044861E-1
 1.952048660938581E5     2.171953963852932E-1    1.836282516529081E-1    7.846136821001344E-1   -1.840949831187964E-1    7.853371669725451E-1   -1.839160222262637E-1    2.167910631173821E-1    1.834366483992095E-1
 1.966942524101142E5     2.182302525692143E-1    1.836047098734398E-1    7.835787908767918E-1   -1.840739761521873E-1    7.842993616129887E-1   -1.838794423637909E-1    2.178214305701810E-1    1.834046050065210E-1
 1.981950025393913E5     2.192645737546484E-1    1.835634784692565E-1    7.825391594931278E-1   -1.840442391805833E-1    7.832697116536630E-1   -1.838581043147701E-1    2.188637189527968E-1    1.833740690022316E-1
