#  HZ   S   RI   R     50.00 
! Rohde & Schwarz Vector Network Analyzer 
! Rohde-Schwarz,ZNLE6-2Port,1323001256200024,1.71.1.10-23.02.1.238
! Created: UTC 4/7/2025, 9:59:40 AM
! freq[Hz]                re:S11                  im:S11                  re:S21                  im:S21                  re:S12                  im:S12                  re:S22                  im:S22
 1.000000000000000E5     2.841171383356991E-1    2.779082926925116E-1    7.183637169748905E-1   -2.781043868176146E-1    7.192330753324421E-1   -2.778979788707652E-1    2.835235885044894E-1    2.775918430447386E-1
 1.007629862646662E5     2.860114636674668E-1    2.779169538286173E-1    7.164822573917031E-1   -2.781378000080135E-1    7.173458314977258E-1   -2.779219424276638E-1    2.854187812640337E-1    2.776080113231838E-1
 1.015317940097331E5     2.879110563004345E-1    2.779030814553995E-1    7.145941374419629E-1   -2.781278295627400E-1    7.154451416475086E-1   -2.779526753814970E-1    2.873173210361559E-1    2.776064326769099E-1
 1.023064676522963E5     2.898105158536425E-1    2.778841021806691E-1    7.127037346226641E-1   -2.781468617350841E-1    7.135657686769392E-1   -2.779633697763491E-1    2.892140319273006E-1    2.776003476686201E-1
 1.030870519483485E5     2.916870084180186E-1    2.778496514411335E-1    7.107926794928007E-1   -2.781337139810385E-1    7.116715883564194E-1   -2.779394960134510E-1    2.910820401400060E-1    2.775807428766134E-1
 1.038735919953636E5     2.935725416683989E-1    2.778223680748015E-1    7.089294495325050E-1   -2.781056542912704E-1    7.097642991394131E-1   -2.779169345892000E-1    2.929728298907580E-1    2.775427460369242E-1
 1.046661332349037E5     2.954489172267580E-1    2.777623611096130E-1    7.070227534767374E-1   -2.780655670965078E-1    7.078807092889082E-1   -2.778818504073938E-1    2.948290984709481E-1    2.774960786090711E-1
 1.054647214552430E5     2.973217548970465E-1    2.777191314842667E-1    7.051222686523284E-1   -2.780114372544373E-1    7.059932556653191E-1   -2.778288467258032E-1    2.967221025347936E-1    2.774486004493955E-1
 1.062694027940149E5     2.992031816950453E-1    2.776418351353859E-1    7.032422736397725E-1   -2.779516861169852E-1    7.041129319128064E-1   -2.777712501391175E-1    2.986048118300740E-1    2.773765441958562E-1
 1.070802237408760E5     3.010998301853506E-1    2.775562830970374E-1    7.013677068784950E-1   -2.778858221277056E-1    7.022618469758750E-1   -2.777047066626902E-1    3.004697090404951E-1    2.773079661266956E-1
 1.078972311401927E5     3.029684519834088E-1    2.774780008012770E-1    6.995244362113012E-1   -2.777943385638748E-1    7.004148019742960E-1   -2.776235054798983E-1    3.023428097698697E-1    2.772162412958946E-1
 1.087204721937475E5     3.048238825839785E-1    2.773666643476378E-1    6.976555094100114E-1   -2.777084190158404E-1    6.985298547662512E-1   -2.775449341585394E-1    3.042054455680361E-1    2.771212784257044E-1
 1.095499944634658E5     3.066994261518344E-1    2.772643461956574E-1    6.957871457039626E-1   -2.776021041349298E-1    6.966584170744824E-1   -2.774344719144599E-1    3.060480953986643E-1    2.769992356367547E-1
 1.103858458741646E5     3.085403001069818E-1    2.771457995241770E-1    6.939253951773607E-1   -2.774885256914225E-1    6.948062681165452E-1   -2.773270987012798E-1    3.079187555190704E-1    2.768930659847889E-1
 1.112280747163201E5     3.103979715645128E-1    2.770034215424280E-1    6.920676307626508E-1   -2.773721257069207E-1    6.929665691013029E-1   -2.772087482420138E-1    3.097747034388978E-1    2.767539792496950E-1
 1.120767296488583E5     3.122434595443138E-1    2.768715902210762E-1    6.902071039204567E-1   -2.772395148638209E-1    6.911244956828806E-1   -2.770850408067022E-1    3.116142206578003E-1    2.766143326306099E-1
 1.129318597019661E5     3.140901002980040E-1    2.767171133322128E-1    6.883855336627687E-1   -2.770898817586905E-1    6.892790335754948E-1   -2.769387362704943E-1    3.134615371735804E-1    2.764560417695981E-1
 1.137935142799240E5     3.159301080677774E-1    2.765475502676557E-1    6.865485101470479E-1   -2.769405165594871E-1    6.874395493195873E-1   -2.767924871639923E-1    3.152953968010700E-1    2.763105087597919E-1
 1.146617431639607E5     3.177436356818473E-1    2.763807635649068E-1    6.847121872352855E-1   -2.767716716939227E-1    6.856228046391281E-1   -2.766222278228447E-1    3.171246699225471E-1    2.761290086638644E-1
 1.155365965151286E5     3.195628399143807E-1    2.761925366238276E-1    6.828823076703543E-1   -2.765829943526774E-1    6.837933816573593E-1   -2.764576725678491E-1    3.189484946188352E-1    2.759549925993821E-1
 1.164181248772018E5     3.213830262930853E-1    2.759862245349462E-1    6.810551158893737E-1   -2.763966479697444E-1    6.819738097617384E-1   -2.762790727116539E-1    3.207863546334603E-1    2.757567608118375E-1
 1.173063791795965E5     3.232000744609950E-1    2.757962964533049E-1    6.792457467931720E-1   -2.761972835418318E-1    6.801725926347904E-1   -2.760670110377982E-1    3.225847242423769E-1    2.755564901527344E-1
 1.182014107403141E5     3.249939570090362E-1    2.755773690522225E-1    6.774442673702826E-1   -2.759892372923711E-1    6.783581866638667E-1   -2.758849106978585E-1    3.243937919028691E-1    2.753548065555336E-1
 1.191032712689044E5     3.268073442073272E-1    2.753479493266523E-1    6.756331513513484E-1   -2.757666450486869E-1    6.765406437429704E-1   -2.756625876749777E-1    3.261857328151001E-1    2.751415461433863E-1
 1.200120128694542E5     3.286004465801226E-1    2.751048893174129E-1    6.738377698365801E-1   -2.755630556890207E-1    6.747373935861474E-1   -2.754440552957714E-1    3.279990989812439E-1    2.748979348181748E-1
 1.209276880435975E5     3.303799178622788E-1    2.748709273647018E-1    6.720263921740841E-1   -2.753214406912427E-1    6.729471576418007E-1   -2.752101721843132E-1    3.297964489717997E-1    2.746704120039952E-1
 1.218503496935483E5     3.321767212676807E-1    2.746341826474150E-1    6.702707135806426E-1   -2.750704043815502E-1    6.711597327652091E-1   -2.749837404877086E-1    3.315744820690174E-1    2.744183819321175E-1
 1.227800511251578E5     3.339697016686736E-1    2.743785782421989E-1    6.684736300735702E-1   -2.748291558608838E-1    6.693821885006808E-1   -2.747369182933261E-1    3.333704865607943E-1    2.741527506031509E-1
 1.237168460509929E5     3.357385236254606E-1    2.740997053084567E-1    6.667004759630607E-1   -2.745667899445753E-1    6.676081160155706E-1   -2.744671945425742E-1    3.351393831129559E-1    2.738968454665394E-1
 1.246607885934402E5     3.375111881657208E-1    2.738201872197929E-1    6.649365476012454E-1   -2.743117807286152E-1    6.658339408905493E-1   -2.742022486446942E-1    3.369057133328776E-1    2.736271178252997E-1
 1.256119332878327E5     3.392682518813668E-1    2.735587211712324E-1    6.631750211078833E-1   -2.740294555697692E-1    6.640819391904779E-1   -2.739401737291187E-1    3.386667724896772E-1    2.733298419378182E-1
 1.265703350856002E5     3.410210620776330E-1    2.732528793861379E-1    6.614196437143338E-1   -2.737430124554115E-1    6.623132473033236E-1   -2.736446286077314E-1    3.404256573365637E-1    2.730534926344358E-1
 1.275360493574453E5     3.427546444550171E-1    2.729498916001729E-1    6.596514764308634E-1   -2.734535632806064E-1    6.605642995174472E-1   -2.733502317205704E-1    3.421690433323706E-1    2.727528324155338E-1
 1.285091318965405E5     3.445153841579767E-1    2.726518066531566E-1    6.579025935768260E-1   -2.731475552512257E-1    6.588210900040292E-1   -2.730566395037961E-1    3.439114850614560E-1    2.724465351035557E-1
 1.294896389217529E5     3.462567297957445E-1    2.723259296368460E-1    6.561698368114751E-1   -2.728486572031828E-1    6.570921144364996E-1   -2.727523433558503E-1    3.456500658989942E-1    2.721382188819998E-1
 1.304776270808914E5     3.479716545901386E-1    2.719933197972035E-1    6.544516311558845E-1   -2.725138007265557E-1    6.553546597576559E-1   -2.724334216012867E-1    3.473566541703639E-1    2.718061326009510E-1
 1.314731534539810E5     3.496960937274113E-1    2.716621822132876E-1    6.527264590969060E-1   -2.721913370969766E-1    6.536298679851285E-1   -2.721052702110397E-1    3.490647942083474E-1    2.714670378991372E-1
 1.324762755565583E5     3.514174956761400E-1    2.713293774392112E-1    6.510331177684522E-1   -2.718577921727577E-1    6.519153280719633E-1   -2.717631748274686E-1    3.507836577449493E-1    2.711453680480058E-1
 1.334870513429962E5     3.531076067836312E-1    2.709757843385331E-1    6.493184945235567E-1   -2.715235899078426E-1    6.502213363490503E-1   -2.714418904726260E-1    3.524984439677906E-1    2.707858690256645E-1
 1.345055392098512E5     3.548239709828632E-1    2.706220660546751E-1    6.476275907667884E-1   -2.711743288559756E-1    6.485245106870687E-1   -2.710805317004141E-1    3.541750504852169E-1    2.704316960695959E-1
 1.355317979992373E5     3.565211896131553E-1    2.702664499884062E-1    6.459479286926686E-1   -2.708163264204997E-1    6.468405462010222E-1   -2.707440410108615E-1    3.558720930503657E-1    2.700835393493047E-1
 1.365658870022265E5     3.582068915232456E-1    2.698910431423127E-1    6.442470087751010E-1   -2.704604024180037E-1    6.451550871226254E-1   -2.703831673010327E-1    3.575607484809767E-1    2.697060311632264E-1
 1.376078659622731E5     3.598948522955448E-1    2.695311380420182E-1    6.426060159297987E-1   -2.700829786845609E-1    6.434871795953732E-1   -2.700228729659265E-1    3.592430364787925E-1    2.693445235926535E-1
 1.386577950786655E5     3.615584805220897E-1    2.691525938877481E-1    6.409224571062864E-1   -2.697092410492157E-1    6.418203174155009E-1   -2.696523583013279E-1    3.609190087875386E-1    2.689556509408931E-1
 1.397157350100044E5     3.632109175319698E-1    2.687481644967348E-1    6.392540070683858E-1   -2.693206232497312E-1    6.401520591334822E-1   -2.692619489813062E-1    3.625753381092926E-1    2.685708341652263E-1
 1.407817468777081E5     3.648647662682016E-1    2.683675811953958E-1    6.376063697511525E-1   -2.689400891240021E-1    6.385100555610503E-1   -2.688743381200476E-1    3.642303867346375E-1    2.681775774745023E-1
 1.418558922695422E5     3.664970582953799E-1    2.679607499084292E-1    6.359350516583644E-1   -2.685462484051529E-1    6.368600625876152E-1   -2.684837307165866E-1    3.658714680512978E-1    2.677881489256346E-1
 1.429382332431784E5     3.681443942963620E-1    2.675541241562499E-1    6.342973565779526E-1   -2.681376634631977E-1    6.352305238778145E-1   -2.680910319584921E-1    3.674981945706831E-1    2.673704922866156E-1
 1.440288323297804E5     3.697753178289441E-1    2.671429763006076E-1    6.326878292596976E-1   -2.677338315335464E-1    6.335988501074177E-1   -2.676861486945139E-1    3.691378672557533E-1    2.669773638799773E-1
 1.451277525376154E5     3.713964632683145E-1    2.667261582573203E-1    6.310691779078320E-1   -2.673300843704333E-1    6.319697354539806E-1   -2.672753456839378E-1    3.707727678603838E-1    2.665656973755868E-1
 1.462350573556962E5     3.730188675329874E-1    2.662940515670144E-1    6.294634270650057E-1   -2.669181739875577E-1    6.303471140901775E-1   -2.668537853370090E-1    3.723719738328757E-1    2.661294213570426E-1
 1.473508107574468E5     3.746268721734943E-1    2.658730948825975E-1    6.278511058865983E-1   -2.664799137293425E-1    6.287462409954188E-1   -2.664288932497608E-1    3.739821182169329E-1    2.657096852177535E-1
 1.484750772044004E5     3.762215195130839E-1    2.654263775026782E-1    6.262460367678537E-1   -2.660557010600088E-1    6.271546800028238E-1   -2.660031722078700E-1    3.755734359741382E-1    2.652641970664220E-1
 1.496079216499225E5     3.778004507166105E-1    2.649884087952287E-1    6.246303520714324E-1   -2.656242008437221E-1    6.255870600022534E-1   -2.655808204046691E-1    3.771832489703855E-1    2.648335798930507E-1
 1.507494095429637E5     3.793976357300577E-1    2.645550202032319E-1    6.230585693522899E-1   -2.651874815288818E-1    6.239932734414739E-1   -2.651449838232684E-1    3.787534549987581E-1    2.643924654502543E-1
 1.518996068318418E5     3.809702800771936E-1    2.641117140914657E-1    6.214700825871334E-1   -2.647428489520585E-1    6.224272624588114E-1   -2.647031455273292E-1    3.803358317304824E-1    2.639518155498577E-1
 1.530585799680507E5     3.825370237553422E-1    2.636504796558963E-1    6.199022422444191E-1   -2.642919350319251E-1    6.208366603658295E-1   -2.642577397988072E-1    3.818937205013053E-1    2.634927424340354E-1
 1.542263959101001E5     3.840864693311921E-1    2.631765673366386E-1    6.183537387463026E-1   -2.638471866990204E-1    6.192893694611006E-1   -2.638017600265692E-1    3.834450629418302E-1    2.630323211598010E-1
 1.554031221273835E5     3.856481989088862E-1    2.627267357433101E-1    6.168067933773008E-1   -2.633832221194262E-1    6.177234199782844E-1   -2.633432861974729E-1    3.849939026672389E-1    2.625651288726285E-1
 1.565888266040779E5     3.871791456891187E-1    2.622671052891855E-1    6.152626647282731E-1   -2.629161094466886E-1    6.162011498087222E-1   -2.628983540869941E-1    3.865485624649981E-1    2.621016214231733E-1
 1.577835778430689E5     3.887380625666167E-1    2.617859724275810E-1    6.137463074331789E-1   -2.624572235064183E-1    6.146615203559758E-1   -2.624328586281390E-1    3.880715594964936E-1    2.616324015156650E-1
 1.589874448699104E5     3.902308181679015E-1    2.613263268487282E-1    6.122144338195392E-1   -2.619805704026331E-1    6.131520501316389E-1   -2.619648290980925E-1    3.896105400873596E-1    2.611589848282566E-1
 1.602004972368116E5     3.917677084357297E-1    2.608531683517009E-1    6.107037593775713E-1   -2.615126523652522E-1    6.116466286750454E-1   -2.614994921119776E-1    3.911465139678736E-1    2.606949762626413E-1
 1.614228050266550E5     3.932833029501052E-1    2.603619869318609E-1    6.091968471901528E-1   -2.610418331771490E-1    6.101400969475329E-1   -2.610224339280510E-1    3.926383434654495E-1    2.602078999634880E-1
 1.626544388570473E5     3.947799996344493E-1    2.598739325109489E-1    6.076971190674783E-1   -2.605505527133345E-1    6.086344183889257E-1   -2.605433865392238E-1    3.941395342946644E-1    2.597195573384810E-1
 1.638954698843964E5     3.962509459283735E-1    2.593863023612284E-1    6.061701435276237E-1   -2.600669085128583E-1    6.071465731545486E-1   -2.600612285748953E-1    3.956082733804228E-1    2.592271810199417E-1
 1.651459698080244E5     3.977551499089407E-1    2.589002064461197E-1    6.047141744869569E-1   -2.595856172662885E-1    6.056839314603621E-1   -2.595726829152482E-1    3.970939205027073E-1    2.587417231148574E-1
 1.664060108743095E5     3.992170118012128E-1    2.584007643736130E-1    6.032469652389433E-1   -2.590904778640605E-1    6.042065466457547E-1   -2.590814317440862E-1    3.985743242717812E-1    2.582387542122535E-1
 1.676756658808590E5     4.006904222106732E-1    2.579006720495007E-1    6.017666407713333E-1   -2.585954311849015E-1    6.027395963270471E-1   -2.585891164295214E-1    4.000312741076407E-1    2.577518262587596E-1
 1.689550081807175E5     4.021472876622260E-1    2.573936082889693E-1    6.003172234826901E-1   -2.581118151974724E-1    6.012905760733316E-1   -2.580954676972368E-1    4.014970505821113E-1    2.572538661558782E-1
 1.702441116866020E5     4.036137590931702E-1    2.568923420977824E-1    5.988663743042346E-1   -2.576097512839619E-1    5.998335198656548E-1   -2.576046768581750E-1    4.029357117857272E-1    2.567575659727522E-1
 1.715430508751738E5     4.050585773034076E-1    2.563885920552767E-1    5.974266575353016E-1   -2.571074523353220E-1    5.983887483933747E-1   -2.571113167390767E-1    4.043713752633334E-1    2.562405833849145E-1
 1.728519007913403E5     4.065036551197448E-1    2.558893016504450E-1    5.960014688214711E-1   -2.566036161198933E-1    5.969443550748815E-1   -2.565957486484383E-1    4.058075774465667E-1    2.557325691518152E-1
 1.741707370525927E5     4.079241483246410E-1    2.553697053929739E-1    5.945715196202761E-1   -2.560976443570414E-1    5.955167154961668E-1   -2.561086585998409E-1    4.072556382501494E-1    2.552279160697922E-1
 1.754996358533718E5     4.093557744633400E-1    2.548666777773583E-1    5.931701506829510E-1   -2.555992195237581E-1    5.940985820266782E-1   -2.555987152476045E-1    4.086580549889699E-1    2.546939292275726E-1
 1.768386739694722E5     4.107370382891594E-1    2.543431341462093E-1    5.917531487030289E-1   -2.550868657720202E-1    5.926833855931073E-1   -2.550881716713491E-1    4.100715067046974E-1    2.542110096388558E-1
 1.781879287624771E5     4.121368798028842E-1    2.538180512122635E-1    5.903580162477204E-1   -2.545735885511762E-1    5.912981622036798E-1   -2.545867019119125E-1    4.114751475771022E-1    2.536869513612371E-1
 1.795474781842276E5     4.135223143689459E-1    2.533058461690027E-1    5.889435886972960E-1   -2.540607176408650E-1    5.898589376214907E-1   -2.540681441899500E-1    4.128545732801056E-1    2.531726860730708E-1
 1.809174007813277E5     4.149317553907509E-1    2.527929937352841E-1    5.875624039732364E-1   -2.535487296406772E-1    5.884892299649951E-1   -2.535509780708525E-1    4.142307356078421E-1    2.526432862400165E-1
 1.822977756996804E5     4.162820412139170E-1    2.522608395972484E-1    5.861898704569940E-1   -2.530392242207540E-1    5.871059365093716E-1   -2.530331507115979E-1    4.156293453895744E-1    2.521431461582552E-1
 1.836886826890609E5     4.176649740113531E-1    2.517427018816064E-1    5.848372597202310E-1   -2.525140955935514E-1    5.857151834181527E-1   -2.525187137190820E-1    4.170015063141186E-1    2.516226319965669E-1
 1.850902021077247E5     4.190196976225464E-1    2.512144079082744E-1    5.834730352830166E-1   -2.519945304353736E-1    5.843781085975326E-1   -2.520078423186772E-1    4.183605720631167E-1    2.511055067821750E-1
 1.865024149270491E5     4.203733047022181E-1    2.506858024792861E-1    5.821168813252187E-1   -2.514724924504803E-1    5.830361316586358E-1   -2.514898909033186E-1    4.197266532569317E-1    2.505781033514777E-1
 1.879254027362132E5     4.217186057791707E-1    2.501718039808365E-1    5.807542154737434E-1   -2.509556883685304E-1    5.816946930909697E-1   -2.509696604952629E-1    4.210507444986721E-1    2.500517888476722E-1
 1.893592477469092E5     4.230857863763570E-1    2.496241593454213E-1    5.794102244547619E-1   -2.504452387475326E-1    5.803855654388500E-1   -2.504383618593300E-1    4.224004979742509E-1    2.495224961749648E-1
 1.908040327980933E5     4.243763791886868E-1    2.491113723644151E-1    5.780945846142679E-1   -2.499089150950401E-1    5.790166848780876E-1   -2.499333578465934E-1    4.237273872822300E-1    2.490092450305835E-1
 1.922598413607715E5     4.256947004329931E-1    2.485807445194793E-1    5.767873142622177E-1   -2.493947452486818E-1    5.776811353395424E-1   -2.494149911752648E-1    4.250633252494057E-1    2.484808635425657E-1
 1.937267575428232E5     4.270113822960785E-1    2.480595905783674E-1    5.754559552635397E-1   -2.488772995163166E-1    5.763912805022668E-1   -2.488850096690113E-1    4.263723321507692E-1    2.479510146077942E-1
 1.952048660938581E5     4.283166397877859E-1    2.475390627152477E-1    5.741717744248096E-1   -2.483530386548305E-1    5.750920847497114E-1   -2.483684721625341E-1    4.276632384571024E-1    2.474188500594144E-1
 1.966942524101142E5     4.296302464436652E-1    2.470160932978234E-1    5.728724446059609E-1   -2.478268068247463E-1    5.737948497218910E-1   -2.478434102000793E-1    4.289748254855509E-1    2.469011958037548E-1
 1.981950025393913E5     4.309011558419595E-1    2.464797604475797E-1    5.715676110326861E-1   -2.472930470280004E-1    5.725085533322485E-1   -2.473171453601223E-1    4.302461314109264E-1    2.463673800255723E-1
