#  HZ   S   RI   R     50.00 
! Rohde & Schwarz Vector Network Analyzer 
! Rohde-Schwarz,ZNLE6-2Port,1323001256200024,1.71.1.10-23.02.1.238
! Created: UTC 4/7/2025, 9:50:51 AM
! freq[Hz]                re:S11                  im:S11                  re:S21                  im:S21                  re:S12                  im:S12                  re:S22                  im:S22
 1.000000000000000E5     4.701997291900913E-1    3.217738416637645E-1    5.326773652988843E-1   -3.224347212776854E-1    5.337356381033553E-1   -3.225355675623617E-1    4.693855467484762E-1    3.216436427168268E-1
 1.007629862646662E5     4.722750796334413E-1    3.210382176628042E-1    5.306066732911484E-1   -3.217087544291949E-1    5.316675076543189E-1   -3.217936693881721E-1    4.714469645778370E-1    3.209011901993407E-1
 1.015317940097331E5     4.743046982919376E-1    3.202685100100688E-1    5.285514270161390E-1   -3.209557290141535E-1    5.296015556224059E-1   -3.210824823088845E-1    4.735288031191746E-1    3.201552272004024E-1
 1.023064676522963E5     4.763252328671900E-1    3.194984711766028E-1    5.264871464441852E-1   -3.202073169546071E-1    5.275579424788113E-1   -3.203373509513426E-1    4.755734279446396E-1    3.193938109974533E-1
 1.030870519483485E5     4.783601589908978E-1    3.187194329987968E-1    5.244413401119664E-1   -3.194469031017936E-1    5.255079490331213E-1   -3.195710259706144E-1    4.775848956983085E-1    3.186331734956758E-1
 1.038735919953636E5     4.803865002398092E-1    3.179552067062167E-1    5.224302741516421E-1   -3.186818164816195E-1    5.234678370420147E-1   -3.188024237290933E-1    4.795915545227005E-1    3.178485604839267E-1
 1.046661332349037E5     4.823622963101757E-1    3.171593957713307E-1    5.204153006043712E-1   -3.178979745429198E-1    5.214626811439841E-1   -3.180394102918830E-1    4.815963067225605E-1    3.170709513811867E-1
 1.054647214552430E5     4.843659619390293E-1    3.163473872959525E-1    5.183982965264842E-1   -3.171221322047718E-1    5.194519716829571E-1   -3.172456663098148E-1    4.836010942970760E-1    3.162943194344880E-1
 1.062694027940149E5     4.863436879631968E-1    3.155612268645298E-1    5.164132062985030E-1   -3.163256130827288E-1    5.174686802819822E-1   -3.164514094547125E-1    4.855963198182408E-1    3.154960562698973E-1
 1.070802237408760E5     4.883267433155988E-1    3.147422808135736E-1    5.144222401123012E-1   -3.155219743241593E-1    5.155042128284180E-1   -3.156562040612865E-1    4.875470333816830E-1    3.147102332966820E-1
 1.078972311401927E5     4.902864667090547E-1    3.139344826542926E-1    5.124845503428008E-1   -3.147215381523708E-1    5.135430074749374E-1   -3.148494850519092E-1    4.895178993960790E-1    3.138776781870592E-1
 1.087204721937475E5     4.922166757465398E-1    3.131096094993721E-1    5.105228726735515E-1   -3.139058898394806E-1    5.115737338252648E-1   -3.140382002290047E-1    4.914533472766056E-1    3.130524131651410E-1
 1.095499944634658E5     4.941489934956289E-1    3.122826922315898E-1    5.085680065274345E-1   -3.130750261261365E-1    5.096431948938814E-1   -3.132215093633319E-1    4.933820774398252E-1    3.122217652979293E-1
 1.103858458741646E5     4.960500744779362E-1    3.114464493923522E-1    5.066359018818960E-1   -3.122416754265123E-1    5.076997584335367E-1   -3.123988007280906E-1    4.953167996937937E-1    3.114079975685617E-1
 1.112280747163201E5     4.979755138856771E-1    3.105938742727319E-1    5.047218396823907E-1   -3.114202754028025E-1    5.057947645749920E-1   -3.115664054355580E-1    4.972232109751653E-1    3.105545492702033E-1
 1.120767296488583E5     4.998702066355003E-1    3.097605722122814E-1    5.028040551042940E-1   -3.105750999256988E-1    5.038739099870005E-1   -3.107218663073419E-1    4.991011824097145E-1    3.097212453586508E-1
 1.129318597019661E5     5.017502184074598E-1    3.088883044011104E-1    5.009371214398846E-1   -3.097325162816695E-1    5.019889008758099E-1   -3.098848822167537E-1    5.009913593836767E-1    3.088431397028252E-1
 1.137935142799240E5     5.036072087332667E-1    3.080213971211802E-1    4.990375027776607E-1   -3.088901088919995E-1    5.001036717621031E-1   -3.090373000169930E-1    5.028681699744352E-1    3.079974027256813E-1
 1.146617431639607E5     5.054600521575122E-1    3.071490211276295E-1    4.971721524685648E-1   -3.080251922455546E-1    4.982388516903132E-1   -3.081736442269043E-1    5.047132794141570E-1    3.071286048657941E-1
 1.155365965151286E5     5.073152197848352E-1    3.062775742254318E-1    4.953321324981928E-1   -3.071555273268201E-1    4.963809510302324E-1   -3.073067589045654E-1    5.065379109610210E-1    3.062628887702201E-1
 1.164181248772018E5     5.091372506904582E-1    3.053907795678053E-1    4.934835058696490E-1   -3.062816123008544E-1    4.945402959380691E-1   -3.064431431818926E-1    5.083830955580521E-1    3.053885092931967E-1
 1.173063791795965E5     5.109700486652369E-1    3.045166662268153E-1    4.916630428618147E-1   -3.054018425692704E-1    4.927417420717533E-1   -3.055701630017037E-1    5.102047354869119E-1    3.045108327506197E-1
 1.182014107403141E5     5.127421397983497E-1    3.036316032702852E-1    4.898586649762923E-1   -3.045234072171994E-1    4.909190880094256E-1   -3.046915121714033E-1    5.120044878836734E-1    3.036464509015107E-1
 1.191032712689044E5     5.145641454308797E-1    3.027251414819390E-1    4.880618766508931E-1   -3.036406391038793E-1    4.891116173163002E-1   -3.038102043679863E-1    5.138258893244719E-1    3.027617363915764E-1
 1.200120128694542E5     5.163253561196256E-1    3.018358441625483E-1    4.862766129478484E-1   -3.027579236889160E-1    4.873182320390683E-1   -3.029242441438858E-1    5.156060647890043E-1    3.018515456701552E-1
 1.209276880435975E5     5.180971437081537E-1    3.009425905624351E-1    4.844997519597451E-1   -3.018521352766347E-1    4.855350181628492E-1   -3.020159046849005E-1    5.173671690807174E-1    3.009620416825911E-1
 1.218503496935483E5     5.198334044101953E-1    3.000520669953748E-1    4.827565895390550E-1   -3.009474458646300E-1    4.837677547386132E-1   -3.011279623976644E-1    5.191174575298931E-1    3.000453484653600E-1
 1.227800511251578E5     5.215683899606108E-1    2.991448932529839E-1    4.809886591166491E-1   -3.000452443975593E-1    4.820223963184738E-1   -3.002337859609086E-1    5.208817446869861E-1    2.991380182339516E-1
 1.237168460509929E5     5.232806472628773E-1    2.982133429478476E-1    4.792500782554263E-1   -2.991433891915350E-1    4.802737412388736E-1   -2.993171329815505E-1    5.225771771560925E-1    2.982098300721808E-1
 1.246607885934402E5     5.250142852418952E-1    2.972903165568315E-1    4.775197900894960E-1   -2.982418041857542E-1    4.785355279276008E-1   -2.984079169634565E-1    5.243005314978181E-1    2.973145523322873E-1
 1.256119332878327E5     5.267441209555163E-1    2.963957277711615E-1    4.758169360041778E-1   -2.973233513457487E-1    4.768295744030729E-1   -2.975021975427377E-1    5.260076047685422E-1    2.963947644966646E-1
 1.265703350856002E5     5.284138004603099E-1    2.954594864119396E-1    4.741067320544175E-1   -2.963968141682604E-1    4.751242643159522E-1   -2.965890250871287E-1    5.277229569195184E-1    2.954741786952177E-1
 1.275360493574453E5     5.301016174838045E-1    2.945282844162420E-1    4.724116226182604E-1   -2.954807339593650E-1    4.734352105958053E-1   -2.956554119081840E-1    5.293796241275056E-1    2.945571685454281E-1
 1.285091318965405E5     5.317811081810563E-1    2.936147780391079E-1    4.707420079018632E-1   -2.945581759345873E-1    4.717727881588953E-1   -2.947467632926696E-1    5.310602037037399E-1    2.936362051035857E-1
 1.294896389217529E5     5.334292097061660E-1    2.926615510259961E-1    4.690632100698646E-1   -2.936366850321450E-1    4.701162104134263E-1   -2.938314146232140E-1    5.327331356626792E-1    2.927212345994369E-1
 1.304776270808914E5     5.350601487994778E-1    2.917258314854752E-1    4.674336466298071E-1   -2.927006806859024E-1    4.684415204851510E-1   -2.928955500577861E-1    5.343415478330574E-1    2.917784733317142E-1
 1.314731534539810E5     5.366971266412929E-1    2.907820180882869E-1    4.657971089143772E-1   -2.917683385260141E-1    4.668187529928902E-1   -2.919670895732851E-1    5.359829459040488E-1    2.908385474379220E-1
 1.324762755565583E5     5.382959837753303E-1    2.898445254492656E-1    4.641860533240633E-1   -2.908370368618541E-1    4.651764266626223E-1   -2.910365907678070E-1    5.375741200052555E-1    2.899059636550319E-1
 1.334870513429962E5     5.398875293615062E-1    2.889066353137933E-1    4.625548369802036E-1   -2.899058638429720E-1    4.635830244549363E-1   -2.901060377140278E-1    5.392107021257221E-1    2.889811452675700E-1
 1.345055392098512E5     5.414968021117484E-1    2.879630561153366E-1    4.609705505049023E-1   -2.889756319782331E-1    4.619834439973806E-1   -2.891583112911295E-1    5.407993055120197E-1    2.880401021038209E-1
 1.355317979992373E5     5.430746971639510E-1    2.870322760163322E-1    4.593995802537328E-1   -2.880347877107001E-1    4.604023596315912E-1   -2.882380076975473E-1    5.423932046899502E-1    2.870948485718449E-1
 1.365658870022265E5     5.446448548392694E-1    2.860893286005260E-1    4.578168068035182E-1   -2.870914721023279E-1    4.588250461096168E-1   -2.872933236889868E-1    5.439694193279524E-1    2.861528232644885E-1
 1.376078659622731E5     5.462308747810855E-1    2.851571062039570E-1    4.562768344160023E-1   -2.861556451326692E-1    4.572552277292707E-1   -2.863574643799423E-1    5.455209952353237E-1    2.852116979573005E-1
 1.386577950786655E5     5.477564556842137E-1    2.842135890819936E-1    4.547081371828109E-1   -2.852078711974664E-1    4.556964883392751E-1   -2.854184393959008E-1    5.470539598464524E-1    2.842542944881872E-1
 1.397157350100044E5     5.492885138047640E-1    2.832516309060226E-1    4.531777312512715E-1   -2.842661585386861E-1    4.541524528553554E-1   -2.844673139700407E-1    5.485896437298171E-1    2.833082700001748E-1
 1.407817468777081E5     5.507872202372216E-1    2.823154010616914E-1    4.516481395988551E-1   -2.833179100940242E-1    4.526360760854880E-1   -2.835330180000908E-1    5.501395782856688E-1    2.823686120835677E-1
 1.418558922695422E5     5.522935606262805E-1    2.813629348233564E-1    4.501237397324349E-1   -2.823744604041510E-1    4.511231480434171E-1   -2.825897299688822E-1    5.516620648607272E-1    2.814179931249623E-1
 1.429382332431784E5     5.538083056447696E-1    2.804160485548660E-1    4.486297155747592E-1   -2.814235264235038E-1    4.496262765341355E-1   -2.816387870094380E-1    5.531322353599017E-1    2.804764716301759E-1
 1.440288323297804E5     5.552802372157277E-1    2.794687792317197E-1    4.471486836337746E-1   -2.804844263087423E-1    4.481294182117946E-1   -2.807014659707677E-1    5.546221687759562E-1    2.795278304053560E-1
 1.451277525376154E5     5.567676979102246E-1    2.785104073838728E-1    4.456708402224868E-1   -2.795392278751384E-1    4.466428284548662E-1   -2.797526027072441E-1    5.560976715476379E-1    2.785905758681003E-1
 1.462350573556962E5     5.582081152039156E-1    2.775559670463434E-1    4.442045078696096E-1   -2.785950914917647E-1    4.451733458233998E-1   -2.788066748788938E-1    5.575442354040467E-1    2.776454481442388E-1
 1.473508107574468E5     5.596714458845046E-1    2.766139310475465E-1    4.427533205763570E-1   -2.776508687775193E-1    4.437137397176941E-1   -2.778579186188186E-1    5.590094701991212E-1    2.766827319132579E-1
 1.484750772044004E5     5.610944972562871E-1    2.756540816574827E-1    4.413073811574755E-1   -2.767089469020976E-1    4.422724138770304E-1   -2.769138902058201E-1    5.604365279487741E-1    2.757293670557081E-1
 1.496079216499225E5     5.625298379183133E-1    2.747118873002454E-1    4.398568316794189E-1   -2.757623367520921E-1    4.408464677656023E-1   -2.759732377372997E-1    5.618573642127382E-1    2.747796088393288E-1
 1.507494095429637E5     5.639550459813186E-1    2.737691031253974E-1    4.384448590144182E-1   -2.748178355677308E-1    4.394160165033613E-1   -2.750285819240367E-1    5.632685961973108E-1    2.738413373831803E-1
 1.518996068318418E5     5.653806111505725E-1    2.728318879075051E-1    4.370312175349801E-1   -2.738671921668601E-1    4.380136344362551E-1   -2.740864842924386E-1    5.647016254487160E-1    2.728886480410168E-1
 1.530585799680507E5     5.667498091804929E-1    2.718797051140524E-1    4.356370561865631E-1   -2.729151879795474E-1    4.365925551418066E-1   -2.731410928956963E-1    5.660803055261744E-1    2.719433951187950E-1
 1.542263959101001E5     5.681339034296103E-1    2.709184984089940E-1    4.342454261063992E-1   -2.719831449728847E-1    4.352291968682854E-1   -2.722072011957086E-1    5.674664607234110E-1    2.710069957239951E-1
 1.554031221273835E5     5.695193773554174E-1    2.699871534955947E-1    4.328748038255736E-1   -2.710381270221625E-1    4.338470646280349E-1   -2.712629687481437E-1    5.688358381302476E-1    2.700543995218173E-1
 1.565888266040779E5     5.708906055962520E-1    2.690433456643679E-1    4.315055408298602E-1   -2.701024785323197E-1    4.324745893209982E-1   -2.703257127755899E-1    5.701892461747502E-1    2.691184762614483E-1
 1.577835778430689E5     5.722487710174655E-1    2.681002389163377E-1    4.301709330735257E-1   -2.691580157469015E-1    4.311243904226123E-1   -2.693934345528059E-1    5.715782721606705E-1    2.681826387566220E-1
 1.589874448699104E5     5.735519749265959E-1    2.671543491149978E-1    4.288119551974227E-1   -2.682249894679514E-1    4.297877816301744E-1   -2.684521023864502E-1    5.729210975734035E-1    2.672297615447011E-1
 1.602004972368116E5     5.749171409106919E-1    2.662339344696000E-1    4.274821432567837E-1   -2.672860425521484E-1    4.284737676052391E-1   -2.675316343750930E-1    5.742754097175286E-1    2.663026354747347E-1
 1.614228050266550E5     5.762021063438962E-1    2.652860547823672E-1    4.261722886012363E-1   -2.663533624865982E-1    4.271466365193509E-1   -2.665934442298384E-1    5.755797213499034E-1    2.653591472809622E-1
 1.626544388570473E5     5.775176882735354E-1    2.643514788066565E-1    4.248537502846482E-1   -2.654130093020158E-1    4.258257292290958E-1   -2.656616065047873E-1    5.768639888242965E-1    2.644185099155145E-1
 1.638954698843964E5     5.788203228509026E-1    2.634222295764752E-1    4.235466488975601E-1   -2.644841129179106E-1    4.245186454562297E-1   -2.647288557741532E-1    5.781566033498272E-1    2.634878845153371E-1
 1.651459698080244E5     5.801099490657289E-1    2.624884289637535E-1    4.222704799469333E-1   -2.635625764624162E-1    4.232392349481662E-1   -2.637951400614852E-1    5.794293236101008E-1    2.625674717984039E-1
 1.664060108743095E5     5.813739085983211E-1    2.615551471332078E-1    4.209982838426773E-1   -2.626320044516194E-1    4.219637753695263E-1   -2.628763333823486E-1    5.807156873934747E-1    2.616317635501978E-1
 1.676756658808590E5     5.826403997930942E-1    2.606303157549460E-1    4.197303441084334E-1   -2.617075720286808E-1    4.206958581683582E-1   -2.619562065592246E-1    5.819912895082221E-1    2.607094996101756E-1
 1.689550081807175E5     5.838752924396353E-1    2.597041402640047E-1    4.184686448953153E-1   -2.607938852627901E-1    4.194284181765419E-1   -2.610298941878118E-1    5.832501953281527E-1    2.597774661792772E-1
 1.702441116866020E5     5.851448544234199E-1    2.587727935488763E-1    4.172052350813816E-1   -2.598671379962575E-1    4.181840260804579E-1   -2.601209884005880E-1    5.845002676956669E-1    2.588691697669872E-1
 1.715430508751738E5     5.863815426672824E-1    2.578619234623156E-1    4.159779599556485E-1   -2.589549093225866E-1    4.169266885102975E-1   -2.591968888043834E-1    5.857168166554831E-1    2.579431432992843E-1
 1.728519007913403E5     5.876100348860734E-1    2.569471969305033E-1    4.147464337805220E-1   -2.580345563568566E-1    4.156988164901725E-1   -2.582792133543597E-1    5.869753785592955E-1    2.570335649894258E-1
 1.741707370525927E5     5.888401520440678E-1    2.560245106368257E-1    4.135338765664621E-1   -2.571260688061797E-1    4.144665218903296E-1   -2.573665536259397E-1    5.881731735297362E-1    2.561259495329310E-1
 1.754996358533718E5     5.900321483198133E-1    2.551143113777761E-1    4.123136471852381E-1   -2.562187514726120E-1    4.132709206912885E-1   -2.564691119774377E-1    5.893740628815167E-1    2.551886271988190E-1
 1.768386739694722E5     5.912232630049702E-1    2.542008233596515E-1    4.111176026438710E-1   -2.553127145575491E-1    4.120658824848460E-1   -2.555618654081163E-1    5.905987258457400E-1    2.543224841498056E-1
 1.781879287624771E5     5.923904982876805E-1    2.532811509316119E-1    4.099309311685507E-1   -2.544151464485138E-1    4.108733554852467E-1   -2.546634338447141E-1    5.917766014784913E-1    2.534035149235001E-1
 1.795474781842276E5     5.935767338548579E-1    2.523880517163838E-1    4.087357535298557E-1   -2.535042035460437E-1    4.096612816933506E-1   -2.537600269246167E-1    5.929462426583819E-1    2.524941242931489E-1
 1.809174007813277E5     5.947559681205467E-1    2.514858111529238E-1    4.075690945146231E-1   -2.526143933002116E-1    4.084981878712811E-1   -2.528618864947395E-1    5.941120935946733E-1    2.516004240948638E-1
 1.822977756996804E5     5.959023880074529E-1    2.505818982882830E-1    4.064056952270836E-1   -2.517256751571349E-1    4.073287017046013E-1   -2.519644231109813E-1    5.952745000970794E-1    2.507084300156854E-1
 1.836886826890609E5     5.970321946879342E-1    2.496986538626504E-1    4.052593765555744E-1   -2.508304542513385E-1    4.061576442242265E-1   -2.510727515705271E-1    5.964333984057726E-1    2.498070939723872E-1
 1.850902021077247E5     5.981844383334936E-1    2.488083819280318E-1    4.041197528310110E-1   -2.499455109751485E-1    4.050286367022257E-1   -2.501885435720358E-1    5.975825437927854E-1    2.489215831515020E-1
 1.865024149270491E5     5.993466750139381E-1    2.479187144106842E-1    4.029856619004822E-1   -2.490651676876290E-1    4.038874505220703E-1   -2.493059643452592E-1    5.987230885216642E-1    2.480405160423165E-1
 1.879254027362132E5     6.004527395583195E-1    2.470440318582857E-1    4.018466879508290E-1   -2.481820361924467E-1    4.027680136050177E-1   -2.484315104795030E-1    5.998486953911102E-1    2.471506006316940E-1
 1.893592477469092E5     6.015916603928789E-1    2.461318840140014E-1    4.007137406892691E-1   -2.472837305481485E-1    4.016527494948766E-1   -2.475801960671709E-1    6.009758741137323E-1    2.462633217762197E-1
 1.908040327980933E5     6.026786502991253E-1    2.453038586254416E-1    3.996192245736988E-1   -2.464422851114559E-1    4.005179703805723E-1   -2.466873473300090E-1    6.020547009856985E-1    2.453983901209024E-1
 1.922598413607715E5     6.037879333812309E-1    2.444133177431208E-1    3.985196917770608E-1   -2.455754228524768E-1    3.994064661037326E-1   -2.458123329015564E-1    6.031739063443479E-1    2.445303181551972E-1
 1.937267575428232E5     6.048695510909253E-1    2.435535727738647E-1    3.974117953307144E-1   -2.447022143633132E-1    3.983342455624506E-1   -2.449496893925050E-1    6.042619408808364E-1    2.436673173957481E-1
 1.952048660938581E5     6.059386261692890E-1    2.426876605571436E-1    3.963448359866223E-1   -2.438551687043524E-1    3.972499146558891E-1   -2.441007377106986E-1    6.053416350575053E-1    2.427925613481625E-1
 1.966942524101142E5     6.070395678520961E-1    2.418386179808377E-1    3.952664756821503E-1   -2.429959060928962E-1    3.961734119875668E-1   -2.432442650127920E-1    6.064353041827282E-1    2.419427690889297E-1
 1.981950025393913E5     6.080907732792684E-1    2.409824307194495E-1    3.942086752721587E-1   -2.421377389769631E-1    3.951068398447928E-1   -2.423866928633075E-1    6.075087624771833E-1    2.410773558249829E-1
