#  HZ   S   RI   R     50.00 
! Rohde & Schwarz Vector Network Analyzer 
! Rohde-Schwarz,ZNLE6-2Port,1323001256200024,1.71.1.10-23.02.1.238
! Created: UTC 4/7/2025, 9:43:17 AM
! freq[Hz]                re:S11                  im:S11                  re:S21                  im:S21                  re:S12                  im:S12                  re:S22                  im:S22
 1.000000000000000E5     6.250314078204602E-1    3.084234618042636E-1    3.776229103705776E-1   -3.094744249895897E-1    3.785645903590833E-1   -3.097682009080101E-1    6.242755325156628E-1    3.084349566400093E-1
 1.007629862646662E5     6.267602722934473E-1    3.071794227536778E-1    3.759094201518936E-1   -3.082481758256153E-1    3.768538482921731E-1   -3.085287071405918E-1    6.259639353251479E-1    3.071961757115186E-1
 1.015317940097331E5     6.283929973102824E-1    3.059188897475223E-1    3.742205781706339E-1   -3.069989790094708E-1    3.751375528084612E-1   -3.073111993039904E-1    6.276790595825240E-1    3.059438535327135E-1
 1.023064676522963E5     6.300686904995249E-1    3.046785171336803E-1    3.725356833069224E-1   -3.057665575463330E-1    3.734517549418239E-1   -3.060740323665363E-1    6.293397268317948E-1    3.047146502091518E-1
 1.030870519483485E5     6.317377717152793E-1    3.034283521685803E-1    3.708676521963429E-1   -3.045337200841562E-1    3.717877561000169E-1   -3.048368651099441E-1    6.310088740625436E-1    3.034750017258679E-1
 1.038735919953636E5     6.333834302999223E-1    3.021730935863854E-1    3.692155776362194E-1   -3.032951739955876E-1    3.701168715319573E-1   -3.035889727642008E-1    6.326514480956469E-1    3.022354222541980E-1
 1.046661332349037E5     6.349951231880036E-1    3.009294569911279E-1    3.675781281684017E-1   -3.020523543671018E-1    3.684781552873623E-1   -3.023575931475830E-1    6.342810954437337E-1    3.009965469240303E-1
 1.054647214552430E5     6.365776540879001E-1    2.996635988926439E-1    3.659392658848563E-1   -3.008084106947959E-1    3.668404680528916E-1   -3.011153747337947E-1    6.358870366470103E-1    2.997472243282026E-1
 1.062694027940149E5     6.381648442495537E-1    2.984119736183949E-1    3.643198576731750E-1   -2.995659201510757E-1    3.652303254490620E-1   -2.998660217544376E-1    6.374811424181743E-1    2.985177445830158E-1
 1.070802237408760E5     6.397700649970154E-1    2.971788702458907E-1    3.627314035714184E-1   -2.983199218298344E-1    3.636440867528218E-1   -2.986315271343805E-1    6.390800717632072E-1    2.972668724568979E-1
 1.078972311401927E5     6.413335887498193E-1    2.959316957520167E-1    3.611660547853101E-1   -2.970830501492646E-1    3.620660426975218E-1   -2.973900421518765E-1    6.406670840269905E-1    2.960273552795684E-1
 1.087204721937475E5     6.428825137124403E-1    2.946948299601906E-1    3.595984044867644E-1   -2.958439520357937E-1    3.604897690823176E-1   -2.961437867988000E-1    6.421980917319721E-1    2.947897224264416E-1
 1.095499944634658E5     6.444220682153055E-1    2.934461161392927E-1    3.580350438086166E-1   -2.945926095726258E-1    3.589383965842098E-1   -2.949085097793888E-1    6.437249077618540E-1    2.935431069647131E-1
 1.103858458741646E5     6.459510001965587E-1    2.922127701979940E-1    3.564953984677541E-1   -2.933519137259036E-1    3.573970116796733E-1   -2.936621935401424E-1    6.452647683446342E-1    2.923169730675845E-1
 1.112280747163201E5     6.474472739136201E-1    2.909575154238700E-1    3.549703054991460E-1   -2.921131855824240E-1    3.558706038317684E-1   -2.924231951536954E-1    6.467765196363563E-1    2.910588385350851E-1
 1.120767296488583E5     6.489407233268506E-1    2.897183827421925E-1    3.534484763804985E-1   -2.908697879289003E-1    3.543637377765368E-1   -2.911847948426741E-1    6.482660471486710E-1    2.898187077870954E-1
 1.129318597019661E5     6.503982157019440E-1    2.884640320739729E-1    3.519654798726217E-1   -2.896347578383904E-1    3.528567384253767E-1   -2.899482195797271E-1    6.497460777896810E-1    2.885544237722567E-1
 1.137935142799240E5     6.518937924656900E-1    2.872239244570434E-1    3.504869948206779E-1   -2.883992467957415E-1    3.513805304382965E-1   -2.887124482549027E-1    6.512146843826043E-1    2.873482938661892E-1
 1.146617431639607E5     6.533352903011134E-1    2.859839118566837E-1    3.490169738118837E-1   -2.871628198970734E-1    3.499172841789942E-1   -2.874789740044605E-1    6.526791162644217E-1    2.860979639134179E-1
 1.155365965151286E5     6.547855709402122E-1    2.847547656466523E-1    3.475791883558736E-1   -2.859206067907877E-1    3.484637502515106E-1   -2.862452334183402E-1    6.541207408764209E-1    2.848685731842532E-1
 1.164181248772018E5     6.561986306131674E-1    2.835150833626768E-1    3.461353394187910E-1   -2.846861754251525E-1    3.470173971338530E-1   -2.850107378702803E-1    6.555491712872882E-1    2.836369041514028E-1
 1.173063791795965E5     6.576251671358195E-1    2.822772374014347E-1    3.447084915308570E-1   -2.834517885356083E-1    3.456066141154415E-1   -2.837794035483400E-1    6.569317057326880E-1    2.824060674847014E-1
 1.182014107403141E5     6.590034998156044E-1    2.810674122548558E-1    3.433137539418809E-1   -2.822305490101385E-1    3.441846007098781E-1   -2.825526991573574E-1    6.583472244058584E-1    2.811681914560182E-1
 1.191032712689044E5     6.603971873664609E-1    2.798170038952965E-1    3.419193165501688E-1   -2.809974829282730E-1    3.427804484750068E-1   -2.813196666041575E-1    6.597376343071274E-1    2.799595405389941E-1
 1.200120128694542E5     6.617569397463473E-1    2.785800806959929E-1    3.405267668804701E-1   -2.797809003659670E-1    3.413911284377423E-1   -2.800929511250068E-1    6.611148593549060E-1    2.787183624105701E-1
 1.209276880435975E5     6.631189057673554E-1    2.773689537951767E-1    3.391559519101591E-1   -2.785423260038096E-1    3.400066635335576E-1   -2.788572440033372E-1    6.624619825768195E-1    2.774969216843158E-1
 1.218503496935483E5     6.644372964378465E-1    2.761586300305103E-1    3.378135421356318E-1   -2.773223364213447E-1    3.386499223153123E-1   -2.776397443752449E-1    6.638244434700735E-1    2.762726760273222E-1
 1.227800511251578E5     6.658173885186963E-1    2.749391488268617E-1    3.364594732363243E-1   -2.761046136405965E-1    3.372983598448884E-1   -2.764288474843630E-1    6.651813679627487E-1    2.750403674881551E-1
 1.237168460509929E5     6.671457120604862E-1    2.737140514275235E-1    3.351409427603374E-1   -2.748920949307536E-1    3.359719097024440E-1   -2.752121419014558E-1    6.664843349084764E-1    2.738229521175244E-1
 1.246607885934402E5     6.684503749450401E-1    2.724974131250066E-1    3.338201131966887E-1   -2.736802849050101E-1    3.346432379852300E-1   -2.739906645836275E-1    6.678031709084942E-1    2.726141631704315E-1
 1.256119332878327E5     6.697561068814418E-1    2.712943675878423E-1    3.325135649725277E-1   -2.724737042814945E-1    3.333379591056987E-1   -2.727899036597692E-1    6.690930518930808E-1    2.714033005918632E-1
 1.265703350856002E5     6.710229024405641E-1    2.700832292989386E-1    3.312147848739630E-1   -2.712557614044958E-1    3.320419714762015E-1   -2.715759154739723E-1    6.704027265746141E-1    2.701997085490061E-1
 1.275360493574453E5     6.722959415985065E-1    2.688668069805772E-1    3.299212220068186E-1   -2.700502228241419E-1    3.307630409349763E-1   -2.703661559068790E-1    6.716837840938584E-1    2.690007536678979E-1
 1.285091318965405E5     6.735543173919324E-1    2.676691514048569E-1    3.286448900818187E-1   -2.688460012624240E-1    3.294883274955683E-1   -2.691675086841427E-1    6.729260733897732E-1    2.678045754544959E-1
 1.294896389217529E5     6.748129591626950E-1    2.664542495671208E-1    3.273879913058759E-1   -2.676471836603838E-1    3.282350398012793E-1   -2.679715718331711E-1    6.741925151452598E-1    2.666129685858751E-1
 1.304776270808914E5     6.760216226650793E-1    2.652536697559069E-1    3.261571085355153E-1   -2.664477970286965E-1    3.269794499952172E-1   -2.667765811285824E-1    6.754242423963248E-1    2.654184079719765E-1
 1.314731534539810E5     6.772698370701722E-1    2.640589787177168E-1    3.249253034776901E-1   -2.652632692755214E-1    3.257487056992361E-1   -2.655850242841354E-1    6.766480734342606E-1    2.641999672819811E-1
 1.324762755565583E5     6.784638054220045E-1    2.628740192480263E-1    3.237116653172868E-1   -2.640753510089479E-1    3.245320281490628E-1   -2.643906785787057E-1    6.778574415871649E-1    2.630510376532681E-1
 1.334870513429962E5     6.796521250041826E-1    2.616748193005879E-1    3.224998869249259E-1   -2.628921156674781E-1    3.233243494804389E-1   -2.632165394335328E-1    6.791061431362019E-1    2.618589231785085E-1
 1.345055392098512E5     6.808406668940874E-1    2.605032608134190E-1    3.213071498773452E-1   -2.617122452828118E-1    3.221239506571686E-1   -2.620279333169863E-1    6.802734068780234E-1    2.606727483453364E-1
 1.355317979992373E5     6.820328488853138E-1    2.593298448438950E-1    3.201348916409705E-1   -2.605389296288873E-1    3.209369657195991E-1   -2.608594530282137E-1    6.814346322926297E-1    2.594998189498449E-1
 1.365658870022265E5     6.831758901505161E-1    2.581566355301317E-1    3.189470387445619E-1   -2.593596988980080E-1    3.197583040131909E-1   -2.596849813185202E-1    6.826120931850480E-1    2.583101633872370E-1
 1.376078659622731E5     6.843334704940987E-1    2.569860151347203E-1    3.178005837385883E-1   -2.581984125183874E-1    3.186002080339558E-1   -2.585142970980911E-1    6.837611167037576E-1    2.571465943298895E-1
 1.386577950786655E5     6.854702875803815E-1    2.558376986643895E-1    3.166425605328355E-1   -2.570266862436832E-1    3.174318561432839E-1   -2.573494005117175E-1    6.849034206943176E-1    2.559778633002908E-1
 1.397157350100044E5     6.866273612549030E-1    2.546675827443386E-1    3.155054769751042E-1   -2.558669475166024E-1    3.162974006089134E-1   -2.561858432489589E-1    6.860690038037384E-1    2.548213956676288E-1
 1.407817468777081E5     6.877534365924085E-1    2.535320092686137E-1    3.143762473473050E-1   -2.547147997694947E-1    3.151655431784529E-1   -2.550333230360837E-1    6.872047981206482E-1    2.536727092193845E-1
 1.418558922695422E5     6.888612112518299E-1    2.523744637721131E-1    3.132452835040253E-1   -2.535591617815161E-1    3.140508971426636E-1   -2.538803099203586E-1    6.883005910462568E-1    2.525074491191550E-1
 1.429382332431784E5     6.899628942929203E-1    2.512410078757683E-1    3.121443560099982E-1   -2.524075717810390E-1    3.129440495603849E-1   -2.527362766721450E-1    6.894038553421671E-1    2.513736470908762E-1
 1.440288323297804E5     6.910309692553995E-1    2.500829530097028E-1    3.110557879083297E-1   -2.512706734733071E-1    3.118394201671844E-1   -2.515958687729997E-1    6.904794025254549E-1    2.502306390863123E-1
 1.451277525376154E5     6.921474432317504E-1    2.489416247796460E-1    3.099657482020589E-1   -2.501470022036966E-1    3.107415631604281E-1   -2.504549376978313E-1    6.915782983528839E-1    2.490945943214997E-1
 1.462350573556962E5     6.931710343772374E-1    2.478074080362895E-1    3.088963269724406E-1   -2.490082576452646E-1    3.096689150854472E-1   -2.493184001413390E-1    6.926581596588219E-1    2.479643815625532E-1
 1.473508107574468E5     6.942695686921304E-1    2.466799473793924E-1    3.078373670490315E-1   -2.478832878895128E-1    3.085992412626950E-1   -2.481915212945417E-1    6.937185994453784E-1    2.468363157632845E-1
 1.484750772044004E5     6.952935760536139E-1    2.455412430209379E-1    3.067749518471760E-1   -2.467575718248280E-1    3.075486849448866E-1   -2.470711674074536E-1    6.947447632500063E-1    2.457052859394850E-1
 1.496079216499225E5     6.963293649462995E-1    2.444261992678575E-1    3.057246975825119E-1   -2.456380979405146E-1    3.065078493603250E-1   -2.459618132612189E-1    6.957911438018062E-1    2.445855413284301E-1
 1.507494095429637E5     6.973665158151742E-1    2.433301764515448E-1    3.046852098769305E-1   -2.445212668524866E-1    3.054546043950576E-1   -2.448373428714447E-1    6.967758930009135E-1    2.434654626304195E-1
 1.518996068318418E5     6.984102104013952E-1    2.422284528356206E-1    3.036543486874035E-1   -2.434098460839735E-1    3.044374775059803E-1   -2.437347415623276E-1    6.978484543006656E-1    2.423619048199178E-1
 1.530585799680507E5     6.993902134245595E-1    2.411063561462850E-1    3.026333004955415E-1   -2.423006887649366E-1    3.033995839313274E-1   -2.426265645500886E-1    6.988331629062615E-1    2.412583693632907E-1
 1.542263959101001E5     7.004066947233912E-1    2.400130076729256E-1    3.016316494302396E-1   -2.412148160146775E-1    3.024052588266338E-1   -2.415325688625453E-1    6.998398676534541E-1    2.401710364864538E-1
 1.554031221273835E5     7.013890402789712E-1    2.389225070339099E-1    3.006302111962387E-1   -2.401191750457801E-1    3.013980890868287E-1   -2.404376833736413E-1    7.008362358467791E-1    2.390697800244153E-1
 1.565888266040779E5     7.023758559073153E-1    2.378359954324155E-1    2.996409071916705E-1   -2.390310772427538E-1    3.004154224592311E-1   -2.393514524725206E-1    7.018098407677437E-1    2.379787920186250E-1
 1.577835778430689E5     7.033525683265857E-1    2.367414635914384E-1    2.986731528795525E-1   -2.379531779201877E-1    2.994224617281150E-1   -2.382653354855917E-1    7.027928759625284E-1    2.368871244092204E-1
 1.589874448699104E5     7.043115136441959E-1    2.356771351465509E-1    2.977008754342656E-1   -2.368764306873251E-1    2.984607010337747E-1   -2.371956231936325E-1    7.037841763946981E-1    2.358108236942955E-1
 1.602004972368116E5     7.052942928129291E-1    2.346201389802463E-1    2.967458288800684E-1   -2.358078764861000E-1    2.975059741660516E-1   -2.361347341627935E-1    7.047388168384975E-1    2.347385813647399E-1
 1.614228050266550E5     7.062464665287036E-1    2.335443171224428E-1    2.957999859357314E-1   -2.347479210768174E-1    2.965515060514116E-1   -2.350620327385003E-1    7.056899918563134E-1    2.336729898188093E-1
 1.626544388570473E5     7.071753067073095E-1    2.324805248395998E-1    2.948500817956960E-1   -2.336846257212025E-1    2.956064732290647E-1   -2.339997609700593E-1    7.066101785747670E-1    2.326114540856095E-1
 1.638954698843964E5     7.081145089409028E-1    2.314341709962843E-1    2.939051319869599E-1   -2.326284735213741E-1    2.946684694524813E-1   -2.329502943863605E-1    7.075596663959753E-1    2.315662608023782E-1
 1.651459698080244E5     7.090174735333670E-1    2.303776379437150E-1    2.929879596459599E-1   -2.315837364305893E-1    2.937532585550113E-1   -2.319051114173666E-1    7.084824580904475E-1    2.305187191488907E-1
 1.664060108743095E5     7.099370099126523E-1    2.293331501956098E-1    2.920831353175053E-1   -2.305426030740338E-1    2.928394261277208E-1   -2.308698251543416E-1    7.094294513296915E-1    2.294790670614379E-1
 1.676756658808590E5     7.108556049953644E-1    2.282945571526174E-1    2.911729331778143E-1   -2.295047554087839E-1    2.919263942040556E-1   -2.298245168285563E-1    7.103096773582981E-1    2.284448722662295E-1
 1.689550081807175E5     7.117468410188823E-1    2.272566890063059E-1    2.902715152321304E-1   -2.284807941382178E-1    2.910174600237986E-1   -2.287936663265261E-1    7.112120283765906E-1    2.274014123824144E-1
 1.702441116866020E5     7.126338256503612E-1    2.262381828688793E-1    2.893741162331107E-1   -2.274485410442015E-1    2.901253355136114E-1   -2.277722105103411E-1    7.120985800820520E-1    2.264059281178229E-1
 1.715430508751738E5     7.135087147343518E-1    2.252166846551634E-1    2.884904354656020E-1   -2.264279730117116E-1    2.892421132019453E-1   -2.267525306952838E-1    7.129812513593740E-1    2.253709929193428E-1
 1.728519007913403E5     7.143743804582883E-1    2.242068949622067E-1    2.876088990297007E-1   -2.254107540373647E-1    2.883553953219814E-1   -2.257267933963871E-1    7.138504564845279E-1    2.243620740495611E-1
 1.741707370525927E5     7.152204096636637E-1    2.231854618750218E-1    2.867336374073373E-1   -2.244090484608240E-1    2.874693047897787E-1   -2.247225444601817E-1    7.147141428318969E-1    2.233464788697158E-1
 1.754996358533718E5     7.160961707951938E-1    2.221906989345257E-1    2.858790194294966E-1   -2.234047957762720E-1    2.866238872471445E-1   -2.237256522858332E-1    7.155564511482336E-1    2.223307355246922E-1
 1.768386739694722E5     7.169215077396763E-1    2.211802223122503E-1    2.850180554878016E-1   -2.224100442227487E-1    2.857650591997894E-1   -2.227310108650800E-1    7.164464839286252E-1    2.213636458719923E-1
 1.781879287624771E5     7.177666899689289E-1    2.201899425429531E-1    2.841841068662922E-1   -2.214292774881787E-1    2.849227227894710E-1   -2.217518642443980E-1    7.173147952935729E-1    2.203689200403454E-1
 1.795474781842276E5     7.186199571546236E-1    2.192154845920181E-1    2.833326428649796E-1   -2.204372378842892E-1    2.840561835369917E-1   -2.207536920196612E-1    7.181164548910426E-1    2.193830938993679E-1
 1.809174007813277E5     7.194592471117093E-1    2.182387144360633E-1    2.825004275352744E-1   -2.194630734305601E-1    2.832297697063842E-1   -2.197737310556016E-1    7.189259150853622E-1    2.183998627685851E-1
 1.822977756996804E5     7.202746203814432E-1    2.172501457325631E-1    2.816830979766187E-1   -2.184947528379841E-1    2.823967007318029E-1   -2.187956524545661E-1    7.197563902790132E-1    2.174260922058825E-1
 1.836886826890609E5     7.210926272842735E-1    2.163079129253878E-1    2.808738484690786E-1   -2.175280968074506E-1    2.815559461380255E-1   -2.178205045822992E-1    7.205547145468918E-1    2.164447337909710E-1
 1.850902021077247E5     7.218987241866948E-1    2.153498961438852E-1    2.800661784493934E-1   -2.165702906118991E-1    2.807656886582902E-1   -2.168718170466861E-1    7.213716252849618E-1    2.154936410749373E-1
 1.865024149270491E5     7.226814161746261E-1    2.143777993810679E-1    2.792566229315979E-1   -2.156116265423214E-1    2.799584547787995E-1   -2.159103940841721E-1    7.221754448723577E-1    2.145351286598532E-1
 1.879254027362132E5     7.234742803750405E-1    2.134338864199747E-1    2.784483078787190E-1   -2.146653315286267E-1    2.791586614525844E-1   -2.149695125747161E-1    7.229741969697677E-1    2.135864663535147E-1
 1.893592477469092E5     7.242747694321855E-1    2.125067870901053E-1    2.776678358328030E-1   -2.137031088017038E-1    2.783530607179985E-1   -2.140457377375187E-1    7.237766465750608E-1    2.126153379874823E-1
 1.908040327980933E5     7.250333297604868E-1    2.115582373149119E-1    2.768742926840896E-1   -2.127883628667453E-1    2.775735399686020E-1   -2.130919136306219E-1    7.245476923294283E-1    2.117175393716096E-1
 1.922598413607715E5     7.258068930526218E-1    2.106157074351875E-1    2.760937747349375E-1   -2.118622861318036E-1    2.767880083852419E-1   -2.121562497049707E-1    7.253399187366131E-1    2.107803398214894E-1
 1.937267575428232E5     7.266006244639753E-1    2.097066986838018E-1    2.753273339045583E-1   -2.109400528175730E-1    2.760250032996456E-1   -2.112407233863480E-1    7.261015088583799E-1    2.098478547049880E-1
 1.952048660938581E5     7.273574354132349E-1    2.087945231551654E-1    2.745664056055964E-1   -2.100300720133934E-1    2.752579733565860E-1   -2.103239245048922E-1    7.268557785774779E-1    2.089310903070737E-1
 1.966942524101142E5     7.281096394475109E-1    2.078676074016533E-1    2.737983471303994E-1   -2.091182229597270E-1    2.744903445351790E-1   -2.094159025905279E-1    7.276140223353155E-1    2.080200620632655E-1
 1.981950025393913E5     7.288379786091802E-1    2.069715390721647E-1    2.730465007287311E-1   -2.082041733893439E-1    2.737342564001506E-1   -2.085000583472418E-1    7.283513831476016E-1    2.071176656641018E-1
