#  HZ   S   RI   R     50.00 
! Rohde & Schwarz Vector Network Analyzer 
! Rohde-Schwarz,ZNLE6-2Port,1323001256200024,1.71.1.10-23.02.1.238
! Created: UTC 4/7/2025, 9:35:04 AM
! freq[Hz]                re:S11                  im:S11                  re:S21                  im:S21                  re:S12                  im:S12                  re:S22                  im:S22
 1.000000000000000E5     7.346711718980981E-1    2.700526364096053E-1    2.675112177620375E-1   -2.716599517493450E-1    2.682986891175089E-1   -2.719398500924639E-1    7.340765685535060E-1    2.704473698593963E-1
 1.007629862646662E5     7.359257609634555E-1    2.686469569746229E-1    2.662629230912065E-1   -2.702985207423099E-1    2.670598123955817E-1   -2.705591244774881E-1    7.353172305583721E-1    2.690752681789925E-1
 1.015317940097331E5     7.371035073121270E-1    2.672695174837555E-1    2.650483696847931E-1   -2.689221905860747E-1    2.658144875817145E-1   -2.691941578855808E-1    7.365183214388675E-1    2.676864078946422E-1
 1.023064676522963E5     7.383118768302324E-1    2.658855920841838E-1    2.638248688779394E-1   -2.675628152258818E-1    2.645977395543656E-1   -2.678315831827112E-1    7.377155238049021E-1    2.663262255246084E-1
 1.030870519483485E5     7.394832571452173E-1    2.644923410904629E-1    2.626162620702424E-1   -2.662059144730655E-1    2.633935979281066E-1   -2.664690230127985E-1    7.389268126285804E-1    2.649631959759564E-1
 1.038735919953636E5     7.406560591978415E-1    2.631058804711301E-1    2.614262046131474E-1   -2.648523057031103E-1    2.621863042719684E-1   -2.650946193204122E-1    7.400920081679572E-1    2.635995598167201E-1
 1.046661332349037E5     7.418306652765947E-1    2.617440676462079E-1    2.602518423720972E-1   -2.634983380021289E-1    2.610016950382662E-1   -2.637435107659674E-1    7.412349277545512E-1    2.622541313054326E-1
 1.054647214552430E5     7.429763508681277E-1    2.603678424815335E-1    2.590803366922936E-1   -2.621513365052327E-1    2.598362341319852E-1   -2.623941050062816E-1    7.424140201927446E-1    2.609184241173942E-1
 1.062694027940149E5     7.440913238831398E-1    2.590079689517461E-1    2.579127950867000E-1   -2.608116165230983E-1    2.586802405749619E-1   -2.610387241776038E-1    7.435293665136262E-1    2.595688047464595E-1
 1.070802237408760E5     7.452529700848338E-1    2.576679915976227E-1    2.567745293374269E-1   -2.594718518746481E-1    2.575454461808483E-1   -2.597018739960392E-1    7.446823820852793E-1    2.582476153328455E-1
 1.078972311401927E5     7.463679755237106E-1    2.563229963289958E-1    2.556645529459550E-1   -2.581469497689673E-1    2.564232321566964E-1   -2.583673189019084E-1    7.457850170866307E-1    2.569025195770444E-1
 1.087204721937475E5     7.474873870450078E-1    2.549891421443796E-1    2.545469668073904E-1   -2.568229259958662E-1    2.552908471746833E-1   -2.570334553562832E-1    7.468877510646894E-1    2.555680736837599E-1
 1.095499944634658E5     7.485612530930332E-1    2.536478896882798E-1    2.534381773780968E-1   -2.554932302367264E-1    2.541908058524219E-1   -2.557121123736301E-1    7.479779010658960E-1    2.542417021160157E-1
 1.103858458741646E5     7.496280722438270E-1    2.523476753743021E-1    2.523446896387200E-1   -2.541650320865107E-1    2.530863512886932E-1   -2.543871925927407E-1    7.490627955020753E-1    2.529314595784753E-1
 1.112280747163201E5     7.506945165192185E-1    2.510129714005278E-1    2.512635675665914E-1   -2.528603716172793E-1    2.520158595598027E-1   -2.530760327989033E-1    7.501348144461248E-1    2.516206499150487E-1
 1.120767296488583E5     7.517595704900469E-1    2.497100701622706E-1    2.501900066762600E-1   -2.515512162930152E-1    2.509409097884262E-1   -2.517640167003036E-1    7.512025484472639E-1    2.503098478098190E-1
 1.129318597019661E5     7.528037299446365E-1    2.483934485540025E-1    2.491401048220502E-1   -2.502528613607339E-1    2.498739507300595E-1   -2.504588842474687E-1    7.522321507749489E-1    2.489929896332175E-1
 1.137935142799240E5     7.538518411569072E-1    2.470875803392198E-1    2.481033159518709E-1   -2.489647028863698E-1    2.488299960141887E-1   -2.491638569291411E-1    7.532831970907642E-1    2.477147793297089E-1
 1.146617431639607E5     7.548781493194321E-1    2.457771950560924E-1    2.470662398744099E-1   -2.476755810847736E-1    2.478005522677113E-1   -2.478720760707613E-1    7.542945932788705E-1    2.464235109094937E-1
 1.155365965151286E5     7.558704633846115E-1    2.444791833746181E-1    2.460519313374277E-1   -2.463868510588538E-1    2.467706643604657E-1   -2.465788214953201E-1    7.552985592674696E-1    2.451329409106432E-1
 1.164181248772018E5     7.568380807955521E-1    2.431824046207201E-1    2.450350000329971E-1   -2.450973549459964E-1    2.457496793966825E-1   -2.452968041023592E-1    7.562978110563972E-1    2.438364201990499E-1
 1.173063791795965E5     7.578437771690675E-1    2.419079747361711E-1    2.440375490359990E-1   -2.438273111541558E-1    2.447675505295043E-1   -2.440240474112118E-1    7.572693475585596E-1    2.425700099888090E-1
 1.182014107403141E5     7.588370080824791E-1    2.406483726652326E-1    2.430611790357159E-1   -2.425676228501759E-1    2.437700907938679E-1   -2.427579402237866E-1    7.582652104408107E-1    2.413162970828983E-1
 1.191032712689044E5     7.598137537891145E-1    2.393659033290360E-1    2.420884167281055E-1   -2.413052737778437E-1    2.427922937284530E-1   -2.414887661203828E-1    7.592437708516965E-1    2.400587783939934E-1
 1.200120128694542E5     7.607399154945746E-1    2.380891820677176E-1    2.411114866392030E-1   -2.400566591935986E-1    2.418168015739087E-1   -2.402235096973824E-1    7.601858279245133E-1    2.387911038648907E-1
 1.209276880435975E5     7.616684752849855E-1    2.368438351217969E-1    2.401513248608300E-1   -2.387925286550067E-1    2.408602160012254E-1   -2.389671069965053E-1    7.611619202733648E-1    2.375443267677609E-1
 1.218503496935483E5     7.626377752533651E-1    2.356105809886376E-1    2.392275216322973E-1   -2.375531976625930E-1    2.399073343283983E-1   -2.377260218674563E-1    7.620931009242559E-1    2.362853571564417E-1
 1.227800511251578E5     7.635643881933672E-1    2.343584525324041E-1    2.382786296501192E-1   -2.363181337629389E-1    2.389658999654537E-1   -2.364865908533314E-1    7.630260460252318E-1    2.350482832649369E-1
 1.237168460509929E5     7.644769622892045E-1    2.331134853614265E-1    2.373517909342477E-1   -2.350870138191709E-1    2.380467407563352E-1   -2.352436421082962E-1    7.639381807262788E-1    2.338178890650789E-1
 1.246607885934402E5     7.653777359236059E-1    2.318700322550808E-1    2.364300021028785E-1   -2.338552256629851E-1    2.371138185130063E-1   -2.340111223911659E-1    7.648229201654196E-1    2.325889666917341E-1
 1.256119332878327E5     7.662967166270903E-1    2.306618093027906E-1    2.355274834785731E-1   -2.326386146678288E-1    2.362131871989311E-1   -2.327948881631903E-1    7.657385729060467E-1    2.313689987069530E-1
 1.265703350856002E5     7.671742404582182E-1    2.294376167992569E-1    2.346265432808820E-1   -2.314203904988990E-1    2.353123060534323E-1   -2.315766153471693E-1    7.666522613935540E-1    2.301540550834876E-1
 1.275360493574453E5     7.680745814963601E-1    2.282020162355113E-1    2.337380638272108E-1   -2.302125400116542E-1    2.344248571288830E-1   -2.303562293953139E-1    7.675351213657488E-1    2.289561028716947E-1
 1.285091318965405E5     7.689390351365440E-1    2.270216550717366E-1    2.328588011349791E-1   -2.290076712924683E-1    2.335363881873379E-1   -2.291579614599297E-1    7.683739005879199E-1    2.277433416071447E-1
 1.294896389217529E5     7.697840982272443E-1    2.258098597511059E-1    2.319820342179498E-1   -2.278026787354955E-1    2.326737228673372E-1   -2.279603809081697E-1    7.692615787633021E-1    2.265642166474605E-1
 1.304776270808914E5     7.706011334794056E-1    2.246188613414591E-1    2.311357637019567E-1   -2.266152338194875E-1    2.318076177595199E-1   -2.267740775717737E-1    7.701003590563732E-1    2.253757357996755E-1
 1.314731534539810E5     7.714378032904630E-1    2.234267892365702E-1    2.302824242445152E-1   -2.254291003424188E-1    2.309629542510583E-1   -2.255870277130964E-1    7.709407387580737E-1    2.241764452031689E-1
 1.324762755565583E5     7.723067976977126E-1    2.222479067091911E-1    2.294560623638161E-1   -2.242582160783540E-1    2.301210757085580E-1   -2.244128741798259E-1    7.717860807804930E-1    2.230222056974782E-1
 1.334870513429962E5     7.731001023928994E-1    2.210796975097299E-1    2.286148358316064E-1   -2.230840364208666E-1    2.292843403641711E-1   -2.232399783033419E-1    7.726223409957214E-1    2.218500052125314E-1
 1.345055392098512E5     7.739409994873280E-1    2.199369619013157E-1    2.278047011598087E-1   -2.219197369971284E-1    2.284668939709927E-1   -2.220740907329211E-1    7.734483532584758E-1    2.206915669596347E-1
 1.355317979992373E5     7.747228019443951E-1    2.188200515432924E-1    2.269974278672163E-1   -2.207537668286070E-1    2.276457209847255E-1   -2.209113904931750E-1    7.742549034123661E-1    2.195421948468492E-1
 1.365658870022265E5     7.755039581809565E-1    2.176895465201079E-1    2.261851123322662E-1   -2.195842781702229E-1    2.268386079298837E-1   -2.197560571251037E-1    7.750540178801661E-1    2.183879881131748E-1
 1.376078659622731E5     7.763171910258945E-1    2.166006910594354E-1    2.254088740543213E-1   -2.184321320493402E-1    2.260449192806236E-1   -2.186174335075348E-1    7.758561481677677E-1    2.172498998005285E-1
 1.386577950786655E5     7.770754660811221E-1    2.155335843098555E-1    2.246150252629189E-1   -2.172681517606955E-1    2.252526017948482E-1   -2.174800902631643E-1    7.766500080776662E-1    2.161105229489773E-1
 1.397157350100044E5     7.778428860187860E-1    2.145236735434478E-1    2.238555313894934E-1   -2.160968128788723E-1    2.244672905981253E-1   -2.163372455155625E-1    7.774111161380390E-1    2.149734658602988E-1
 1.407817468777081E5     7.786168514839863E-1    2.134997114300219E-1    2.230828864215635E-1   -2.149376029725019E-1    2.236966321496108E-1   -2.152173061586914E-1    7.781827031213199E-1    2.138350864848635E-1
 1.418558922695422E5     7.793445135002447E-1    2.124170883894924E-1    2.223179982433192E-1   -2.138042322617184E-1    2.229293431773630E-1   -2.140944809857647E-1    7.789374920509871E-1    2.127303202153282E-1
 1.429382332431784E5     7.801107490476586E-1    2.113314962909327E-1    2.215652394774683E-1   -2.126736765093324E-1    2.221767616109589E-1   -2.129837365095268E-1    7.796839351867273E-1    2.116142103097691E-1
 1.440288323297804E5     7.808213589019583E-1    2.102283921614901E-1    2.208194822950649E-1   -2.115680079316856E-1    2.214226779951124E-1   -2.118843255557621E-1    7.804373532351959E-1    2.105088206511783E-1
 1.451277525376154E5     7.815412446060938E-1    2.091248796497339E-1    2.200708478560389E-1   -2.104584917341340E-1    2.206766193453483E-1   -2.107759447558856E-1    7.811891950424126E-1    2.094304438104519E-1
 1.462350573556962E5     7.822851640363858E-1    2.080579607900746E-1    2.193534823677092E-1   -2.093704518793062E-1    2.199407823568814E-1   -2.096911811141908E-1    7.819302117544218E-1    2.083362217925364E-1
 1.473508107574468E5     7.830135736282803E-1    2.069877851951095E-1    2.186272463463844E-1   -2.082805168201795E-1    2.192101981554307E-1   -2.085945447007338E-1    7.826216427070928E-1    2.072412978246360E-1
 1.484750772044004E5     7.837399587033587E-1    2.058960600011044E-1    2.179081375413725E-1   -2.072060234251427E-1    2.184951806170938E-1   -2.075204114773850E-1    7.833224339009168E-1    2.061689232770594E-1
 1.496079216499225E5     7.844344658311889E-1    2.048402663904712E-1    2.171871892178630E-1   -2.061295606659085E-1    2.177902439737315E-1   -2.064522404093787E-1    7.840283285895769E-1    2.050888784962963E-1
 1.507494095429637E5     7.851020054093895E-1    2.037706757167528E-1    2.164736318111919E-1   -2.050543991290251E-1    2.170731320970178E-1   -2.053808405129158E-1    7.847117651475622E-1    2.040377831820420E-1
 1.518996068318418E5     7.858166074614730E-1    2.027281101755286E-1    2.157761532990970E-1   -2.039905683471474E-1    2.163829661057693E-1   -2.043214805262067E-1    7.854397972663948E-1    2.029803416372308E-1
 1.530585799680507E5     7.864912411312970E-1    2.016739619333638E-1    2.150834870695559E-1   -2.029327871556953E-1    2.156764243300480E-1   -2.032715065594072E-1    7.861185212454747E-1    2.019290785375259E-1
 1.542263959101001E5     7.871559133526025E-1    2.006163366671063E-1    2.143973005447744E-1   -2.018961836387913E-1    2.150015674071526E-1   -2.022342932615393E-1    7.868100060363709E-1    2.008978345420663E-1
 1.554031221273835E5     7.878414366017794E-1    1.995919254279936E-1    2.137274584648296E-1   -2.008551657262689E-1    2.143150180007012E-1   -2.011879452169786E-1    7.874791070732694E-1    1.998516051565667E-1
 1.565888266040779E5     7.885247206424347E-1    1.985741555564830E-1    2.130583436474902E-1   -1.998249580171619E-1    2.136458509517936E-1   -2.001575733693296E-1    7.881435236842704E-1    1.988124674946096E-1
 1.577835778430689E5     7.891664894215893E-1    1.975459006144661E-1    2.123956352175316E-1   -1.987984664742828E-1    2.129761867492430E-1   -1.991315194925842E-1    7.888077160648048E-1    1.977841874106888E-1
 1.589874448699104E5     7.897997706364066E-1    1.965380983299955E-1    2.117350671603287E-1   -1.977816456482222E-1    2.123228909015754E-1   -1.981165878610256E-1    7.894901470028877E-1    1.967652138652551E-1
 1.602004972368116E5     7.904755224763894E-1    1.955413635675848E-1    2.110921236614082E-1   -1.967727816258488E-1    2.116692558114561E-1   -1.971099170381570E-1    7.901395756682191E-1    1.957681164589339E-1
 1.614228050266550E5     7.911185859857888E-1    1.945392757556699E-1    2.104556646345779E-1   -1.957760011225180E-1    2.110319623904951E-1   -1.961047510291837E-1    7.907921277875832E-1    1.947537467061033E-1
 1.626544388570473E5     7.917664218559457E-1    1.935447571697035E-1    2.098123590165690E-1   -1.947740247716355E-1    2.103837355790966E-1   -1.951084773599042E-1    7.914204171666087E-1    1.937669225751182E-1
 1.638954698843964E5     7.924075475230222E-1    1.925516993644073E-1    2.091729276445000E-1   -1.937837680785021E-1    2.097543521378659E-1   -1.941212534662200E-1    7.920411276878411E-1    1.927760826326079E-1
 1.651459698080244E5     7.930085995849867E-1    1.915664392657420E-1    2.085571618210730E-1   -1.928031142816770E-1    2.091342903912196E-1   -1.931392913269019E-1    7.926620682148150E-1    1.917965955989952E-1
 1.664060108743095E5     7.936391871918137E-1    1.905902869688710E-1    2.079362674547269E-1   -1.918266856298954E-1    2.085065722513275E-1   -1.921614366588326E-1    7.932935049610170E-1    1.908076811241746E-1
 1.676756658808590E5     7.942575305057955E-1    1.896246222716247E-1    2.073252758675275E-1   -1.908616932259585E-1    2.078913205872050E-1   -1.911895449009360E-1    7.938932779629626E-1    1.898500880399148E-1
 1.689550081807175E5     7.948596499814525E-1    1.886582769822799E-1    2.067174990303345E-1   -1.899064462250395E-1    2.072782524747467E-1   -1.902201995244956E-1    7.944809293494501E-1    1.888898195792076E-1
 1.702441116866020E5     7.954811072223397E-1    1.877079588941816E-1    2.061124853426739E-1   -1.889431792615132E-1    2.066745943270509E-1   -1.892725315445267E-1    7.950946350520880E-1    1.879396408482694E-1
 1.715430508751738E5     7.960762660889912E-1    1.867607030552506E-1    2.055127816192952E-1   -1.879961112962207E-1    2.060710722854912E-1   -1.883216377929962E-1    7.956931956787103E-1    1.869815208220889E-1
 1.728519007913403E5     7.966621212005032E-1    1.858160002659396E-1    2.049176767882613E-1   -1.870494300956722E-1    2.054807957333614E-1   -1.873735810516650E-1    7.962931327248565E-1    1.860402418494892E-1
 1.741707370525927E5     7.972291759500562E-1    1.848715723429929E-1    2.043355291354608E-1   -1.861198440232284E-1    2.048845141877688E-1   -1.864414328694794E-1    7.968753328852337E-1    1.851097485960162E-1
 1.754996358533718E5     7.978303593173549E-1    1.839454635592290E-1    2.037541073390991E-1   -1.851936464791144E-1    2.043005029914345E-1   -1.855100667418424E-1    7.974344743395813E-1    1.841666925972810E-1
 1.768386739694722E5     7.983804702632674E-1    1.830300907348397E-1    2.031688397169879E-1   -1.842661489889817E-1    2.037214659776978E-1   -1.845886424638025E-1    7.980259711296739E-1    1.832593322987067E-1
 1.781879287624771E5     7.989641541822290E-1    1.821140345719524E-1    2.026087998962766E-1   -1.833584067314744E-1    2.031590379352259E-1   -1.836739922817816E-1    7.986294597230196E-1    1.823634108980370E-1
 1.795474781842276E5     7.995528135651234E-1    1.812039951033480E-1    2.020292449163132E-1   -1.824455818339658E-1    2.025667523809698E-1   -1.827558792181537E-1    7.991569783706043E-1    1.814417563448261E-1
 1.809174007813277E5     8.001056346217786E-1    1.802996956200271E-1    2.014675832923942E-1   -1.815454851916201E-1    2.020057062623093E-1   -1.818527495322015E-1    7.996894185837091E-1    1.805317931818595E-1
 1.822977756996804E5     8.006594840225042E-1    1.794018306160666E-1    2.009144927193605E-1   -1.806493863493962E-1    2.014445066970130E-1   -1.809530875275746E-1    8.002749465801542E-1    1.796507621980171E-1
 1.836886826890609E5     8.011803279648908E-1    1.785189470136821E-1    2.003584536390117E-1   -1.797604814709934E-1    2.008815003809560E-1   -1.800588646108038E-1    8.008398931793167E-1    1.787475029186062E-1
 1.850902021077247E5     8.017210482023059E-1    1.776335254644808E-1    1.998100917840279E-1   -1.788768524973188E-1    2.003343574578041E-1   -1.791805585501079E-1    8.013716417549953E-1    1.778566023860640E-1
 1.865024149270491E5     8.022488679181882E-1    1.767507747765929E-1    1.992639858004088E-1   -1.780002753377002E-1    1.997905200047869E-1   -1.783030360087555E-1    8.019317937794769E-1    1.769968135337349E-1
 1.879254027362132E5     8.028097411254841E-1    1.758941975009514E-1    1.987213819915281E-1   -1.771303358196890E-1    1.992483797059908E-1   -1.774403576970824E-1    8.024627305932266E-1    1.761099039688189E-1
 1.893592477469092E5     8.033478994134767E-1    1.750504019836968E-1    1.982036090468200E-1   -1.762559127360946E-1    1.987326109009309E-1   -1.765632694843531E-1    8.030000006034334E-1    1.752518308392780E-1
 1.908040327980933E5     8.038874169584200E-1    1.741914439372006E-1    1.976584414355430E-1   -1.754157606060264E-1    1.981743985777236E-1   -1.757177226944769E-1    8.035314293143293E-1    1.744073375064277E-1
 1.922598413607715E5     8.043943228433498E-1    1.733154467636822E-1    1.971338228351501E-1   -1.745694080831954E-1    1.976378089649207E-1   -1.748622596690963E-1    8.040658495950922E-1    1.735441012598562E-1
 1.937267575428232E5     8.049080878236867E-1    1.724733203895491E-1    1.966005314478439E-1   -1.737213921717965E-1    1.971313095879499E-1   -1.740199843673207E-1    8.045809324888511E-1    1.727019233841739E-1
 1.952048660938581E5     8.054301158408964E-1    1.716403972483944E-1    1.960815912025729E-1   -1.728927726280055E-1    1.966070064467630E-1   -1.731852859570255E-1    8.050886715767808E-1    1.718760531655625E-1
 1.966942524101142E5     8.059262069895142E-1    1.707949206198907E-1    1.955611959838057E-1   -1.720603621566397E-1    1.960902983883618E-1   -1.723552712474901E-1    8.056197982039294E-1    1.710314001818412E-1
 1.981950025393913E5     8.064385283264310E-1    1.699909519226092E-1    1.950622767361157E-1   -1.712320151553380E-1    1.955786814832327E-1   -1.715328529138228E-1    8.061442706391655E-1    1.702062497632844E-1
