#  HZ   S   RI   R     50.00 
! Rohde & Schwarz Vector Network Analyzer 
! Rohde-Schwarz,ZNLE6-2Port,1323001256200024,1.71.1.10-23.02.1.238
! Created: UTC 4/7/2025, 9:27:20 AM
! freq[Hz]                re:S11                  im:S11                  re:S21                  im:S21                  re:S12                  im:S12                  re:S22                  im:S22
 1.000000000000000E5     8.078147387611969E-1    2.287745904161293E-1    1.938739124978307E-1   -2.300223000469281E-1    1.944730489423651E-1   -2.304392425118945E-1    8.073677475092812E-1    2.289918193971251E-1
 1.007629862646662E5     8.086753067453747E-1    2.274452563499175E-1    1.930085883783366E-1   -2.287185262817146E-1    1.936104124443155E-1   -2.291248705022629E-1    8.082398618326317E-1    2.276615619862301E-1
 1.015317940097331E5     8.094889990738005E-1    2.261572954857381E-1    1.921797352426315E-1   -2.274017498497304E-1    1.927450128977993E-1   -2.278218055865762E-1    8.091058470133572E-1    2.263561532732552E-1
 1.023064676522963E5     8.103094614395129E-1    2.248394102792398E-1    1.913272799640623E-1   -2.261056143064527E-1    1.918996968804549E-1   -2.265207999720108E-1    8.099209481935160E-1    2.250684031884636E-1
 1.030870519483485E5     8.111314679816465E-1    2.235384270571709E-1    1.904913262870307E-1   -2.248115911730270E-1    1.910663086420724E-1   -2.252196425130923E-1    8.107337222358783E-1    2.237640226151628E-1
 1.038735919953636E5     8.119476301869618E-1    2.222574777023620E-1    1.896761207940916E-1   -2.235244257993053E-1    1.902322774901480E-1   -2.239255863315988E-1    8.115324661929535E-1    2.224738104559048E-1
 1.046661332349037E5     8.127426855422717E-1    2.209667738624242E-1    1.888596332577737E-1   -2.222464290333687E-1    1.894155986080364E-1   -2.226446672239291E-1    8.123294595955252E-1    2.212021086540362E-1
 1.054647214552430E5     8.135101829915535E-1    2.196856587971849E-1    1.880527775244632E-1   -2.209671048236356E-1    1.886145708452708E-1   -2.213717245525029E-1    8.131670261873195E-1    2.199419841376068E-1
 1.062694027940149E5     8.143035963817709E-1    2.184268912341911E-1    1.872483727322505E-1   -2.197021896340421E-1    1.878182017594396E-1   -2.200977058900294E-1    8.139426322551953E-1    2.186807004435664E-1
 1.070802237408760E5     8.150902967054934E-1    2.171704801568601E-1    1.864751146075460E-1   -2.184383211824669E-1    1.870391838926597E-1   -2.188405130443489E-1    8.147148650797071E-1    2.174355475638821E-1
 1.078972311401927E5     8.158306582501638E-1    2.159335098494078E-1    1.857035419376431E-1   -2.171909402227422E-1    1.862591560220212E-1   -2.175865500569945E-1    8.154684335273240E-1    2.161603844704308E-1
 1.087204721937475E5     8.166090313208241E-1    2.146895647850192E-1    1.849373222046641E-1   -2.159455345159494E-1    1.854890116099446E-1   -2.163347402636484E-1    8.162290516977243E-1    2.149375848290858E-1
 1.095499944634658E5     8.173567880657295E-1    2.134400078437636E-1    1.841751255557623E-1   -2.146986214022253E-1    1.847279995811247E-1   -2.151009211234651E-1    8.169673175666572E-1    2.136805935086740E-1
 1.103858458741646E5     8.180809206660139E-1    2.122128113617769E-1    1.834279051330546E-1   -2.134635252891668E-1    1.839691183004645E-1   -2.138601214317397E-1    8.177150781220087E-1    2.124668172231288E-1
 1.112280747163201E5     8.188232315582993E-1    2.109818664384366E-1    1.826885257284701E-1   -2.122476606677733E-1    1.832335453010606E-1   -2.126402017454095E-1    8.184512003204106E-1    2.112228618034687E-1
 1.120767296488583E5     8.195443552653355E-1    2.097625281125333E-1    1.819456249871059E-1   -2.110278613123567E-1    1.825009491208598E-1   -2.114157476270340E-1    8.191732336579999E-1    2.100214257854845E-1
 1.129318597019661E5     8.202405712524462E-1    2.085587048910136E-1    1.812305043866650E-1   -2.098198592465747E-1    1.817694677496018E-1   -2.102046672491949E-1    8.198645993929714E-1    2.087877735133853E-1
 1.137935142799240E5     8.209573085345313E-1    2.073689769991144E-1    1.805160802551160E-1   -2.086159557845126E-1    1.810524062696027E-1   -2.090011084070095E-1    8.205895399642247E-1    2.076095555110307E-1
 1.146617431639607E5     8.216626715414452E-1    2.061681614155238E-1    1.798101511625524E-1   -2.074237106424104E-1    1.803539678146198E-1   -2.078071259357740E-1    8.212877537051489E-1    2.064216071882682E-1
 1.155365965151286E5     8.223357110867935E-1    2.049842544292859E-1    1.791240563609298E-1   -2.062304846033566E-1    1.796524644706024E-1   -2.066215365355612E-1    8.219861767513370E-1    2.052305265794760E-1
 1.164181248772018E5     8.230008404757099E-1    2.037966215617481E-1    1.784214371788877E-1   -2.050425690117244E-1    1.789580550104338E-1   -2.054351039327980E-1    8.226703801582050E-1    2.040549363533731E-1
 1.173063791795965E5     8.237020939802492E-1    2.026246262511918E-1    1.777493211419109E-1   -2.038753626526703E-1    1.782830692655230E-1   -2.042585793776546E-1    8.233347904884192E-1    2.028827758579548E-1
 1.182014107403141E5     8.243431200216126E-1    2.014809866114793E-1    1.770797477047704E-1   -2.027074391559574E-1    1.775942151896218E-1   -2.030915656921623E-1    8.239943760565477E-1    2.017164231329467E-1
 1.191032712689044E5     8.250130250077865E-1    2.002974931057962E-1    1.764169698920229E-1   -2.015513475192669E-1    1.769324067585546E-1   -2.019260026381212E-1    8.246923621313733E-1    2.005672339168161E-1
 1.200120128694542E5     8.256407942935475E-1    1.991478911279505E-1    1.757590580469222E-1   -2.004009711142490E-1    1.762693599123255E-1   -2.007749851934475E-1    8.253373982736367E-1    1.994077190985631E-1
 1.209276880435975E5     8.262945808626021E-1    1.980152355257156E-1    1.751051755977910E-1   -1.992511442000884E-1    1.756178873413827E-1   -1.996233070771844E-1    8.259836249168315E-1    1.982742138715826E-1
 1.218503496935483E5     8.269299683248749E-1    1.968865387145441E-1    1.744670582531449E-1   -1.981143810636584E-1    1.749677944257118E-1   -1.984802145104878E-1    8.266065310976831E-1    1.971303873788798E-1
 1.227800511251578E5     8.275587752389819E-1    1.957675992101966E-1    1.738251517467135E-1   -1.969769270698816E-1    1.743229240632055E-1   -1.973532215910016E-1    8.272383729327116E-1    1.959748901964349E-1
 1.237168460509929E5     8.281764973581321E-1    1.946318142418846E-1    1.731953160828341E-1   -1.958612765081147E-1    1.737055484277941E-1   -1.962253160270267E-1    8.278764418277083E-1    1.948822184513067E-1
 1.246607885934402E5     8.287799050534101E-1    1.935033937176857E-1    1.725706803305666E-1   -1.947398793803162E-1    1.730683551116705E-1   -1.951025926412511E-1    8.284865404909977E-1    1.937591747537675E-1
 1.256119332878327E5     8.294148679728874E-1    1.924115910092798E-1    1.719554062662662E-1   -1.936322042337558E-1    1.724557917032452E-1   -1.939933846781081E-1    8.290920765478841E-1    1.926426778391039E-1
 1.265703350856002E5     8.300077577857102E-1    1.913082089754092E-1    1.713475805554650E-1   -1.925226399825370E-1    1.718397034869442E-1   -1.928850251495054E-1    8.297032844321531E-1    1.915491594185529E-1
 1.275360493574453E5     8.306112006003331E-1    1.902053538380985E-1    1.707426844511728E-1   -1.914291518163406E-1    1.712404223174474E-1   -1.917838186080129E-1    8.303110940324334E-1    1.904603802716832E-1
 1.285091318965405E5     8.312017430901480E-1    1.891312175303826E-1    1.701423112744042E-1   -1.903365688573044E-1    1.706491980524680E-1   -1.906986615917696E-1    8.309043670816705E-1    1.893801925902498E-1
 1.294896389217529E5     8.317798343029061E-1    1.880292688466413E-1    1.695527146506658E-1   -1.892505488170997E-1    1.700559248774657E-1   -1.896142449773629E-1    8.314842694924548E-1    1.883057947002696E-1
 1.304776270808914E5     8.323183252374653E-1    1.869588874190356E-1    1.689764889737062E-1   -1.881782588425522E-1    1.694700285198727E-1   -1.885372430011695E-1    8.320480947531840E-1    1.872300090773686E-1
 1.314731534539810E5     8.329120421373308E-1    1.858952163869789E-1    1.684009792459489E-1   -1.871175837161352E-1    1.688932899938895E-1   -1.874702443609912E-1    8.326068919659216E-1    1.861519134282069E-1
 1.324762755565583E5     8.334865066514424E-1    1.848488425249616E-1    1.678396730867572E-1   -1.860579607385177E-1    1.683249782180636E-1   -1.864102645590782E-1    8.332141279979637E-1    1.851158849702192E-1
 1.334870513429962E5     8.340286213681365E-1    1.837953055578179E-1    1.672689702327433E-1   -1.850046319663874E-1    1.677603772352900E-1   -1.853531287469553E-1    8.337436358084578E-1    1.840642699059790E-1
 1.345055392098512E5     8.345911269181878E-1    1.827479737401538E-1    1.667178238975030E-1   -1.839611702712153E-1    1.672040479496792E-1   -1.843059207685215E-1    8.342866742163063E-1    1.830098000117181E-1
 1.355317979992373E5     8.351641771020372E-1    1.817285896779584E-1    1.661716700351238E-1   -1.829277639413344E-1    1.666501021534798E-1   -1.832679705833400E-1    8.348221644570013E-1    1.819697935733903E-1
 1.365658870022265E5     8.356696567665687E-1    1.806820085367297E-1    1.656188453942377E-1   -1.818871963384423E-1    1.660967634668160E-1   -1.822277768301203E-1    8.353422621706290E-1    1.809381511966463E-1
 1.376078659622731E5     8.362231675733758E-1    1.796658805431444E-1    1.650917798396955E-1   -1.808732152925382E-1    1.655580083488362E-1   -1.812062435231343E-1    8.358884351024171E-1    1.799219147573870E-1
 1.386577950786655E5     8.367408875388619E-1    1.786582483665556E-1    1.645511890353130E-1   -1.798516639959536E-1    1.650205877049917E-1   -1.801846486449181E-1    8.364312259531153E-1    1.789028669334617E-1
 1.397157350100044E5     8.372492652758148E-1    1.776462421760748E-1    1.640276743152581E-1   -1.788377615227409E-1    1.644897272531165E-1   -1.791746670234249E-1    8.369599359023069E-1    1.778906510145882E-1
 1.407817468777081E5     8.377830896796309E-1    1.766566138093992E-1    1.635071969940232E-1   -1.778359493327927E-1    1.639709261832913E-1   -1.781709173114163E-1    8.374948826076232E-1    1.769001203947710E-1
 1.418558922695422E5     8.382701034421614E-1    1.756522056658960E-1    1.629800387522445E-1   -1.768380175162999E-1    1.634523684975295E-1   -1.771781524122054E-1    8.380137185046822E-1    1.758850506977215E-1
 1.429382332431784E5     8.387904128106233E-1    1.746818254558310E-1    1.624741698406799E-1   -1.758445061870483E-1    1.629483033241201E-1   -1.761878770632667E-1    8.385013922473401E-1    1.749054564970839E-1
 1.440288323297804E5     8.392918672533812E-1    1.736993714446347E-1    1.619753169798790E-1   -1.748684979786412E-1    1.624309194740219E-1   -1.752029435003323E-1    8.390013822611644E-1    1.739340285416834E-1
 1.451277525376154E5     8.397826671193810E-1    1.727144410807000E-1    1.614697130439412E-1   -1.738998673509090E-1    1.619261271205941E-1   -1.742257704406878E-1    8.395226188068096E-1    1.729642782698711E-1
 1.462350573556962E5     8.402647703726941E-1    1.717289976878727E-1    1.609724261977214E-1   -1.729296786673588E-1    1.614334714235130E-1   -1.732563575784421E-1    8.400432466302251E-1    1.719979467982092E-1
 1.473508107574468E5     8.407598196775301E-1    1.707797826701499E-1    1.604848209004466E-1   -1.719655659061901E-1    1.609384386323221E-1   -1.722909210039664E-1    8.405190394628562E-1    1.710403365797280E-1
 1.484750772044004E5     8.412313253310011E-1    1.698268463380567E-1    1.599969510154673E-1   -1.710127160941316E-1    1.604548738582010E-1   -1.713335715503315E-1    8.409570232796364E-1    1.700831263719844E-1
 1.496079216499225E5     8.417329798178772E-1    1.688835200074310E-1    1.595189277249520E-1   -1.700658595102412E-1    1.599720558498549E-1   -1.703909466358522E-1    8.414194283811410E-1    1.691325856144668E-1
 1.507494095429637E5     8.422095458071277E-1    1.679538651391037E-1    1.590389985982675E-1   -1.691224412815695E-1    1.594878748755668E-1   -1.694467484763613E-1    8.418809412621351E-1    1.681738965344031E-1
 1.518996068318418E5     8.426845024537749E-1    1.670340378125951E-1    1.585630731225877E-1   -1.681859150864836E-1    1.590255059843313E-1   -1.685151304425915E-1    8.424142592523582E-1    1.672571013110414E-1
 1.530585799680507E5     8.431138096385917E-1    1.661008659531592E-1    1.580970294896220E-1   -1.672516789273713E-1    1.585501061272841E-1   -1.675833450871011E-1    8.428729931255140E-1    1.663166681199898E-1
 1.542263959101001E5     8.435751079023550E-1    1.651618089566087E-1    1.576310748286634E-1   -1.663382348795871E-1    1.580910463707081E-1   -1.666674888271896E-1    8.433072401073490E-1    1.654004628729837E-1
 1.554031221273835E5     8.440559437632572E-1    1.642642209832786E-1    1.571760292702217E-1   -1.654268150470775E-1    1.576278031668863E-1   -1.657451490899202E-1    8.437514487488380E-1    1.644806324182944E-1
 1.565888266040779E5     8.444986536925760E-1    1.633702147385281E-1    1.567246452787690E-1   -1.645147921801108E-1    1.571783440002567E-1   -1.648399756439444E-1    8.442201886986220E-1    1.635760324823457E-1
 1.577835778430689E5     8.449617288235789E-1    1.624788106300030E-1    1.562789694868210E-1   -1.636203222128474E-1    1.567240766793217E-1   -1.639400128086836E-1    8.446802901212785E-1    1.626757423291612E-1
 1.589874448699104E5     8.453774760143017E-1    1.615891314841887E-1    1.558303774763909E-1   -1.627281186168618E-1    1.562861016110379E-1   -1.630489893370999E-1    8.451395138951688E-1    1.617798439254909E-1
 1.602004972368116E5     8.458387297307047E-1    1.607092146877410E-1    1.553858675919907E-1   -1.618415902321327E-1    1.558417745917196E-1   -1.621672445227703E-1    8.455973685932848E-1    1.609013891260551E-1
 1.614228050266550E5     8.462880835267598E-1    1.598211019980303E-1    1.549581124845927E-1   -1.609673032031689E-1    1.554023197535820E-1   -1.612821043448471E-1    8.460287560346664E-1    1.600249444222598E-1
 1.626544388570473E5     8.467122694907276E-1    1.589480241344929E-1    1.545256175384800E-1   -1.600927829867643E-1    1.549703381233463E-1   -1.604081924779564E-1    8.464243758636906E-1    1.591483425045493E-1
 1.638954698843964E5     8.471381548706638E-1    1.580950397458813E-1    1.540903196814844E-1   -1.592219849997578E-1    1.545349017175103E-1   -1.595415076389799E-1    8.468512617574060E-1    1.582851395616012E-1
 1.651459698080244E5     8.475470521795408E-1    1.572330119360501E-1    1.536715413333653E-1   -1.583657830803772E-1    1.541168468782705E-1   -1.586816254955281E-1    8.472676791227007E-1    1.574400054169700E-1
 1.664060108743095E5     8.479600941281654E-1    1.563610227961029E-1    1.532518372582429E-1   -1.575155942791009E-1    1.536907981284886E-1   -1.578268155989055E-1    8.477003777546803E-1    1.565807869283992E-1
 1.676756658808590E5     8.483540398881116E-1    1.555189315341712E-1    1.528342344076303E-1   -1.566643971981684E-1    1.532706027687847E-1   -1.569751384454320E-1    8.481026958528575E-1    1.557328974241600E-1
 1.689550081807175E5     8.487795753979157E-1    1.546679037192411E-1    1.524181891400885E-1   -1.558358080355094E-1    1.528580045921493E-1   -1.561347251086958E-1    8.485165194257639E-1    1.548868714526152E-1
 1.702441116866020E5     8.491873166956974E-1    1.538380846893081E-1    1.520094781075533E-1   -1.549939132068754E-1    1.524447113295258E-1   -1.553067638265597E-1    8.489226158250945E-1    1.540710659764462E-1
 1.715430508751738E5     8.496005696342013E-1    1.530068570740663E-1    1.516007139674220E-1   -1.541695826432384E-1    1.520403024603633E-1   -1.544733650523664E-1    8.493291287257864E-1    1.532322256865115E-1
 1.728519007913403E5     8.499792019738517E-1    1.521938046600470E-1    1.511932797706723E-1   -1.533434336935887E-1    1.516374640783023E-1   -1.536450233426785E-1    8.497449903486940E-1    1.524170217553803E-1
 1.741707370525927E5     8.503872585958019E-1    1.513858329055245E-1    1.508009569032245E-1   -1.525333455593119E-1    1.512276096157201E-1   -1.528367347474897E-1    8.501482441940088E-1    1.516014393119830E-1
 1.754996358533718E5     8.508149530460792E-1    1.505848992554011E-1    1.504046329961908E-1   -1.517239907541274E-1    1.508365486406708E-1   -1.520269899855395E-1    8.505084264941462E-1    1.507890158825224E-1
 1.768386739694722E5     8.511797486311647E-1    1.497680971029678E-1    1.500138454935491E-1   -1.509268528574437E-1    1.504397344671893E-1   -1.512232220561319E-1    8.509430816918027E-1    1.500091492012688E-1
 1.781879287624771E5     8.515504924438689E-1    1.489707592653760E-1    1.496226115632840E-1   -1.501356355424145E-1    1.500478592561261E-1   -1.504288654548100E-1    8.513177996340362E-1    1.491962434871952E-1
 1.795474781842276E5     8.519412786998004E-1    1.481944360727566E-1    1.492294843138268E-1   -1.493377209870196E-1    1.496461184823316E-1   -1.496313079278731E-1    8.516712029772373E-1    1.484056455735057E-1
 1.809174007813277E5     8.523191677350554E-1    1.473928228765988E-1    1.488409335377406E-1   -1.485558543470255E-1    1.492624589755712E-1   -1.488494203097460E-1    8.520472204561983E-1    1.476253567195952E-1
 1.822977756996804E5     8.526933006432565E-1    1.466364695433071E-1    1.484634455919750E-1   -1.477818533829606E-1    1.488818415573507E-1   -1.480662302404507E-1    8.524192640744165E-1    1.468587406830285E-1
 1.836886826890609E5     8.530790357923873E-1    1.458691118115356E-1    1.480902125829056E-1   -1.470093537782823E-1    1.484969749070829E-1   -1.472889513787704E-1    8.528064504989203E-1    1.460681480695872E-1
 1.850902021077247E5     8.534630348650194E-1    1.451101701456060E-1    1.477192725978271E-1   -1.462465987624794E-1    1.481288049456175E-1   -1.465328474514630E-1    8.531981645670212E-1    1.453049901658969E-1
 1.865024149270491E5     8.538362117193911E-1    1.443512372181242E-1    1.473497188355946E-1   -1.454951747234543E-1    1.477585615833351E-1   -1.457759577246581E-1    8.535861055887227E-1    1.445608495195307E-1
 1.879254027362132E5     8.541932860661701E-1    1.435769688420635E-1    1.469738719091300E-1   -1.447410152997948E-1    1.473927226072740E-1   -1.450250429357348E-1    8.539733026562919E-1    1.438118933578315E-1
 1.893592477469092E5     8.545963630083956E-1    1.428033421021062E-1    1.466078979356557E-1   -1.440032400064456E-1    1.470133610386271E-1   -1.442907109762298E-1    8.543388309825424E-1    1.430248002670917E-1
 1.908040327980933E5     8.549290848222764E-1    1.421186993690287E-1    1.462469573406831E-1   -1.432566355154148E-1    1.466571912771719E-1   -1.435384122253717E-1    8.546980368275402E-1    1.423263983962533E-1
 1.922598413607715E5     8.552747666356887E-1    1.413580488167323E-1    1.458836759312898E-1   -1.425240052021894E-1    1.462923038896367E-1   -1.428034260873448E-1    8.550702097639705E-1    1.415802941150600E-1
 1.937267575428232E5     8.556162655390697E-1    1.406301756980808E-1    1.455192647812357E-1   -1.417880446634256E-1    1.459431402318726E-1   -1.420754677043319E-1    8.554365943482194E-1    1.408618704542020E-1
 1.952048660938581E5     8.559840495860088E-1    1.399156936865169E-1    1.451685644250162E-1   -1.410768833456539E-1    1.455756371199488E-1   -1.413516876878670E-1    8.557555299828129E-1    1.401256432519134E-1
 1.966942524101142E5     8.563315182283417E-1    1.391971919888838E-1    1.448121515590078E-1   -1.403592773162014E-1    1.452194897263449E-1   -1.406342824038223E-1    8.561130567795815E-1    1.394034693500291E-1
 1.981950025393913E5     8.566639477317129E-1    1.385041436076772E-1    1.444674758002608E-1   -1.396448898562756E-1    1.448732837095436E-1   -1.399188868330283E-1    8.564586316028304E-1    1.387034937882081E-1
