#  HZ   S   RI   R     50.00 
! Rohde & Schwarz Vector Network Analyzer 
! Rohde-Schwarz,ZNLE6-2Port,1323001256200024,1.71.1.10-23.02.1.238
! Created: UTC 4/7/2025, 9:19:17 AM
! freq[Hz]                re:S11                  im:S11                  re:S21                  im:S21                  re:S12                  im:S12                  re:S22                  im:S22
 1.000000000000000E5     8.566562407394128E-1    1.915843271012009E-1    1.446701919774334E-1   -1.927399773571617E-1    1.451301714712930E-1   -1.931308466935854E-1    8.563325522617891E-1    1.917898098804384E-1
 1.007629862646662E5     8.572758627948709E-1    1.903796943606821E-1    1.440744231977942E-1   -1.915724980248219E-1    1.445376071219632E-1   -1.919524631004942E-1    8.569136930146589E-1    1.906113037177282E-1
 1.015317940097331E5     8.578282871409282E-1    1.892145060015820E-1    1.434949967312080E-1   -1.903996395706535E-1    1.439366870752925E-1   -1.907797447249553E-1    8.575002978663963E-1    1.894406697089236E-1
 1.023064676522963E5     8.583974078828738E-1    1.880493802970340E-1    1.429151364622913E-1   -1.892401962896460E-1    1.433517574678542E-1   -1.896186256245315E-1    8.580620587683596E-1    1.882789078907985E-1
 1.030870519483485E5     8.589520465698147E-1    1.868791730793848E-1    1.423349126194502E-1   -1.880843180866539E-1    1.427802416477032E-1   -1.884628318432240E-1    8.586260574039429E-1    1.871227467017956E-1
 1.038735919953636E5     8.595001122604022E-1    1.857424085019750E-1    1.417727602316703E-1   -1.869382957480667E-1    1.422049677472494E-1   -1.873070071879762E-1    8.591852668791125E-1    1.859957199167552E-1
 1.046661332349037E5     8.600454201691565E-1    1.846017253466140E-1    1.412141564110826E-1   -1.857986343778781E-1    1.416483715282925E-1   -1.861726025216043E-1    8.597298563734143E-1    1.848438762043574E-1
 1.054647214552430E5     8.605793582030947E-1    1.834789228877710E-1    1.406580882535159E-1   -1.846641567590322E-1    1.410939956452978E-1   -1.850349374653554E-1    8.602943037503397E-1    1.837316675930236E-1
 1.062694027940149E5     8.611183535956836E-1    1.823570690512228E-1    1.401128686163401E-1   -1.835424182400465E-1    1.405483365425616E-1   -1.839067650012724E-1    8.608381739704579E-1    1.826061178584842E-1
 1.070802237408760E5     8.616660237917507E-1    1.812353139328907E-1    1.395739196199592E-1   -1.824199135033964E-1    1.400056323039106E-1   -1.827909723797297E-1    8.613594511743388E-1    1.815058612334019E-1
 1.078972311401927E5     8.621918386268190E-1    1.801350320902166E-1    1.390524321071689E-1   -1.813156901956879E-1    1.394725321813778E-1   -1.816788426990921E-1    8.618698373953960E-1    1.803812858599924E-1
 1.087204721937475E5     8.626858372028549E-1    1.790324094508748E-1    1.385168437300075E-1   -1.802149979536432E-1    1.389441214215496E-1   -1.805676277831315E-1    8.623877577046899E-1    1.793137747012524E-1
 1.095499944634658E5     8.632222486300088E-1    1.779145720441771E-1    1.379975451400288E-1   -1.791148152663519E-1    1.384192229443889E-1   -1.794753296910147E-1    8.628837795232717E-1    1.781845902014708E-1
 1.103858458741646E5     8.636860954753560E-1    1.768480214288940E-1    1.374788793381524E-1   -1.780290166125207E-1    1.379007980893852E-1   -1.783873818522309E-1    8.634357245291742E-1    1.771071096262531E-1
 1.112280747163201E5     8.641889214823302E-1    1.757800082219388E-1    1.369688327394335E-1   -1.769456280643432E-1    1.373925913977314E-1   -1.773056437382016E-1    8.639343694243669E-1    1.760483740859769E-1
 1.120767296488583E5     8.646838794059852E-1    1.747008717274209E-1    1.364671348823228E-1   -1.758706251675402E-1    1.368872278321137E-1   -1.762329959329323E-1    8.644354851066699E-1    1.749654111958166E-1
 1.129318597019661E5     8.651760934897209E-1    1.736207795052997E-1    1.359776157217840E-1   -1.748097541378192E-1    1.363870602902975E-1   -1.751576690682754E-1    8.648967155431615E-1    1.738842413289878E-1
 1.137935142799240E5     8.656903685446815E-1    1.725736431708527E-1    1.354857134262667E-1   -1.737512840307979E-1    1.358963019372202E-1   -1.741022212604390E-1    8.653979154801050E-1    1.728469220195979E-1
 1.146617431639607E5     8.661556593117540E-1    1.715361787841306E-1    1.350025576663165E-1   -1.726986895870761E-1    1.354136928387570E-1   -1.730535752973978E-1    8.658835488324582E-1    1.718010422571154E-1
 1.155365965151286E5     8.666296388110233E-1    1.705041228779281E-1    1.345295754378264E-1   -1.716564906014771E-1    1.349355165907170E-1   -1.720056336624061E-1    8.663371625097933E-1    1.707559213651424E-1
 1.164181248772018E5     8.670779918200482E-1    1.694515983996848E-1    1.340563796990704E-1   -1.706154695809663E-1    1.344586521330108E-1   -1.709644176298989E-1    8.668045751664776E-1    1.697210870653215E-1
 1.173063791795965E5     8.675619520436670E-1    1.684314205611420E-1    1.335909002228735E-1   -1.695863761754724E-1    1.339967529692910E-1   -1.699373559736138E-1    8.672902516451381E-1    1.687024270819511E-1
 1.182014107403141E5     8.679986651860545E-1    1.674132659066019E-1    1.331313369563241E-1   -1.685699560960867E-1    1.335349443434495E-1   -1.689198738617623E-1    8.677570516270950E-1    1.676842815741605E-1
 1.191032712689044E5     8.684664444816103E-1    1.663918469589524E-1    1.326762577780398E-1   -1.675589962238210E-1    1.330722745300045E-1   -1.678935450223049E-1    8.682090233828974E-1    1.666759873774340E-1
 1.200120128694542E5     8.688567238872030E-1    1.653940599084411E-1    1.322212666213743E-1   -1.665513547256763E-1    1.326174273160544E-1   -1.668853709309051E-1    8.686485644367012E-1    1.656557142351978E-1
 1.209276880435975E5     8.693066585293016E-1    1.644090979008258E-1    1.317755447076736E-1   -1.655422226237617E-1    1.321744863532547E-1   -1.658753140695512E-1    8.690934933184898E-1    1.646710970040404E-1
 1.218503496935483E5     8.697469396709853E-1    1.634144175252447E-1    1.313411248726803E-1   -1.645520117928872E-1    1.317282876784291E-1   -1.648843066455071E-1    8.695249561065115E-1    1.636730105955588E-1
 1.227800511251578E5     8.701909707820090E-1    1.624323717455063E-1    1.309000750346289E-1   -1.635672208743877E-1    1.312873924640651E-1   -1.638986890248913E-1    8.699646403952548E-1    1.626777134131076E-1
 1.237168460509929E5     8.706159547776141E-1    1.614472653144360E-1    1.304751068306177E-1   -1.625840550785659E-1    1.308624042420499E-1   -1.629147910372753E-1    8.704002923638795E-1    1.617096288061654E-1
 1.246607885934402E5     8.710079136650376E-1    1.604656424637322E-1    1.300420056170146E-1   -1.616097945752942E-1    1.304264816324727E-1   -1.619350324914849E-1    8.708111531418000E-1    1.607395582561500E-1
 1.256119332878327E5     8.714534239199303E-1    1.595242888875320E-1    1.296158016115443E-1   -1.606469268717329E-1    1.300082177229502E-1   -1.609718333360207E-1    8.712177868923899E-1    1.597709294378945E-1
 1.265703350856002E5     8.718593896808544E-1    1.585580862253788E-1    1.292074950763279E-1   -1.596857918091925E-1    1.295886726903922E-1   -1.600094927443249E-1    8.716549698237895E-1    1.588159227194640E-1
 1.275360493574453E5     8.722691275112280E-1    1.575949483312060E-1    1.287876266960301E-1   -1.587343935273199E-1    1.291792952895999E-1   -1.590534686021912E-1    8.720877073305676E-1    1.578738835389563E-1
 1.285091318965405E5     8.726761790600679E-1    1.566719682825830E-1    1.283763966740243E-1   -1.577875473338458E-1    1.287652317672367E-1   -1.581099252044891E-1    8.724782954015931E-1    1.569270734508212E-1
 1.294896389217529E5     8.730515266659832E-1    1.557112520135647E-1    1.279706471169800E-1   -1.568472884349293E-1    1.283637012817897E-1   -1.571699656596205E-1    8.728752768997226E-1    1.559895422958448E-1
 1.304776270808914E5     8.734527720010412E-1    1.547935295873275E-1    1.275825017337608E-1   -1.559173941672672E-1    1.279647918784703E-1   -1.562405970190265E-1    8.732894282664798E-1    1.550690044020511E-1
 1.314731534539810E5     8.738429754221776E-1    1.538683827926911E-1    1.271896944721679E-1   -1.549922804654974E-1    1.275705400191755E-1   -1.553114537979720E-1    8.736347439532060E-1    1.541288345618715E-1
 1.324762755565583E5     8.742292279808856E-1    1.529485036886803E-1    1.268021512003513E-1   -1.540753336210433E-1    1.271764827810904E-1   -1.543910669177409E-1    8.740412956220818E-1    1.532247726338658E-1
 1.334870513429962E5     8.746207351535266E-1    1.520454353204828E-1    1.264137581497106E-1   -1.531677921556236E-1    1.267920702151732E-1   -1.534815718525098E-1    8.744407097258052E-1    1.523166808697938E-1
 1.345055392098512E5     8.749833107012838E-1    1.511329826267029E-1    1.260285676568985E-1   -1.522640681901301E-1    1.264147739039886E-1   -1.525733370095450E-1    8.748291010873330E-1    1.514085182849866E-1
 1.355317979992373E5     8.753557798295868E-1    1.502479652917959E-1    1.256537180233602E-1   -1.513692941477318E-1    1.260329837569331E-1   -1.516762736093365E-1    8.751902313592191E-1    1.505371314377189E-1
 1.365658870022265E5     8.757167085881510E-1    1.493468005459136E-1    1.252767988281338E-1   -1.504716312882932E-1    1.256562726874019E-1   -1.507795579244057E-1    8.755408463733420E-1    1.496302652392485E-1
 1.376078659622731E5     8.761186047515261E-1    1.484640718993732E-1    1.249163599614146E-1   -1.495938612248910E-1    1.252803972807323E-1   -1.498979588284301E-1    8.759258544150581E-1    1.487472854189912E-1
 1.386577950786655E5     8.764669211517800E-1    1.476043937420247E-1    1.245552811082542E-1   -1.487180243140331E-1    1.249150829565514E-1   -1.490184437564531E-1    8.762972784786470E-1    1.478649063399465E-1
 1.397157350100044E5     8.768193617243524E-1    1.467369957604936E-1    1.241927334057444E-1   -1.478395287675854E-1    1.245492873909255E-1   -1.481414733992433E-1    8.766312870881687E-1    1.469950636139607E-1
 1.407817468777081E5     8.771864544558650E-1    1.458788060542018E-1    1.238287468072665E-1   -1.469826616833417E-1    1.241931824349297E-1   -1.472780115107015E-1    8.770182057518677E-1    1.461265523278016E-1
 1.418558922695422E5     8.775089835119682E-1    1.450290593284402E-1    1.234769771455103E-1   -1.461201312688231E-1    1.238342644000155E-1   -1.464185649217075E-1    8.773419102042131E-1    1.452581083765680E-1
 1.429382332431784E5     8.778720810566141E-1    1.441706714411663E-1    1.231239825673293E-1   -1.452695318347326E-1    1.234885782475210E-1   -1.455668199909090E-1    8.776827761124332E-1    1.444145533405574E-1
 1.440288323297804E5     8.782135926350129E-1    1.433427347997806E-1    1.227843280756410E-1   -1.444279480645982E-1    1.231375727680472E-1   -1.447215909889893E-1    8.780236177304617E-1    1.435731235619833E-1
 1.451277525376154E5     8.785593945472348E-1    1.424931273847322E-1    1.224319764357859E-1   -1.435909943013416E-1    1.227881254249310E-1   -1.438785401983067E-1    8.783762143899037E-1    1.427438570144170E-1
 1.462350573556962E5     8.788880306546283E-1    1.416624709760374E-1    1.220949904778842E-1   -1.427611096231091E-1    1.224446726835080E-1   -1.430468191049230E-1    8.787076333080794E-1    1.419073458134134E-1
 1.473508107574468E5     8.792129159336974E-1    1.408462714293947E-1    1.217581098325121E-1   -1.419308166005456E-1    1.221116676519871E-1   -1.422189603746951E-1    8.790486327895557E-1    1.410888474939595E-1
 1.484750772044004E5     8.795511024743933E-1    1.400176682748337E-1    1.214268795063242E-1   -1.411166232424358E-1    1.217797788236162E-1   -1.414011630546106E-1    8.793644707879713E-1    1.402774144011187E-1
 1.496079216499225E5     8.798928554186620E-1    1.392081799183655E-1    1.210904763748728E-1   -1.403017697728873E-1    1.214516332307134E-1   -1.405902800165653E-1    8.797121879491848E-1    1.394640088241252E-1
 1.507494095429637E5     8.802168251027215E-1    1.384192305106479E-1    1.207622059179218E-1   -1.394909468957898E-1    1.211171504810383E-1   -1.397780679025810E-1    8.800360410044989E-1    1.386649480879811E-1
 1.518996068318418E5     8.805389363641882E-1    1.376150792374564E-1    1.204345871658133E-1   -1.386902495786103E-1    1.207953296962758E-1   -1.389812423687871E-1    8.803605213303759E-1    1.378523466308205E-1
 1.530585799680507E5     8.808529583222602E-1    1.368228857401438E-1    1.201166075631063E-1   -1.378932565637284E-1    1.204640376301224E-1   -1.381840910951492E-1    8.806832085582238E-1    1.370529457266832E-1
 1.542263959101001E5     8.811583118802540E-1    1.360150527582369E-1    1.197939943860972E-1   -1.371075979356493E-1    1.201494266637765E-1   -1.373979013154953E-1    8.810019278475523E-1    1.362724151268211E-1
 1.554031221273835E5     8.814918355167713E-1    1.352438760475682E-1    1.194800428554924E-1   -1.363258613608141E-1    1.198277781261439E-1   -1.366131532451844E-1    8.812946483277180E-1    1.354880759916602E-1
 1.565888266040779E5     8.818192994073273E-1    1.344936702287198E-1    1.191741098340082E-1   -1.355523592891890E-1    1.195165672326247E-1   -1.358346779985580E-1    8.816137099948056E-1    1.347119543584638E-1
 1.577835778430689E5     8.821471757916397E-1    1.337184142250748E-1    1.188659331609537E-1   -1.347878654189893E-1    1.192062698357898E-1   -1.350647699134604E-1    8.819350173315316E-1    1.339437040632037E-1
 1.589874448699104E5     8.824154901783321E-1    1.329594351823241E-1    1.185548930352729E-1   -1.340197329370532E-1    1.188983295969823E-1   -1.343002097346110E-1    8.822332815627107E-1    1.331638078114278E-1
 1.602004972368116E5     8.827521118915747E-1    1.322147743703766E-1    1.182506004753255E-1   -1.332658229026237E-1    1.185979227039430E-1   -1.335470518986265E-1    8.825599881946874E-1    1.324177769132592E-1
 1.614228050266550E5     8.830540854952613E-1    1.314560174056541E-1    1.179532552954341E-1   -1.325170248280641E-1    1.182922245121923E-1   -1.327911247860646E-1    8.828455261483745E-1    1.316581930559091E-1
 1.626544388570473E5     8.833423790956692E-1    1.307099061983343E-1    1.176505734913267E-1   -1.317712480272944E-1    1.179917102911837E-1   -1.320463386382773E-1    8.831323997734801E-1    1.309225561664190E-1
 1.638954698843964E5     8.836317866014232E-1    1.299809571800535E-1    1.173482743082241E-1   -1.310272105186478E-1    1.176935242365154E-1   -1.313087296129230E-1    8.834485729234600E-1    1.301808415164647E-1
 1.651459698080244E5     8.839359581540694E-1    1.292321172688251E-1    1.170590866586334E-1   -1.303012058125158E-1    1.174029707482202E-1   -1.305756474776886E-1    8.837373200640326E-1    1.294468118110171E-1
 1.664060108743095E5     8.842199236068374E-1    1.285112381619095E-1    1.167716637108053E-1   -1.295695395658816E-1    1.171084967346412E-1   -1.298510966350568E-1    8.840349551981018E-1    1.287138018621634E-1
 1.676756658808590E5     8.845110394268844E-1    1.277841146813019E-1    1.164823250861482E-1   -1.288508156684081E-1    1.168217078677260E-1   -1.291206318073615E-1    8.843035213897670E-1    1.280074346241455E-1
 1.689550081807175E5     8.847972338526863E-1    1.270753271858487E-1    1.161976122097164E-1   -1.281422372203903E-1    1.165359126551294E-1   -1.284100003833742E-1    8.846143817199655E-1    1.272770902223171E-1
 1.702441116866020E5     8.850734197051146E-1    1.263511852825989E-1    1.159061641487928E-1   -1.274250885315053E-1    1.162465883810239E-1   -1.276985675144242E-1    8.848840950794669E-1    1.265925162951844E-1
 1.715430508751738E5     8.853518902320809E-1    1.256551168793326E-1    1.156249764276749E-1   -1.267223849025784E-1    1.159603696111214E-1   -1.269905215677759E-1    8.851770076733182E-1    1.258870960183406E-1
 1.728519007913403E5     8.856283856604761E-1    1.249720669627509E-1    1.153455389677559E-1   -1.260242351654374E-1    1.156805544800755E-1   -1.262886508942562E-1    8.854489925616505E-1    1.251846358583210E-1
 1.741707370525927E5     8.859047399120287E-1    1.242754303285546E-1    1.150695931961740E-1   -1.253325479743944E-1    1.153981124136015E-1   -1.255969979658462E-1    8.857346721051684E-1    1.244859764091785E-1
 1.754996358533718E5     8.861910062526877E-1    1.235821838697435E-1    1.147945828238223E-1   -1.246406553187836E-1    1.151265211752935E-1   -1.249132277913379E-1    8.859862825876276E-1    1.237903128609210E-1
 1.768386739694722E5     8.864375599479062E-1    1.228897567910044E-1    1.145180289648642E-1   -1.239645284751560E-1    1.148502962294014E-1   -1.242314371696431E-1    8.863143281328784E-1    1.231394886062357E-1
 1.781879287624771E5     8.867168528278933E-1    1.222112942381115E-1    1.142499951872941E-1   -1.232935193502807E-1    1.145778033020742E-1   -1.235543872748051E-1    8.865679205311514E-1    1.224631640488407E-1
 1.795474781842276E5     8.869762126210903E-1    1.215540954463118E-1    1.139759864556434E-1   -1.226160916876569E-1    1.142949350187564E-1   -1.228765879167330E-1    8.867958017857470E-1    1.217782396970244E-1
 1.809174007813277E5     8.872913424123896E-1    1.208829625762063E-1    1.137126230103846E-1   -1.219577816637182E-1    1.140304986643567E-1   -1.222142666709851E-1    8.870662496484859E-1    1.211064898670307E-1
 1.822977756996804E5     8.875414642226527E-1    1.202254400685507E-1    1.134422047248887E-1   -1.213002436176171E-1    1.137652550861006E-1   -1.215522228053086E-1    8.873228030807329E-1    1.204564284968416E-1
 1.836886826890609E5     8.877752192425438E-1    1.195811992926774E-1    1.131852186682463E-1   -1.206455239736189E-1    1.134922471880001E-1   -1.208911104439362E-1    8.876079667314201E-1    1.197871268415368E-1
 1.850902021077247E5     8.880549033565983E-1    1.189224060346429E-1    1.129251028851553E-1   -1.200007045474778E-1    1.132329512707277E-1   -1.202449882322854E-1    8.878401133851267E-1    1.191403190840358E-1
 1.865024149270491E5     8.883068510849380E-1    1.182931392066489E-1    1.126653438875747E-1   -1.193545681921484E-1    1.129712111807564E-1   -1.196000150891131E-1    8.881159475689920E-1    1.185089763773138E-1
 1.879254027362132E5     8.885766161217624E-1    1.176536376944126E-1    1.124008858247938E-1   -1.187143164587663E-1    1.127168684481156E-1   -1.189700565196254E-1    8.883938763030029E-1    1.178571491307192E-1
 1.893592477469092E5     8.888659814539364E-1    1.169637382842968E-1    1.121333702745136E-1   -1.180898436277142E-1    1.124665778509107E-1   -1.183193040054040E-1    8.886662639046509E-1    1.172371788694071E-1
 1.908040327980933E5     8.890653233026011E-1    1.163968839806068E-1    1.118896350263636E-1   -1.174540733196863E-1    1.122003744016883E-1   -1.177032000246159E-1    8.888994256758314E-1    1.166078611729853E-1
 1.922598413607715E5     8.893089033842138E-1    1.157603105032581E-1    1.116325954501712E-1   -1.168380750048991E-1    1.119411251695007E-1   -1.170783415939250E-1    8.891681968579069E-1    1.159772651833650E-1
 1.937267575428232E5     8.895378749617294E-1    1.151380004234661E-1    1.113744875256791E-1   -1.162168423609725E-1    1.116942765188563E-1   -1.164635434803496E-1    8.894143338661673E-1    1.153687867369949E-1
 1.952048660938581E5     8.897964283212144E-1    1.145394399894641E-1    1.111326239669603E-1   -1.156120053113800E-1    1.114413036590723E-1   -1.158558656726381E-1    8.896437257590865E-1    1.147398331605401E-1
 1.966942524101142E5     8.900549800874086E-1    1.139218640317599E-1    1.108776539802906E-1   -1.150039635805267E-1    1.111975853555257E-1   -1.152442462227824E-1    8.899094508964590E-1    1.141409386352298E-1
 1.981950025393913E5     8.902719746244755E-1    1.133341076534638E-1    1.106369678421574E-1   -1.144012281526801E-1    1.109433721627634E-1   -1.146413469872877E-1    8.901217544220396E-1    1.135358772871965E-1
