#  HZ   S   RI   R     50.00 
! Rohde & Schwarz Vector Network Analyzer 
! Rohde-Schwarz,ZNLE6-2Port,1323001256200024,1.71.1.10-23.02.1.238
! Created: UTC 4/7/2025, 9:08:39 AM
! freq[Hz]                re:S11                  im:S11                  re:S21                  im:S21                  re:S12                  im:S12                  re:S22                  im:S22
 1.000000000000000E5     8.899497444632375E-1    1.603870788584896E-1    1.111090161492778E-1   -1.614079702143031E-1    1.114604092975285E-1   -1.617474495730336E-1    8.896844122910348E-1    1.605355214180024E-1
 1.007629862646662E5     8.903629084111864E-1    1.593341915081115E-1    1.106936104438647E-1   -1.603863375648169E-1    1.110478275909321E-1   -1.607201536654854E-1    8.900947954322318E-1    1.595175310231815E-1
 1.015317940097331E5     8.907404298400198E-1    1.583168029963714E-1    1.102921859352914E-1   -1.593719178680894E-1    1.106316221520434E-1   -1.597051690626868E-1    8.904867998691947E-1    1.584894108532379E-1
 1.023064676522963E5     8.911401050620887E-1    1.573134029589798E-1    1.098887429363815E-1   -1.583670885020231E-1    1.102282869026091E-1   -1.586972120202310E-1    8.908982669221858E-1    1.574876665843677E-1
 1.030870519483485E5     8.915167198794913E-1    1.563053991226324E-1    1.094848850205389E-1   -1.573645750350456E-1    1.098347223939165E-1   -1.576890260242678E-1    8.912921295940377E-1    1.565004124267841E-1
 1.038735919953636E5     8.919315000960665E-1    1.553056481260724E-1    1.090956883546012E-1   -1.563724797590513E-1    1.094330935813719E-1   -1.566919137943689E-1    8.916887640760558E-1    1.555080158854938E-1
 1.046661332349037E5     8.922902906453949E-1    1.543223162011074E-1    1.087053909696894E-1   -1.553820713521827E-1    1.090390537174268E-1   -1.557044406809301E-1    8.920428680087107E-1    1.545230226885787E-1
 1.054647214552430E5     8.926547602334567E-1    1.533277043097485E-1    1.083152214727622E-1   -1.544010938632115E-1    1.086539881113571E-1   -1.547191312058876E-1    8.924526613065786E-1    1.535423790155330E-1
 1.062694027940149E5     8.930346711436370E-1    1.523635273641458E-1    1.079348939588099E-1   -1.534236309877214E-1    1.082748860549092E-1   -1.537398252059577E-1    8.928095304251066E-1    1.525799824496148E-1
 1.070802237408760E5     8.934152690945526E-1    1.513940268556720E-1    1.075584505876432E-1   -1.524546351124421E-1    1.079027727637172E-1   -1.527762579503963E-1    8.931865595747183E-1    1.516078516324058E-1
 1.078972311401927E5     8.937973752833817E-1    1.504404907016014E-1    1.071920583491148E-1   -1.515035474347830E-1    1.075324130415703E-1   -1.518187530169654E-1    8.935589530853528E-1    1.506561314586310E-1
 1.087204721937475E5     8.941399703247436E-1    1.494975910174097E-1    1.068272931540642E-1   -1.505520720106107E-1    1.071608067045453E-1   -1.508586518735671E-1    8.939212094782859E-1    1.497096497866670E-1
 1.095499944634658E5     8.944980625437259E-1    1.485398924431777E-1    1.064652801410405E-1   -1.496009946782046E-1    1.067988696927644E-1   -1.499138942076495E-1    8.942385097230748E-1    1.487651911788273E-1
 1.103858458741646E5     8.948529929543896E-1    1.476152906965562E-1    1.061046822369248E-1   -1.486630607200592E-1    1.064380868778344E-1   -1.489686563170290E-1    8.946041131425628E-1    1.478385265994061E-1
 1.112280747163201E5     8.951796598630166E-1    1.466755675681657E-1    1.057502767709365E-1   -1.477327790851333E-1    1.060812358870032E-1   -1.480403077367309E-1    8.949538814483388E-1    1.468902689860106E-1
 1.120767296488583E5     8.955275533173763E-1    1.457582184958286E-1    1.053986322493542E-1   -1.467995940777455E-1    1.057297338962742E-1   -1.471106082254165E-1    8.952930016530073E-1    1.459606693432826E-1
 1.129318597019661E5     8.958628027103221E-1    1.448357498254403E-1    1.050601255976633E-1   -1.458895668748501E-1    1.053829508448763E-1   -1.461867924274759E-1    8.956008311540367E-1    1.450362541652694E-1
 1.137935142799240E5     8.962140054879691E-1    1.439302659557099E-1    1.047180746856860E-1   -1.449793055980325E-1    1.050364411140738E-1   -1.452757588864185E-1    8.959390870232500E-1    1.441332915861327E-1
 1.146617431639607E5     8.965515659296579E-1    1.430145775299513E-1    1.043820353982424E-1   -1.440725495540446E-1    1.047041521872850E-1   -1.443731983825139E-1    8.962983429359371E-1    1.432376088064615E-1
 1.155365965151286E5     8.968409063793594E-1    1.421350055753512E-1    1.040536245819103E-1   -1.431718268731484E-1    1.043685312211547E-1   -1.434735705412357E-1    8.966306732328507E-1    1.423483417109819E-1
 1.164181248772018E5     8.971599739817721E-1    1.412415653548246E-1    1.037234807622394E-1   -1.422781300747226E-1    1.040368708478429E-1   -1.425769838123231E-1    8.969591573128372E-1    1.414538849214720E-1
 1.173063791795965E5     8.974881237460289E-1    1.403588080825175E-1    1.033983244392866E-1   -1.413897366675129E-1    1.037214282652962E-1   -1.416967943672406E-1    8.972812459080396E-1    1.405750860527435E-1
 1.182014107403141E5     8.977900274029176E-1    1.394873709939254E-1    1.030787375441197E-1   -1.405189010949481E-1    1.033943649093781E-1   -1.408181496490233E-1    8.976050591525366E-1    1.397036391971614E-1
 1.191032712689044E5     8.981471881794744E-1    1.385963749977005E-1    1.027637938469603E-1   -1.396506098629828E-1    1.030752373629151E-1   -1.399449782493228E-1    8.979326198928396E-1    1.388240759620371E-1
 1.200120128694542E5     8.984080622194669E-1    1.377454635292417E-1    1.024479559965155E-1   -1.387855561484339E-1    1.027556275155562E-1   -1.390740130650619E-1    8.982309330712557E-1    1.379633135458366E-1
 1.209276880435975E5     8.986991106894587E-1    1.368815855565825E-1    1.021334389980949E-1   -1.379187806061028E-1    1.024499327534534E-1   -1.382140857793090E-1    8.985396557135780E-1    1.371137137027371E-1
 1.218503496935483E5     8.990100703286443E-1    1.360526824834145E-1    1.018389857636579E-1   -1.370728797452320E-1    1.021397345751856E-1   -1.373563647679344E-1    8.988432643627600E-1    1.362660147373825E-1
 1.227800511251578E5     8.993361726767441E-1    1.352144258850479E-1    1.015300128323028E-1   -1.362247582083713E-1    1.018305780881676E-1   -1.365119963852126E-1    8.991372645847808E-1    1.354234996871513E-1
 1.237168460509929E5     8.995947008123076E-1    1.343540598776222E-1    1.012319868193044E-1   -1.353857111732824E-1    1.015393494415496E-1   -1.356711434951227E-1    8.994450149476815E-1    1.345893889498559E-1
 1.246607885934402E5     8.998805572501468E-1    1.335219287668075E-1    1.009294738277546E-1   -1.345588831207100E-1    1.012283513554749E-1   -1.348328933249908E-1    8.997365170531885E-1    1.337443636579893E-1
 1.256119332878327E5     9.002144482047664E-1    1.327127129857902E-1    1.006359682088432E-1   -1.337315315636197E-1    1.009333313121395E-1   -1.340066798290523E-1    9.000258208207421E-1    1.329183666665156E-1
 1.265703350856002E5     9.004833542542874E-1    1.318800668536462E-1    1.003458754475585E-1   -1.329065501760582E-1    1.006402466014961E-1   -1.331818218678400E-1    9.003151908575354E-1    1.320956491446890E-1
 1.275360493574453E5     9.007550908319142E-1    1.310663915576768E-1    1.000529928573565E-1   -1.320905057291582E-1    1.003557458679461E-1   -1.323636998702791E-1    9.005932347256687E-1    1.312860212463008E-1
 1.285091318965405E5     9.010588218085789E-1    1.302745499348599E-1    9.976993752992783E-2   -1.312755228693214E-1    1.000710117272492E-1   -1.315586622946020E-1    9.009066462340156E-1    1.304817519644682E-1
 1.294896389217529E5     9.013147797884117E-1    1.294599085400870E-1    9.948381675446671E-2   -1.304753293919076E-1    9.979192533271899E-2   -1.307565572074599E-1    9.011710564829547E-1    1.296793840247932E-1
 1.304776270808914E5     9.015678720795894E-1    1.286562038728515E-1    9.921710146490179E-2   -1.296815808619964E-1    9.950735128824000E-2   -1.299588444420610E-1    9.014450076689919E-1    1.289022208670712E-1
 1.314731534539810E5     9.018528354146709E-1    1.278699561347213E-1    9.893610564303214E-2   -1.288945286127503E-1    9.923199921686242E-2   -1.291718469516087E-1    9.017083052657789E-1    1.280908120592679E-1
 1.324762755565583E5     9.021408323342643E-1    1.270869622284939E-1    9.867393940418011E-2   -1.281106798318933E-1    9.895907616042160E-2   -1.283821591472195E-1    9.019857165995832E-1    1.273197418416485E-1
 1.334870513429962E5     9.023755506188729E-1    1.263328160029804E-1    9.839852389631519E-2   -1.273323786568690E-1    9.869201086407609E-2   -1.276043859740145E-1    9.022483086326333E-1    1.265624797861692E-1
 1.345055392098512E5     9.026623407126392E-1    1.255636984911745E-1    9.813538393443884E-2   -1.265666745951762E-1    9.841990347149891E-2   -1.268288732921953E-1    9.025186617958638E-1    1.257867984976487E-1
 1.355317979992373E5     9.029368064005027E-1    1.247981732814768E-1    9.787603636703096E-2   -1.257986501874690E-1    9.815647415329390E-2   -1.260653538094293E-1    9.027857784441727E-1    1.250254350639628E-1
 1.365658870022265E5     9.031833059654698E-1    1.240456625750768E-1    9.760697965077356E-2   -1.250389453943410E-1    9.789728516045430E-2   -1.253016038793129E-1    9.030262693810656E-1    1.242646165619682E-1
 1.376078659622731E5     9.034690493926703E-1    1.232929871352027E-1    9.735628655731463E-2   -1.242914679549894E-1    9.763305037293334E-2   -1.245511907143769E-1    9.032885048555604E-1    1.234997088665150E-1
 1.386577950786655E5     9.037043522679831E-1    1.225424645382074E-1    9.709616176869421E-2   -1.235411736687582E-1    9.737567129810262E-2   -1.238013574695066E-1    9.035329972525956E-1    1.227494890824644E-1
 1.397157350100044E5     9.039607537922150E-1    1.218113705811170E-1    9.684758959862205E-2   -1.227960263980229E-1    9.712048002688223E-2   -1.230586975843904E-1    9.038016793130755E-1    1.220043331347409E-1
 1.407817468777081E5     9.042243039393730E-1    1.210739815006066E-1    9.659635403191440E-2   -1.220640162474935E-1    9.686921365079740E-2   -1.223218893125598E-1    9.040580149699639E-1    1.212827104934404E-1
 1.418558922695422E5     9.044555517191087E-1    1.203423393114237E-1    9.634261537831036E-2   -1.213327885586480E-1    9.662371660678014E-2   -1.215895968925219E-1    9.042905427435427E-1    1.205555878251823E-1
 1.429382332431784E5     9.047056796192267E-1    1.196350651658278E-1    9.610579656494650E-2   -1.206035615049576E-1    9.637828036638312E-2   -1.208658332219491E-1    9.045308901681555E-1    1.198373401317460E-1
 1.440288323297804E5     9.049012682607638E-1    1.189211137299751E-1    9.585735634052547E-2   -1.198894686144915E-1    9.613181451630630E-2   -1.201468670412671E-1    9.047772719455851E-1    1.191260427106306E-1
 1.451277525376154E5     9.051348602214790E-1    1.181875228038427E-1    9.561263916220676E-2   -1.191757876791691E-1    9.588530294895020E-2   -1.194307881063897E-1    9.050510643789860E-1    1.183951239175615E-1
 1.462350573556962E5     9.053548859198544E-1    1.174867278073657E-1    9.537353819726890E-2   -1.184689147726628E-1    9.564495752501090E-2   -1.187248401876856E-1    9.052638433107200E-1    1.176933054542411E-1
 1.473508107574468E5     9.056027495848518E-1    1.167998476930538E-1    9.513632167365883E-2   -1.177686207184902E-1    9.540289799395835E-2   -1.180202569741240E-1    9.054976019479475E-1    1.169825587101815E-1
 1.484750772044004E5     9.058475248944259E-1    1.160816481626427E-1    9.489884639415667E-2   -1.170752270547869E-1    9.517482445847002E-2   -1.173271547060682E-1    9.057225133088906E-1    1.163008488848376E-1
 1.496079216499225E5     9.060654762448901E-1    1.153981455795398E-1    9.466454339382761E-2   -1.163808786924538E-1    9.494252802862282E-2   -1.166387401627422E-1    9.059443510580744E-1    1.156071663332278E-1
 1.507494095429637E5     9.063009595954955E-1    1.147349933638695E-1    9.443558423511111E-2   -1.156918848892900E-1    9.470765019031396E-2   -1.159468908073233E-1    9.061683132960550E-1    1.149189558550387E-1
 1.518996068318418E5     9.065511115803410E-1    1.140619817422713E-1    9.420720824647516E-2   -1.150148991100342E-1    9.448151424795823E-2   -1.152681682846459E-1    9.064139543114713E-1    1.142489439016618E-1
 1.530585799680507E5     9.067562455498566E-1    1.133736421119453E-1    9.397746166174727E-2   -1.143367964286426E-1    9.424652830973759E-2   -1.145919872577942E-1    9.066379910870875E-1    1.135630321090178E-1
 1.542263959101001E5     9.069774379017974E-1    1.126916535998130E-1    9.375563613570041E-2   -1.136709006226532E-1    9.402778431422332E-2   -1.139268681177524E-1    9.068730560393128E-1    1.129231270500827E-1
 1.554031221273835E5     9.072076248041739E-1    1.120287052571472E-1    9.353114799203274E-2   -1.130100256694774E-1    9.380168837435322E-2   -1.132602606017431E-1    9.070889680210832E-1    1.122451765507738E-1
 1.565888266040779E5     9.074174698202644E-1    1.113805975502937E-1    9.330718236584709E-2   -1.123516342960394E-1    9.357545838275909E-2   -1.126037052161668E-1    9.073040158273425E-1    1.115801978774629E-1
 1.577835778430689E5     9.076586804240546E-1    1.107297647062809E-1    9.309402030068041E-2   -1.117057708400409E-1    9.335472811526023E-2   -1.119505392357788E-1    9.075372046888647E-1    1.109219571266781E-1
 1.589874448699104E5     9.078469102893916E-1    1.100957229330436E-1    9.287518213791378E-2   -1.110577923338622E-1    9.313815956672038E-2   -1.113033337102110E-1    9.077415702448259E-1    1.102828050652646E-1
 1.602004972368116E5     9.081018265317097E-1    1.094504601538452E-1    9.265556542037752E-2   -1.104163092706186E-1    9.292711287419858E-2   -1.106637816318065E-1    9.080000811507390E-1    1.096338057750340E-1
 1.614228050266550E5     9.083059216468505E-1    1.088153409369001E-1    9.244957059269611E-2   -1.097863334021743E-1    9.271503368637654E-2   -1.100274882189547E-1    9.082187497595735E-1    1.090052291157239E-1
 1.626544388570473E5     9.085363452284377E-1    1.081940199052156E-1    9.223643668661737E-2   -1.091518814503559E-1    9.250158528682131E-2   -1.093940641797657E-1    9.084123519350531E-1    1.083770025651639E-1
 1.638954698843964E5     9.087158209164784E-1    1.075802403247144E-1    9.202290638380473E-2   -1.085234739965239E-1    9.229222552785238E-2   -1.087721092116440E-1    9.086356042643091E-1    1.077469834310938E-1
 1.651459698080244E5     9.089104000104761E-1    1.069471579881498E-1    9.181623352001005E-2   -1.079021051908834E-1    9.208628000655515E-2   -1.081515590176761E-1    9.088396933162577E-1    1.071408612405166E-1
 1.664060108743095E5     9.091371372479824E-1    1.063351665396552E-1    9.161037139749249E-2   -1.072936854416606E-1    9.187191878059651E-2   -1.075333495629480E-1    9.090291213913828E-1    1.065175780341302E-1
 1.676756658808590E5     9.093629881287709E-1    1.057163163332651E-1    9.140063786698607E-2   -1.066867316337365E-1    9.166476398626534E-2   -1.069221860311024E-1    9.092259158907061E-1    1.059116162309512E-1
 1.689550081807175E5     9.095462250953174E-1    1.051024868540032E-1    9.119894017851184E-2   -1.060829484151263E-1    9.146279086987533E-2   -1.063190065468500E-1    9.094410979539028E-1    1.052897667591515E-1
 1.702441116866020E5     9.097696088299834E-1    1.045130094107442E-1    9.099132870693673E-2   -1.054813635995581E-1    9.125832265343037E-2   -1.057179951979374E-1    9.096547613180680E-1    1.047045404975516E-1
 1.715430508751738E5     9.099848048079694E-1    1.039129184088156E-1    9.079310620977067E-2   -1.048838425532315E-1    9.105925740291454E-2   -1.051203713131798E-1    9.098537602566983E-1    1.041022813752574E-1
 1.728519007913403E5     9.101928548730636E-1    1.033344915682152E-1    9.059372533404457E-2   -1.042948590436092E-1    9.085780228050049E-2   -1.045279537121118E-1    9.100697871452313E-1    1.035295315330814E-1
 1.741707370525927E5     9.103654454906223E-1    1.027537907227959E-1    9.039367406998064E-2   -1.037128201562139E-1    9.065277211042058E-2   -1.039429360939047E-1    9.102614209823831E-1    1.029381690481610E-1
 1.754996358533718E5     9.105411077557204E-1    1.021617775751839E-1    9.019487955766092E-2   -1.031318446427932E-1    9.046062927750405E-2   -1.033644231946347E-1    9.104617024922964E-1    1.023571779311833E-1
 1.768386739694722E5     9.107401972325035E-1    1.015780565061669E-1    9.000153594474264E-2   -1.025568764504672E-1    9.026056687913485E-2   -1.027882250181247E-1    9.106674729601639E-1    1.017891164490010E-1
 1.781879287624771E5     9.109142318337623E-1    1.009998007596804E-1    8.980734995877283E-2   -1.019929955858990E-1    9.006400225149239E-2   -1.022184179807593E-1    9.108515636235763E-1    1.012137733644243E-1
 1.795474781842276E5     9.111064673671221E-1    1.004468981794345E-1    8.960901186707090E-2   -1.014211851461373E-1    8.986537035490175E-2   -1.016430105421310E-1    9.110440537812660E-1    1.006500754324340E-1
 1.809174007813277E5     9.113114194212281E-1    9.988572781074771E-2    8.942006233436628E-2   -1.008627489126959E-1    8.967308699132832E-2   -1.010819017046006E-1    9.111963567391974E-1    1.000913060442324E-1
 1.822977756996804E5     9.114845331974784E-1    9.932228930651252E-2    8.923013865633134E-2   -1.003082569070658E-1    8.948614609583200E-2   -1.005264517766273E-1    9.114255568511955E-1    9.953931012099959E-2
 1.836886826890609E5     9.116805303560914E-1    9.879011499623713E-2    8.904132170283008E-2   -9.975584862323975E-2    8.928835906942188E-2   -9.996884270713563E-2    9.115974789879447E-1    9.897441651631893E-2
 1.850902021077247E5     9.118968908718423E-1    9.824537577240759E-2    8.885200002183032E-2   -9.921076847611379E-2    8.909773351007970E-2   -9.942698150728950E-2    9.117914836178173E-1    9.842536861182243E-2
 1.865024149270491E5     9.120552158712090E-1    9.769044193937038E-2    8.866333546235736E-2   -9.867085286329744E-2    8.891371098665063E-2   -9.888195613775583E-2    9.120176186279689E-1    9.788935226499779E-2
 1.879254027362132E5     9.122370751424099E-1    9.716165502437595E-2    8.847590746058601E-2   -9.812891145530814E-2    8.873277019478566E-2   -9.834623123022097E-2    9.121995915972956E-1    9.734570619018830E-2
 1.893592477469092E5     9.124278494817538E-1    9.658477570671675E-2    8.828563938601847E-2   -9.758884008299958E-2    8.856844454109210E-2   -9.781278815639896E-2    9.124187598141547E-1    9.680694353927041E-2
 1.908040327980933E5     9.126049584828797E-1    9.610203848325551E-2    8.810436797221260E-2   -9.707306823196789E-2    8.835326728113395E-2   -9.728628791289515E-2    9.125776974400672E-1    9.628976005227774E-2
 1.922598413607715E5     9.127736969682845E-1    9.555802666650148E-2    8.791713196025891E-2   -9.654698976105215E-2    8.816698799673067E-2   -9.675711929852422E-2    9.127964044056115E-1    9.576349786196280E-2
 1.937267575428232E5     9.129866607868234E-1    9.504916737253630E-2    8.773377167944404E-2   -9.602945764795230E-2    8.799086271768532E-2   -9.623831686960287E-2    9.129329796222789E-1    9.524895229450540E-2
 1.952048660938581E5     9.131678338263106E-1    9.453518603761311E-2    8.755730916478097E-2   -9.551796908451864E-2    8.780675212045745E-2   -9.572550962692239E-2    9.131087390488112E-1    9.472019615550378E-2
 1.966942524101142E5     9.133165111902016E-1    9.401351601817705E-2    8.737508113629548E-2   -9.500511965231755E-2    8.761986468343147E-2   -9.521223996026425E-2    9.132832118053482E-1    9.420751044656553E-2
 1.981950025393913E5     9.135203367372672E-1    9.352886592353654E-2    8.719929664952412E-2   -9.449907927499727E-2    8.743953268096680E-2   -9.470136197782979E-2    9.134359380934034E-1    9.369597158628951E-2
