#  HZ   S   RI   R     50.00 
! Rohde & Schwarz Vector Network Analyzer 
! Rohde-Schwarz,ZNLE6-2Port,1323001256200024,1.71.1.10-23.02.1.238
! Created: UTC 4/7/2025, 8:55:03 AM
! freq[Hz]                re:S11                  im:S11                  re:S21                  im:S21                  re:S12                  im:S12                  re:S22                  im:S22
 1.000000000000000E5     9.131335815323907E-1    1.356256729881472E-1    8.768955325383089E-2   -1.365649371410913E-1    8.797074856408296E-2   -1.368727518754083E-1    9.128605657632451E-1    1.358136183317963E-1
 1.007629862646662E5     9.134340593309833E-1    1.347140343725421E-1    8.739067120559467E-2   -1.356826335848434E-1    8.767728457008753E-2   -1.359832256168930E-1    9.131408584242686E-1    1.349210101588908E-1
 1.015317940097331E5     9.137027472679959E-1    1.338523667519319E-1    8.710853321252854E-2   -1.348011234873387E-1    8.738012928459084E-2   -1.351028831163253E-1    9.134332851838223E-1    1.340251708775498E-1
 1.023064676522963E5     9.139950366591093E-1    1.329756943628349E-1    8.681514972338850E-2   -1.339317459650016E-1    8.708613527213810E-2   -1.342307101568908E-1    9.137232941717944E-1    1.331585344886979E-1
 1.030870519483485E5     9.142460785792413E-1    1.320792404141594E-1    8.652677185279527E-2   -1.330582157458280E-1    8.680347359170390E-2   -1.333621366490017E-1    9.140190859420015E-1    1.322987820527742E-1
 1.038735919953636E5     9.145235426106999E-1    1.312312615826759E-1    8.625145817551548E-2   -1.321997830632764E-1    8.651613544549727E-2   -1.324912409370041E-1    9.142645449917399E-1    1.314461968980456E-1
 1.046661332349037E5     9.147723662043558E-1    1.303716815730576E-1    8.596890585917957E-2   -1.313427749111064E-1    8.623700682880402E-2   -1.316382543779613E-1    9.145430931755930E-1    1.305940753451338E-1
 1.054647214552430E5     9.150249199606918E-1    1.295178300934990E-1    8.569114968566111E-2   -1.304942184013254E-1    8.596037689974664E-2   -1.307880458345827E-1    9.148380381903742E-1    1.297514961270938E-1
 1.062694027940149E5     9.153090698870274E-1    1.286809642243860E-1    8.542362606868545E-2   -1.296519116249167E-1    8.569017944648577E-2   -1.299428530929375E-1    9.150799336837450E-1    1.289230342384709E-1
 1.070802237408760E5     9.155924164749863E-1    1.278424372220261E-1    8.515437783701217E-2   -1.288128204599439E-1    8.541899469508241E-2   -1.291059723890619E-1    9.153620173116364E-1    1.280951810513246E-1
 1.078972311401927E5     9.158449016402834E-1    1.270401988557784E-1    8.489735126161466E-2   -1.279865064771472E-1    8.515504962131069E-2   -1.282747386869298E-1    9.155943966602850E-1    1.272403842588192E-1
 1.087204721937475E5     9.161146673174153E-1    1.262027488857091E-1    8.463208000521304E-2   -1.271677214297125E-1    8.489469814221570E-2   -1.274512865475903E-1    9.158830407143432E-1    1.264472411635625E-1
 1.095499944634658E5     9.163952694005443E-1    1.253864102055965E-1    8.437456687707665E-2   -1.263512318061088E-1    8.463198415990068E-2   -1.266325379609759E-1    9.160857651924369E-1    1.256191736987899E-1
 1.103858458741646E5     9.166345491456392E-1    1.245931732231131E-1    8.411972934523403E-2   -1.255383194742910E-1    8.437414524910214E-2   -1.258239454195196E-1    9.164112517861704E-1    1.248131934312711E-1
 1.112280747163201E5     9.168677661787031E-1    1.237766466690543E-1    8.386902220963531E-2   -1.247390081302512E-1    8.412225441409514E-2   -1.250150443279635E-1    9.166299166523687E-1    1.240165468326021E-1
 1.120767296488583E5     9.170934538226685E-1    1.229909248420046E-1    8.361485955004153E-2   -1.239331371990550E-1    8.387020500124381E-2   -1.242160873354403E-1    9.168979638540840E-1    1.232156648835690E-1
 1.129318597019661E5     9.173344112051222E-1    1.221921360197425E-1    8.337180176600424E-2   -1.231448595211673E-1    8.361919354478861E-2   -1.234174616640638E-1    9.171117660539964E-1    1.223985920686149E-1
 1.137935142799240E5     9.176104437712717E-1    1.214113100747427E-1    8.312885290479681E-2   -1.223621870972699E-1    8.337712424016017E-2   -1.226335517105912E-1    9.173733233152379E-1    1.216397794690385E-1
 1.146617431639607E5     9.178201467681195E-1    1.206239909592770E-1    8.288635176129810E-2   -1.215794706943914E-1    8.313515651937781E-2   -1.218600279055971E-1    9.176205132800138E-1    1.208647354821641E-1
 1.155365965151286E5     9.180467805313803E-1    1.198679698628132E-1    8.265337205355074E-2   -1.208028499686820E-1    8.289280574619744E-2   -1.210837038960179E-1    9.178652961374102E-1    1.200955133843674E-1
 1.164181248772018E5     9.182558699431839E-1    1.190897055609053E-1    8.241366044159756E-2   -1.200342047272608E-1    8.266203263552502E-2   -1.203108916876782E-1    9.180859475058569E-1    1.193159381927236E-1
 1.173063791795965E5     9.184909327427847E-1    1.183232336741354E-1    8.218483162596830E-2   -1.192710503287192E-1    8.243246637751679E-2   -1.195531969014168E-1    9.182998237151830E-1    1.185619630306198E-1
 1.182014107403141E5     9.187533092522869E-1    1.175772221355732E-1    8.195980970161131E-2   -1.185190519877542E-1    8.219889289329532E-2   -1.187944148015426E-1    9.185444217216053E-1    1.178113092165646E-1
 1.191032712689044E5     9.189563110002268E-1    1.168254711678839E-1    8.173386714955702E-2   -1.177683644153775E-1    8.196991915829864E-2   -1.180392955477845E-1    9.187787763919888E-1    1.170685114996183E-1
 1.200120128694542E5     9.191535663232077E-1    1.160792482134314E-1    8.150714287653318E-2   -1.170260946259283E-1    8.174163361280648E-2   -1.172935970909031E-1    9.189817857890530E-1    1.163145171807197E-1
 1.209276880435975E5     9.193810299768541E-1    1.153552298995132E-1    8.128620294870816E-2   -1.162855585853728E-1    8.151907060076304E-2   -1.165466957657709E-1    9.191887016708985E-1    1.155852075256333E-1
 1.218503496935483E5     9.196163936781594E-1    1.146381704955526E-1    8.107064079557118E-2   -1.155556555539883E-1    8.129972215087776E-2   -1.158177005137485E-1    9.194264382523112E-1    1.148590434684562E-1
 1.227800511251578E5     9.198487954942633E-1    1.139171712749114E-1    8.085456874426313E-2   -1.148317124402575E-1    8.107640069160273E-2   -1.150874556583338E-1    9.196130164866213E-1    1.141264537643915E-1
 1.237168460509929E5     9.200935788340260E-1    1.131808028622826E-1    8.063904349654805E-2   -1.141122526049287E-1    8.086695703584582E-2   -1.143668115537154E-1    9.198624304917372E-1    1.134211151275278E-1
 1.246607885934402E5     9.202532141200247E-1    1.124674154794405E-1    8.042195334633172E-2   -1.133908357317945E-1    8.065071253534643E-2   -1.136466644815179E-1    9.200565801408876E-1    1.126963135673116E-1
 1.256119332878327E5     9.204551113620649E-1    1.117682545303018E-1    8.020983295110173E-2   -1.126847527823356E-1    8.043913722573157E-2   -1.129390380502675E-1    9.202800953893341E-1    1.119730303317023E-1
 1.265703350856002E5     9.206658054124454E-1    1.110544609649644E-1    7.999729019631426E-2   -1.119763822131686E-1    8.022596121121706E-2   -1.122264559848883E-1    9.204923571846440E-1    1.112691631689696E-1
 1.275360493574453E5     9.208504441136803E-1    1.103477558360075E-1    7.978809304467710E-2   -1.112764633210824E-1    8.002192157864382E-2   -1.115227239052049E-1    9.206621284785024E-1    1.105736620221062E-1
 1.285091318965405E5     9.210683045054419E-1    1.096609787138116E-1    7.958571798557029E-2   -1.105850264279171E-1    7.981587314105060E-2   -1.108281422362787E-1    9.208539005479645E-1    1.098869913246753E-1
 1.294896389217529E5     9.212566800398784E-1    1.089726517555053E-1    7.938057129255539E-2   -1.098905307703680E-1    7.961783314007122E-2   -1.101459841157832E-1    9.211137748441007E-1    1.092002090114278E-1
 1.304776270808914E5     9.214471190844872E-1    1.082877211411232E-1    7.918833915552449E-2   -1.092132757482671E-1    7.941194888068315E-2   -1.094601136694752E-1    9.212793682817482E-1    1.085261839757025E-1
 1.314731534539810E5     9.216400660364185E-1    1.076136268817705E-1    7.898687874369704E-2   -1.085354495977303E-1    7.921525929249507E-2   -1.087806016655729E-1    9.214852630452720E-1    1.078417500791941E-1
 1.324762755565583E5     9.218393406350753E-1    1.069364721709409E-1    7.879222254934963E-2   -1.078679537513905E-1    7.901988994914848E-2   -1.081080013164765E-1    9.216723496475353E-1    1.071897393097314E-1
 1.334870513429962E5     9.219888124673583E-1    1.062884759154604E-1    7.859547989391980E-2   -1.071991238591810E-1    7.882413900234891E-2   -1.074486662304034E-1    9.218977891923114E-1    1.065042320557575E-1
 1.345055392098512E5     9.222065320158304E-1    1.056196724180914E-1    7.840225270924613E-2   -1.065397112890579E-1    7.863112487052661E-2   -1.067799325941040E-1    9.220896639944900E-1    1.058562119756371E-1
 1.355317979992373E5     9.224241799243347E-1    1.049880630632264E-1    7.821491024953398E-2   -1.058845372115784E-1    7.844039495011419E-2   -1.061209811353665E-1    9.222644400597407E-1    1.052135362236469E-1
 1.365658870022265E5     9.225852099562262E-1    1.043152076548071E-1    7.802423223639025E-2   -1.052352831444365E-1    7.825119893796184E-2   -1.054689381099641E-1    9.224310261866163E-1    1.045563617242116E-1
 1.376078659622731E5     9.228049940128766E-1    1.036777818927220E-1    7.783925043111681E-2   -1.045923122018478E-1    7.806368305412190E-2   -1.048233408797381E-1    9.226353113353342E-1    1.039059408103437E-1
 1.386577950786655E5     9.229843686693926E-1    1.030574527191793E-1    7.765292740992065E-2   -1.039534307061813E-1    7.787663962160407E-2   -1.041842013136172E-1    9.228215356101445E-1    1.032687354342737E-1
 1.397157350100044E5     9.231705615892328E-1    1.024210203747015E-1    7.747270361936029E-2   -1.033195798954426E-1    7.769309015867859E-2   -1.035490856332397E-1    9.230218521051308E-1    1.026243897410648E-1
 1.407817468777081E5     9.233542229645924E-1    1.017979719825150E-1    7.728947505290354E-2   -1.026914563999204E-1    7.751092860022223E-2   -1.029164521864021E-1    9.232139695681157E-1    1.019942811247977E-1
 1.418558922695422E5     9.235295583115030E-1    1.011796937753312E-1    7.710931068054686E-2   -1.020653727561913E-1    7.732976572512221E-2   -1.022906728036940E-1    9.233901787809649E-1    1.013742813939796E-1
 1.429382332431784E5     9.236960219365418E-1    1.005520973654793E-1    7.693262393297312E-2   -1.014394204059850E-1    7.715595660157418E-2   -1.016706192758911E-1    9.235749031563110E-1    1.007598272356769E-1
 1.440288323297804E5     9.238381604772046E-1    9.994747418420537E-2    7.675429582004528E-2   -1.008316828571647E-1    7.697580298976422E-2   -1.010581564231813E-1    9.237677976514368E-1    1.001493057993223E-1
 1.451277525376154E5     9.240109663788985E-1    9.932175716327510E-2    7.657587663539228E-2   -1.002196008305836E-1    7.679415316837124E-2   -1.004458449297756E-1    9.239390706198132E-1    9.955005617087130E-2
 1.462350573556962E5     9.242045228338930E-1    9.872365214181701E-2    7.640465692872617E-2   -9.961951390001048E-2    7.661962243169453E-2   -9.984017275713804E-2    9.241110274986899E-1    9.894657134067210E-2
 1.473508107574468E5     9.243867170449844E-1    9.813099582329116E-2    7.623465238751599E-2   -9.902036660392485E-2    7.644936784369588E-2   -9.923763279997917E-2    9.242917550913693E-1    9.834448645831009E-2
 1.484750772044004E5     9.245361986653455E-1    9.752697140781126E-2    7.605712625055476E-2   -9.842742914431164E-2    7.628440560352227E-2   -9.864612455800176E-2    9.244522271933187E-1    9.774785047767671E-2
 1.496079216499225E5     9.246860600448105E-1    9.695419130038692E-2    7.588744463854917E-2   -9.783453710564106E-2    7.610921914553806E-2   -9.805840449633288E-2    9.245830967353317E-1    9.716327830585116E-2
 1.507494095429637E5     9.248646408208080E-1    9.638028131106274E-2    7.571972742898961E-2   -9.724933595247925E-2    7.594023034773011E-2   -9.746696237312755E-2    9.247377429343840E-1    9.658880525600269E-2
 1.518996068318418E5     9.250523186720704E-1    9.580626974654398E-2    7.555402153903168E-2   -9.666898137826835E-2    7.577274946530309E-2   -9.689349541625672E-2    9.249542931741682E-1    9.598790374831263E-2
 1.530585799680507E5     9.252232824273452E-1    9.522270851327258E-2    7.538920210791374E-2   -9.609421656085113E-2    7.560528608890874E-2   -9.631310330221475E-2    9.251209095310722E-1    9.542656136947408E-2
 1.542263959101001E5     9.253575002526185E-1    9.463278036466977E-2    7.522028760340134E-2   -9.552745688771973E-2    7.544679376503065E-2   -9.574344143066783E-2    9.252763311446346E-1    9.486160775729167E-2
 1.554031221273835E5     9.255217533201668E-1    9.407164572043016E-2    7.505748539728076E-2   -9.495592874384186E-2    7.527942090451814E-2   -9.517594798570145E-2    9.254475880677991E-1    9.428312885238650E-2
 1.565888266040779E5     9.257068558498710E-1    9.352789749766983E-2    7.489627062978543E-2   -9.439766075036733E-2    7.511828250245688E-2   -9.461557770703087E-2    9.256195214262215E-1    9.372446486664705E-2
 1.577835778430689E5     9.258796278558841E-1    9.296443744342413E-2    7.473935545516083E-2   -9.384653046092997E-2    7.495295493020609E-2   -9.405507029234236E-2    9.257564693224738E-1    9.316298784809403E-2
 1.589874448699104E5     9.260131812694478E-1    9.243326802814759E-2    7.457574553356115E-2   -9.329203747155818E-2    7.479351177449725E-2   -9.350486763775996E-2    9.259357333387519E-1    9.259382979905156E-2
 1.602004972368116E5     9.262031644187450E-1    9.188039632552468E-2    7.441842135377789E-2   -9.274731046272754E-2    7.463556854091273E-2   -9.296208810185018E-2    9.261118581933716E-1    9.205063183634196E-2
 1.614228050266550E5     9.263442499974470E-1    9.133892269613127E-2    7.426405171886477E-2   -9.220971974914360E-2    7.448346858692376E-2   -9.241641067711354E-2    9.262801879429347E-1    9.150728659144448E-2
 1.626544388570473E5     9.264893659998243E-1    9.079384658754422E-2    7.410370210524639E-2   -9.166773304399908E-2    7.432396037800351E-2   -9.188100119682480E-2    9.264109591930019E-1    9.096813554708758E-2
 1.638954698843964E5     9.266420917859179E-1    9.025378151812671E-2    7.394913330320822E-2   -9.113354804538085E-2    7.416948980213066E-2   -9.134213070804850E-2    9.265575284785454E-1    9.045119950205568E-2
 1.651459698080244E5     9.267825960706285E-1    8.972116359259411E-2    7.379891083111126E-2   -9.060628881531350E-2    7.401646886435259E-2   -9.081554352146548E-2    9.266908853585826E-1    8.991518512934225E-2
 1.664060108743095E5     9.269115810454789E-1    8.919377877277716E-2    7.364870708611908E-2   -9.008315052583639E-2    7.386344201836446E-2   -9.028998980267691E-2    9.268707428814130E-1    8.938745983882873E-2
 1.676756658808590E5     9.270850237158828E-1    8.866482802663252E-2    7.349450620697826E-2   -8.956207192745920E-2    7.371010170737144E-2   -8.976924658149922E-2    9.270250418884558E-1    8.887899829622556E-2
 1.689550081807175E5     9.272572618616355E-1    8.816661532564504E-2    7.334697123064407E-2   -8.904913846435283E-2    7.356017066051453E-2   -8.924931439817553E-2    9.271557876456649E-1    8.834785020007756E-2
 1.702441116866020E5     9.274046472725418E-1    8.766066672889687E-2    7.319424256591701E-2   -8.853479952120828E-2    7.341000091682097E-2   -8.874045113924715E-2    9.273063374917047E-1    8.784472101395588E-2
 1.715430508751738E5     9.275535299940726E-1    8.714847335235139E-2    7.304335768499187E-2   -8.803203785385633E-2    7.325934835449530E-2   -8.823252237538992E-2    9.274250456538107E-1    8.732483417738318E-2
 1.728519007913403E5     9.276798303182654E-1    8.664581248879398E-2    7.289859425631877E-2   -8.752561087365821E-2    7.310910436760726E-2   -8.772775092657321E-2    9.275812108433511E-1    8.682034137287953E-2
 1.741707370525927E5     9.278242897592730E-1    8.614498439328251E-2    7.275351589017730E-2   -8.702841420540723E-2    7.295852642952150E-2   -8.722461512388260E-2    9.277205219865207E-1    8.633317686757354E-2
 1.754996358533718E5     9.279931959799655E-1    8.564845183960014E-2    7.260656591824199E-2   -8.653898396690782E-2    7.281538534435318E-2   -8.673577884041729E-2    9.278647345789640E-1    8.582437115479424E-2
 1.768386739694722E5     9.281204987276659E-1    8.515339923629557E-2    7.245706855573651E-2   -8.604763016372616E-2    7.267023048925372E-2   -8.624326753888155E-2    9.280441635855425E-1    8.535375820542024E-2
 1.781879287624771E5     9.282584684077164E-1    8.466602636826798E-2    7.232098950636466E-2   -8.556721269337923E-2    7.252483579564709E-2   -8.575667274266893E-2    9.282311269531551E-1    8.486428901310653E-2
 1.795474781842276E5     9.283809969994664E-1    8.419260236420756E-2    7.216671187081578E-2   -8.507793019094040E-2    7.237438971912041E-2   -8.527021909777029E-2    9.283397236648270E-1    8.438362903104182E-2
 1.809174007813277E5     9.285140076190994E-1    8.370416462380639E-2    7.202569834845779E-2   -8.460389907494856E-2    7.223495728891648E-2   -8.479566893353309E-2    9.284473391332014E-1    8.390624071296203E-2
 1.822977756996804E5     9.286587810850792E-1    8.323916030227042E-2    7.188277481715931E-2   -8.412871502117825E-2    7.208965422945458E-2   -8.431714805593439E-2    9.286204401513372E-1    8.344066341362011E-2
 1.836886826890609E5     9.288049404570005E-1    8.277272610475066E-2    7.174760038587036E-2   -8.365785506336745E-2    7.194380755205378E-2   -8.384463394089456E-2    9.287476555711864E-1    8.295733536160341E-2
 1.850902021077247E5     9.289660057991127E-1    8.231072748640661E-2    7.160693253416316E-2   -8.319810748414380E-2    7.180854445172856E-2   -8.338342173330723E-2    9.288922925365697E-1    8.249006859898347E-2
 1.865024149270491E5     9.291143552579738E-1    8.184788331172282E-2    7.146847893827007E-2   -8.273741368983617E-2    7.167219000922814E-2   -8.292283826633970E-2    9.290247965594092E-1    8.203705536364024E-2
 1.879254027362132E5     9.292448810541538E-1    8.138812310708406E-2    7.132712366744758E-2   -8.228040811544730E-2    7.153318512568624E-2   -8.246627953235801E-2    9.291940428192098E-1    8.156593503347988E-2
 1.893592477469092E5     9.294244649076684E-1    8.087887738820738E-2    7.116980353455427E-2   -8.183170792405374E-2    7.138104246010120E-2   -8.199135570482539E-2    9.293414675890339E-1    8.112246433122600E-2
 1.908040327980933E5     9.295039665624388E-1    8.047758100232082E-2    7.104776219308080E-2   -8.137502290504917E-2    7.124759215651133E-2   -8.155785969406071E-2    9.294632511950008E-1    8.066521571194081E-2
 1.922598413607715E5     9.296636088740891E-1    8.003813889524697E-2    7.091135671695359E-2   -8.093241281329845E-2    7.110784094708868E-2   -8.110890877080559E-2    9.295712782403456E-1    8.020533706891012E-2
 1.937267575428232E5     9.297973701828742E-1    7.959158779601101E-2    7.077131028113300E-2   -8.048669867476060E-2    7.097261973894495E-2   -8.066935566932248E-2    9.297206898769242E-1    7.977129740505126E-2
 1.952048660938581E5     9.299505624589793E-1    7.915494065456639E-2    7.064123249573652E-2   -8.005262731858598E-2    7.083791049355884E-2   -8.022989699271531E-2    9.298449831483934E-1    7.931777470776519E-2
 1.966942524101142E5     9.300718942865093E-1    7.870187353992683E-2    7.050527718976678E-2   -7.961827955960507E-2    7.069960911296337E-2   -7.979542244056961E-2    9.299865227981968E-1    7.887520379214279E-2
 1.981950025393913E5     9.301817879065417E-1    7.828668467113598E-2    7.037081801381311E-2   -7.918960886168522E-2    7.056509396800896E-2   -7.936657899817944E-2    9.301127939295771E-1    7.845265696270276E-2
