#  HZ   S   RI   R     50.00 
! Rohde & Schwarz Vector Network Analyzer 
! Rohde-Schwarz,ZNLE6-2Port,1323001256200024,1.71.1.10-23.02.1.238
! Created: UTC 4/7/2025, 8:45:27 AM
! freq[Hz]                re:S11                  im:S11                  re:S21                  im:S21                  re:S12                  im:S12                  re:S22                  im:S22
 1.000000000000000E5     9.298539807543293E-1    1.154049521910732E-1    7.081127211997811E-2   -1.162299097889726E-1    7.102769452485780E-2   -1.165184177318288E-1    9.296804403745705E-1    1.155643935969913E-1
 1.007629862646662E5     9.300925700368511E-1    1.146096677110592E-1    7.059645055802918E-2   -1.154702350045855E-1    7.081430727009774E-2   -1.157503195481542E-1    9.299107601291592E-1    1.147867069885067E-1
 1.015317940097331E5     9.302834918433920E-1    1.138541505797693E-1    7.038988092737353E-2   -1.147114918940800E-1    7.059581229782327E-2   -1.149893031433699E-1    9.301182936127697E-1    1.140155080971262E-1
 1.023064676522963E5     9.304732227053879E-1    1.130909216856407E-1    7.017739651400029E-2   -1.139544341090627E-1    7.038863951979568E-2   -1.142293494256627E-1    9.303002536774648E-1    1.132787477991090E-1
 1.030870519483485E5     9.306607567008279E-1    1.123381837649260E-1    6.996904356468632E-2   -1.132044845206153E-1    7.018064292396463E-2   -1.134803684241230E-1    9.305062885028167E-1    1.125215769251818E-1
 1.038735919953636E5     9.308737141082781E-1    1.115959328890884E-1    6.976360091681694E-2   -1.124654955290084E-1    6.997433781837084E-2   -1.127280764818724E-1    9.307087423813341E-1    1.117939086302534E-1
 1.046661332349037E5     9.310439397552555E-1    1.108623821634493E-1    6.956132635824659E-2   -1.117231566887092E-1    6.976890562557193E-2   -1.119940795921444E-1    9.309027718819006E-1    1.110513054418452E-1
 1.054647214552430E5     9.312590113076078E-1    1.101154780487729E-1    6.936031207814133E-2   -1.109918287538583E-1    6.956641752608206E-2   -1.112570456598019E-1    9.311241131137514E-1    1.103104897140322E-1
 1.062694027940149E5     9.314388619612924E-1    1.093979887190439E-1    6.915676949661134E-2   -1.102631141413522E-1    6.937266475076320E-2   -1.105257618786357E-1    9.313074036164470E-1    1.096051645506368E-1
 1.070802237408760E5     9.316669855429219E-1    1.086849298503458E-1    6.896388902164456E-2   -1.095494138488794E-1    6.917631710621762E-2   -1.098089309858420E-1    9.314976570196585E-1    1.088796548938791E-1
 1.078972311401927E5     9.318397560832860E-1    1.079625426053993E-1    6.877716579455809E-2   -1.088334534870895E-1    6.898622659275122E-2   -1.090918260777447E-1    9.317043347256377E-1    1.081660387092497E-1
 1.087204721937475E5     9.320296497269378E-1    1.072623767371833E-1    6.858402027680981E-2   -1.081232478580838E-1    6.879207593195556E-2   -1.083742121383079E-1    9.318767671154838E-1    1.074776267742362E-1
 1.095499944634658E5     9.322131264264449E-1    1.065462755345631E-1    6.839408041082889E-2   -1.074160766940733E-1    6.860575196917554E-2   -1.076739501199964E-1    9.320465486826234E-1    1.067425081822690E-1
 1.103858458741646E5     9.324048332110635E-1    1.058499152555424E-1    6.820337944340252E-2   -1.067178584850535E-1    6.841676995247045E-2   -1.069755719416390E-1    9.322770487102185E-1    1.060621594536406E-1
 1.112280747163201E5     9.325614451321635E-1    1.051474704425799E-1    6.802207056779792E-2   -1.060265828050774E-1    6.823161321053905E-2   -1.062778786572735E-1    9.324382967555334E-1    1.053704278828743E-1
 1.120767296488583E5     9.327671087554219E-1    1.044818126264450E-1    6.783847116727747E-2   -1.053374718258135E-1    6.804808076947161E-2   -1.055928696325465E-1    9.326405598176560E-1    1.046801134309879E-1
 1.129318597019661E5     9.329180691807466E-1    1.037900978511005E-1    6.765342268263906E-2   -1.046570538325603E-1    6.786425038994022E-2   -1.049044369204543E-1    9.327640802631312E-1    1.039822693400270E-1
 1.137935142799240E5     9.331296287545161E-1    1.031209624678697E-1    6.748062716543203E-2   -1.039818785589980E-1    6.768619249345180E-2   -1.042284174172782E-1    9.329780787035556E-1    1.033297828292109E-1
 1.146617431639607E5     9.332627975128615E-1    1.024603684618871E-1    6.730257328207945E-2   -1.033110293601710E-1    6.751396000663606E-2   -1.035587109205363E-1    9.331519602294016E-1    1.026526123594914E-1
 1.155365965151286E5     9.334244856577844E-1    1.018020222704585E-1    6.712916811006577E-2   -1.026440166657901E-1    6.733264963305016E-2   -1.028897946453894E-1    9.332951328143613E-1    1.019781001500384E-1
 1.164181248772018E5     9.335872920549628E-1    1.011243133686236E-1    6.695600298260587E-2   -1.019834689233042E-1    6.715652579857521E-2   -1.022241084901399E-1    9.334333457176739E-1    1.013131263216140E-1
 1.173063791795965E5     9.337700143825726E-1    1.004716899468043E-1    6.679062999477080E-2   -1.013293152481457E-1    6.699648420219018E-2   -1.015744253614298E-1    9.336172899057863E-1    1.006692994338547E-1
 1.182014107403141E5     9.339369330987386E-1    9.984305487538037E-2    6.662123406123920E-2   -1.006800647455680E-1    6.682303716898146E-2   -1.009204971197644E-1    9.337905215115384E-1    1.000240520247224E-1
 1.191032712689044E5     9.340963196394165E-1    9.916271493058773E-2    6.645046243415260E-2   -1.000347546540453E-1    6.665493093521836E-2   -1.002767882632503E-1    9.339916302492155E-1    9.939582793302701E-2
 1.200120128694542E5     9.342230893752412E-1    9.852504542305163E-2    6.628571442824456E-2   -9.939616663037204E-2    6.648562370960663E-2   -9.963034498677836E-2    9.341313862242250E-1    9.873465426596187E-2
 1.209276880435975E5     9.343928212273113E-1    9.791278619773812E-2    6.612335814259657E-2   -9.875944050441979E-2    6.632633376407884E-2   -9.899542182574263E-2    9.343043894559743E-1    9.811421639242145E-2
 1.218503496935483E5     9.345628081214183E-1    9.728706204186291E-2    6.596827535141264E-2   -9.813551760270203E-2    6.616194777220891E-2   -9.835962306148048E-2    9.344666903763863E-1    9.748118035752745E-2
 1.227800511251578E5     9.347356551297811E-1    9.666493356415166E-2    6.580465296438200E-2   -9.750606814932164E-2    6.599804242975511E-2   -9.773985565712887E-2    9.346262090408912E-1    9.684489971218752E-2
 1.237168460509929E5     9.348734826811873E-1    9.602960853637323E-2    6.564457749822177E-2   -9.688539937374506E-2    6.584500828196102E-2   -9.711765646806395E-2    9.348062068057033E-1    9.624292985636050E-2
 1.246607885934402E5     9.350288297616487E-1    9.541519883629253E-2    6.548682853212077E-2   -9.627569731566032E-2    6.568279892509393E-2   -9.650031096329101E-2    9.349635616854376E-1    9.562388006368196E-2
 1.256119332878327E5     9.352093145236896E-1    9.483314253130333E-2    6.533252081628863E-2   -9.566310231445332E-2    6.552701986497368E-2   -9.588987253385178E-2    9.350787499944576E-1    9.500623063760458E-2
 1.265703350856002E5     9.353578211697197E-1    9.420942178926636E-2    6.517992367258185E-2   -9.505954076463337E-2    6.537488165642839E-2   -9.528352500430823E-2    9.352810254367809E-1    9.441751930653587E-2
 1.275360493574453E5     9.354937166025479E-1    9.360175149157918E-2    6.502486664437988E-2   -9.445629717850217E-2    6.522059095680459E-2   -9.467794126575522E-2    9.354230215745006E-1    9.381442095824409E-2
 1.285091318965405E5     9.356773666495111E-1    9.303126118213541E-2    6.487187505463581E-2   -9.386042171426169E-2    6.506697745930308E-2   -9.408549053987361E-2    9.355508187283060E-1    9.322155024075111E-2
 1.294896389217529E5     9.357934038982676E-1    9.243047691643833E-2    6.471998161965492E-2   -9.326718679858506E-2    6.492147752772032E-2   -9.349207249433475E-2    9.357312106460353E-1    9.264197225894170E-2
 1.304776270808914E5     9.359267599840535E-1    9.183180387575120E-2    6.457746523781618E-2   -9.268619648039449E-2    6.476749143470120E-2   -9.290575988970927E-2    9.358695552413568E-1    9.206507379297343E-2
 1.314731534539810E5     9.360865966599292E-1    9.126316282790008E-2    6.443056709992717E-2   -9.210449941525010E-2    6.462505588723720E-2   -9.232176495036307E-2    9.359756650935338E-1    9.147224654695538E-2
 1.324762755565583E5     9.362308978081242E-1    9.069237434182459E-2    6.428763692920306E-2   -9.153352415326760E-2    6.448234572785252E-2   -9.174455996396642E-2    9.361449531266185E-1    9.090686744471183E-2
 1.334870513429962E5     9.363413904062147E-1    9.011086149645829E-2    6.414243251984486E-2   -9.096316120701051E-2    6.433356475450429E-2   -9.117423170998637E-2    9.362909792430552E-1    9.034285470363329E-2
 1.345055392098512E5     9.365027748159147E-1    8.955304303129766E-2    6.399811408226973E-2   -9.039247081413149E-2    6.419540923522622E-2   -9.060845702840639E-2    9.364415637045836E-1    8.976191958976391E-2
 1.355317979992373E5     9.366466422854949E-1    8.899044326470443E-2    6.386015152294361E-2   -8.983415271783053E-2    6.405214231951720E-2   -9.004178721703866E-2    9.365644493506764E-1    8.921323188760143E-2
 1.365658870022265E5     9.367738214887414E-1    8.842099612893142E-2    6.371953525965345E-2   -8.927494894027006E-2    6.390832666347358E-2   -8.948299685054588E-2    9.366884343887882E-1    8.864227105019984E-2
 1.376078659622731E5     9.369251773824809E-1    8.788140327719930E-2    6.358416837550204E-2   -8.872650931114719E-2    6.377134923158433E-2   -8.892968316725859E-2    9.368419931440989E-1    8.808845335610750E-2
 1.386577950786655E5     9.370513159484967E-1    8.734800654734746E-2    6.344716232694353E-2   -8.818293834875833E-2    6.363175552078600E-2   -8.838130422141026E-2    9.369865533564730E-1    8.754510351225825E-2
 1.397157350100044E5     9.372131744142174E-1    8.679077902441228E-2    6.331162255458808E-2   -8.763487667547823E-2    6.349599008003293E-2   -8.782876708424869E-2    9.371131609463743E-1    8.700634654933857E-2
 1.407817468777081E5     9.373515487853987E-1    8.626053177971202E-2    6.317718272851007E-2   -8.709531472016567E-2    6.336137448074916E-2   -8.729580484524738E-2    9.372608887510232E-1    8.645011691079867E-2
 1.418558922695422E5     9.374583670219206E-1    8.572723888987378E-2    6.304324815223891E-2   -8.655930134022159E-2    6.323024249459852E-2   -8.675733301557208E-2    9.373850941369801E-1    8.592831450743936E-2
 1.429382332431784E5     9.375852320401256E-1    8.519307185490450E-2    6.290568977507430E-2   -8.602737394692815E-2    6.309955948986516E-2   -8.623000320292878E-2    9.375166994945844E-1    8.539006202834759E-2
 1.440288323297804E5     9.377338549200420E-1    8.468713643010507E-2    6.277732077693700E-2   -8.550285353860311E-2    6.295894680333319E-2   -8.570220590884851E-2    9.376396501782145E-1    8.485672616661569E-2
 1.451277525376154E5     9.378438390497915E-1    8.414645973830781E-2    6.264399317445558E-2   -8.498069076952890E-2    6.283061204541565E-2   -8.517667706766935E-2    9.377780597204836E-1    8.435418537142375E-2
 1.462350573556962E5     9.379824302778085E-1    8.363592943966364E-2    6.251713221707481E-2   -8.446626779611772E-2    6.269768367461649E-2   -8.465840996536177E-2    9.378925404780772E-1    8.382652968421614E-2
 1.473508107574468E5     9.381026081070811E-1    8.312642388121562E-2    6.239110201946598E-2   -8.395257319156926E-2    6.257079246327935E-2   -8.414520782493787E-2    9.380264298084081E-1    8.330212661589043E-2
 1.484750772044004E5     9.382250396751558E-1    8.259768546828010E-2    6.226135439638333E-2   -8.344382503400734E-2    6.244451757605188E-2   -8.363521016217106E-2    9.381464750294326E-1    8.281385633495281E-2
 1.496079216499225E5     9.383380704511175E-1    8.209786606576180E-2    6.212924701560986E-2   -8.293919066190272E-2    6.231921208847013E-2   -8.313055154093776E-2    9.382696335816351E-1    8.231328051149299E-2
 1.507494095429637E5     9.384631378795986E-1    8.161072759413837E-2    6.200563115255368E-2   -8.243935137648403E-2    6.219032682052358E-2   -8.263066344149654E-2    9.384137443892552E-1    8.180147553083479E-2
 1.518996068318418E5     9.386276916334751E-1    8.112671229718932E-2    6.188215807368687E-2   -8.193987827146325E-2    6.206751673656152E-2   -8.213149584818839E-2    9.385397446132636E-1    8.131374306670680E-2
 1.530585799680507E5     9.387137619217935E-1    8.064000115541954E-2    6.175958874327777E-2   -8.144553037540431E-2    6.194007321114039E-2   -8.163933614026693E-2    9.386729738270426E-1    8.080439582650761E-2
 1.542263959101001E5     9.388344153984527E-1    8.011348142640727E-2    6.162889472910600E-2   -8.096269287167550E-2    6.181778463771394E-2   -8.115120788611217E-2    9.387554269847481E-1    8.032657213855124E-2
 1.554031221273835E5     9.389647055498465E-1    7.964830877675065E-2    6.150958256131045E-2   -8.047334822412977E-2    6.169590918243736E-2   -8.066286118760913E-2    9.388809317908771E-1    7.983492277277439E-2
 1.565888266040779E5     9.391210090501982E-1    7.917102441068488E-2    6.139283022701086E-2   -7.999981226409723E-2    6.157492194619520E-2   -8.018707516294338E-2    9.390289823426601E-1    7.934036558457098E-2
 1.577835778430689E5     9.392001490123547E-1    7.868586679086766E-2    6.127181947575628E-2   -7.952265781093319E-2    6.145168979285132E-2   -7.970641663502816E-2    9.391493534893174E-1    7.888223907515753E-2
 1.589874448699104E5     9.393318478972544E-1    7.824548179523012E-2    6.114896888602463E-2   -7.905388830850360E-2    6.133070656876828E-2   -7.923591331513639E-2    9.392491205375901E-1    7.839445503355720E-2
 1.602004972368116E5     9.394812907240855E-1    7.778371620442813E-2    6.103609511672464E-2   -7.858327519702578E-2    6.121539932847143E-2   -7.876847076171280E-2    9.394028572164763E-1    7.793127970936543E-2
 1.614228050266550E5     9.395831617296349E-1    7.730229700041132E-2    6.091391306347259E-2   -7.812024482890885E-2    6.109423535499196E-2   -7.830596910440395E-2    9.395329943337786E-1    7.747267663951082E-2
 1.626544388570473E5     9.396932517426282E-1    7.683814344755754E-2    6.079571898371365E-2   -7.766158842270658E-2    6.097868391771935E-2   -7.784335120352512E-2    9.396321397897401E-1    7.700513770477008E-2
 1.638954698843964E5     9.397990151742464E-1    7.639439802800442E-2    6.067973487234794E-2   -7.719912629074500E-2    6.086075265775808E-2   -7.738728547683003E-2    9.397617435312816E-1    7.654594561786979E-2
 1.651459698080244E5     9.399124224617963E-1    7.593591723152994E-2    6.056451842350680E-2   -7.675194536403611E-2    6.074657762200715E-2   -7.693314995330686E-2    9.398737968135962E-1    7.609504177730915E-2
 1.664060108743095E5     9.400161644820263E-1    7.546618596663447E-2    6.045134268157851E-2   -7.630418682956455E-2    6.063001786121282E-2   -7.648697214912947E-2    9.399772344856399E-1    7.565084109247107E-2
 1.676756658808590E5     9.401460693222005E-1    7.502926493721340E-2    6.033749009979367E-2   -7.586017916839738E-2    6.051456950661963E-2   -7.603928192744282E-2    9.400806938213886E-1    7.519552268778980E-2
 1.689550081807175E5     9.402733889973023E-1    7.458157501299467E-2    6.022234746558250E-2   -7.542584047660453E-2    6.039809747475543E-2   -7.559622776904758E-2    9.401878034791026E-1    7.474609257073617E-2
 1.702441116866020E5     9.403646186202173E-1    7.415246589950844E-2    6.010622004852634E-2   -7.498086921602284E-2    6.028451909573692E-2   -7.516231633400587E-2    9.403152913857937E-1    7.433086724366678E-2
 1.715430508751738E5     9.404775727981159E-1    7.371180906428135E-2    5.999639528914761E-2   -7.454840107679156E-2    6.016993113424472E-2   -7.472883587787178E-2    9.404363287251004E-1    7.387946886848966E-2
 1.728519007913403E5     9.405984530592126E-1    7.328958428675211E-2    5.988136586525195E-2   -7.412014353669433E-2    6.005883965380362E-2   -7.429785900565170E-2    9.405585899384807E-1    7.345731116024379E-2
 1.741707370525927E5     9.406921424924871E-1    7.285675074411087E-2    5.976973360083870E-2   -7.369539100466310E-2    5.994632554925466E-2   -7.386597270419154E-2    9.406781830155191E-1    7.304284455350428E-2
 1.754996358533718E5     9.407871852170540E-1    7.242103418276688E-2    5.965607822936190E-2   -7.327051050700178E-2    5.983451409313519E-2   -7.344939242879488E-2    9.407600682778599E-1    7.259739277010840E-2
 1.768386739694722E5     9.408974259246760E-1    7.199592129294582E-2    5.954560898826072E-2   -7.285388712581778E-2    5.972334553657945E-2   -7.302830580531919E-2    9.409406241599628E-1    7.220943030823976E-2
 1.781879287624771E5     9.409990021892471E-1    7.158986468544178E-2    5.944239747050903E-2   -7.244396719457655E-2    5.961839035314945E-2   -7.261566813581730E-2    9.410629243445174E-1    7.178587509481547E-2
 1.795474781842276E5     9.411049846990228E-1    7.117584879730822E-2    5.932439397635526E-2   -7.202509898621107E-2    5.949951660038074E-2   -7.219739010483087E-2    9.411335683949531E-1    7.136367935561944E-2
 1.809174007813277E5     9.412247579988515E-1    7.076608072061967E-2    5.922006587179757E-2   -7.161776981473897E-2    5.939432728524004E-2   -7.178801141273973E-2    9.412145615548076E-1    7.096177520411694E-2
 1.822977756996804E5     9.413271444392599E-1    7.035120980447410E-2    5.910773821033070E-2   -7.121618570996535E-2    5.927987382633663E-2   -7.138308478602265E-2    9.413333755688835E-1    7.055835038271725E-2
 1.836886826890609E5     9.414449340151533E-1    6.994898207864954E-2    5.899975233911537E-2   -7.081504042577895E-2    5.916925883100133E-2   -7.097605696419629E-2    9.414158501986850E-1    7.013530577664397E-2
 1.850902021077247E5     9.415414979312173E-1    6.956693577146983E-2    5.889645712082947E-2   -7.041712146105696E-2    5.906366386160226E-2   -7.058241471040738E-2    9.415305463802888E-1    6.975043682275414E-2
 1.865024149270491E5     9.416515105550514E-1    6.916489376832402E-2    5.878174600799895E-2   -7.002467018351975E-2    5.895653120805616E-2   -7.018890229463318E-2    9.416337718549409E-1    6.933795489076354E-2
 1.879254027362132E5     9.417934795333003E-1    6.878099607247364E-2    5.868093208241620E-2   -6.963617740076423E-2    5.885338793445646E-2   -6.979662215929079E-2    9.417403529338397E-1    6.895107241529644E-2
 1.893592477469092E5     9.419257263274091E-1    6.836292674429249E-2    5.858392338670238E-2   -6.925947887416288E-2    5.873614371581343E-2   -6.938984874474299E-2    9.418624572001988E-1    6.857428964947840E-2
 1.908040327980933E5     9.420162910967271E-1    6.801936466648814E-2    5.846279923539228E-2   -6.886288415721357E-2    5.863547882959311E-2   -6.902451708935915E-2    9.419765825596574E-1    6.818362240134965E-2
 1.922598413607715E5     9.420994400272101E-1    6.761894621938064E-2    5.835935252275130E-2   -6.848584187969990E-2    5.852693688935096E-2   -6.863707597080540E-2    9.420768306757354E-1    6.778218521550017E-2
 1.937267575428232E5     9.422087179291690E-1    6.725304754494309E-2    5.825621277252662E-2   -6.810365166573509E-2    5.842551638711066E-2   -6.826435525971537E-2    9.421834947846762E-1    6.740846319751159E-2
 1.952048660938581E5     9.423065436194886E-1    6.687115001202931E-2    5.815025185224407E-2   -6.773292353267257E-2    5.831993281369244E-2   -6.788791660153445E-2    9.422773243670979E-1    6.702950717423248E-2
 1.966942524101142E5     9.423913468594128E-1    6.649428964115907E-2    5.804002617511451E-2   -6.736016546100995E-2    5.821358850742038E-2   -6.751813835635637E-2    9.423951114550383E-1    6.665704264444086E-2
 1.981950025393913E5     9.424816765614095E-1    6.612627365172007E-2    5.794301112998684E-2   -6.699412314070013E-2    5.811028529959212E-2   -6.715000435563694E-2    9.424964068712378E-1    6.628758430788523E-2
