#  HZ   S   RI   R     50.00 
! Rohde & Schwarz Vector Network Analyzer 
! Rohde-Schwarz,ZNLE6-2Port,1323001256200024,1.71.1.10-23.02.1.238
! Created: UTC 4/7/2025, 8:37:02 AM
! freq[Hz]                re:S11                  im:S11                  re:S21                  im:S21                  re:S12                  im:S12                  re:S22                  im:S22
 1.000000000000000E5     9.422580671159635E-1    9.913364134723704E-2    5.831086625785421E-2   -9.989849867834211E-2    5.849270610052738E-2   -1.001251221429524E-1    9.420927090452373E-1    9.925532598847647E-2
 1.007629862646662E5     9.424254892622007E-1    9.843834203267568E-2    5.814821063252366E-2   -9.923421171652770E-2    5.833490561016177E-2   -9.945554377874033E-2    9.422622966299697E-1    9.859197789864539E-2
 1.015317940097331E5     9.425617930711182E-1    9.779686824538066E-2    5.799412095455867E-2   -9.857692665819059E-2    5.816521048156480E-2   -9.879337109021387E-2    9.423836675721466E-1    9.791956320191536E-2
 1.023064676522963E5     9.427319013526665E-1    9.712914072091991E-2    5.783356067751624E-2   -9.792747694934660E-2    5.801114740221992E-2   -9.813997367086182E-2    9.425644044521339E-1    9.728033447011296E-2
 1.030870519483485E5     9.428770404850718E-1    9.646503608348690E-2    5.767675216128874E-2   -9.727349978100754E-2    5.785626413561911E-2   -9.748867656261820E-2    9.426816223165255E-1    9.662318298940957E-2
 1.038735919953636E5     9.430366816331281E-1    9.581755509602839E-2    5.752832366535576E-2   -9.662888970029962E-2    5.769880680692402E-2   -9.683366294421035E-2    9.428016914000860E-1    9.598165423490707E-2
 1.046661332349037E5     9.431500220752465E-1    9.518308354131327E-2    5.737923721023333E-2   -9.598672096645280E-2    5.754660279144274E-2   -9.619715389775681E-2    9.429791700222351E-1    9.535173683394475E-2
 1.054647214552430E5     9.432765940686535E-1    9.453627468463760E-2    5.722715289231707E-2   -9.535050830840497E-2    5.739866154490324E-2   -9.556011433945802E-2    9.431307788037551E-1    9.473110276026907E-2
 1.062694027940149E5     9.434260282661474E-1    9.391237890935868E-2    5.707805117183325E-2   -9.472539753030332E-2    5.725479394929924E-2   -9.492519342257352E-2    9.432765542269915E-1    9.411011455425176E-2
 1.070802237408760E5     9.435905551847672E-1    9.328596566951891E-2    5.693082868503678E-2   -9.409516094761340E-2    5.710685508254957E-2   -9.430717621534855E-2    9.434491945206962E-1    9.347831555557869E-2
 1.078972311401927E5     9.437396301774809E-1    9.267216639369727E-2    5.678904550947593E-2   -9.348283414302659E-2    5.696548028716158E-2   -9.368366184329498E-2    9.435828684522733E-1    9.283898259772530E-2
 1.087204721937475E5     9.438821246392007E-1    9.206370833907487E-2    5.664619227918705E-2   -9.286944088112131E-2    5.681536001759117E-2   -9.306148526819134E-2    9.437009975752232E-1    9.223604094859554E-2
 1.095499944634658E5     9.440091450362391E-1    9.144406482660579E-2    5.650522279555405E-2   -9.225017978268719E-2    5.667181050330964E-2   -9.245148117795943E-2    9.437836828824406E-1    9.161792088548058E-2
 1.103858458741646E5     9.441587702987028E-1    9.085020820443156E-2    5.636384927214615E-2   -9.164645671743664E-2    5.653363656014580E-2   -9.184661485960081E-2    9.439789967178759E-1    9.101553378871236E-2
 1.112280747163201E5     9.442800313339886E-1    9.022852472290892E-2    5.622543993907486E-2   -9.105237004108689E-2    5.639685546993708E-2   -9.124322089759469E-2    9.441015069629278E-1    9.041589533145941E-2
 1.120767296488583E5     9.444249206728759E-1    8.965779340151783E-2    5.608615458914855E-2   -9.045137146918872E-2    5.625933203224795E-2   -9.064757826181208E-2    9.442548225626335E-1    8.983003497788337E-2
 1.129318597019661E5     9.445516219457046E-1    8.904404131866468E-2    5.595342866132484E-2   -8.986566597080138E-2    5.612259980776153E-2   -9.005485775878459E-2    9.443803216766964E-1    8.921351714968810E-2
 1.137935142799240E5     9.446996220087693E-1    8.847505599137399E-2    5.582001001316313E-2   -8.927959012806949E-2    5.598661526731684E-2   -8.947092687616258E-2    9.444978023031386E-1    8.865192924130043E-2
 1.146617431639607E5     9.447981051662108E-1    8.789545573042661E-2    5.568981577745104E-2   -8.869627635121757E-2    5.585740003573644E-2   -8.888712557782152E-2    9.446149458825758E-1    8.806712271700969E-2
 1.155365965151286E5     9.449302583037535E-1    8.733378863805155E-2    5.555847676115197E-2   -8.812009222825584E-2    5.572322311636174E-2   -8.830941115196793E-2    9.447699908005024E-1    8.750303651551744E-2
 1.164181248772018E5     9.450252397693920E-1    8.675741676470439E-2    5.542936099140357E-2   -8.754567325315094E-2    5.559283281605174E-2   -8.773196489722367E-2    9.448427642935041E-1    8.691460919490181E-2
 1.173063791795965E5     9.451637639183194E-1    8.616554762026422E-2    5.529564107489105E-2   -8.697549266048828E-2    5.546730069818517E-2   -8.717050623326969E-2    9.449869532218694E-1    8.635332413706785E-2
 1.182014107403141E5     9.452786835528225E-1    8.560943367581592E-2    5.517215632646369E-2   -8.641925180066251E-2    5.533850880304415E-2   -8.660426275889260E-2    9.451190486613245E-1    8.578910349474146E-2
 1.191032712689044E5     9.454170093824448E-1    8.505114065433750E-2    5.504816547152844E-2   -8.585944170653287E-2    5.521255023815931E-2   -8.604247789977996E-2    9.452851177249535E-1    8.524034212448303E-2
 1.200120128694542E5     9.455090543922521E-1    8.448366534414961E-2    5.492386739386535E-2   -8.530639667762381E-2    5.508381503944466E-2   -8.548891714338056E-2    9.453785116208402E-1    8.469129116752845E-2
 1.209276880435975E5     9.456474886451200E-1    8.394959104304274E-2    5.480334119136987E-2   -8.476088993230352E-2    5.496668401836684E-2   -8.493859275721186E-2    9.455167241499699E-1    8.414376736543237E-2
 1.218503496935483E5     9.457951834982268E-1    8.342339590724451E-2    5.468426030412833E-2   -8.421878396040371E-2    5.484174919673399E-2   -8.438940932847155E-2    9.456276923856165E-1    8.360588080813890E-2
 1.227800511251578E5     9.458905154525531E-1    8.287122839851155E-2    5.456237130784609E-2   -8.367435990997524E-2    5.471940171222578E-2   -8.384829640161560E-2    9.457393996511100E-1    8.304077280885222E-2
 1.237168460509929E5     9.460102758671284E-1    8.233105077267262E-2    5.444769933520292E-2   -8.314247750022073E-2    5.460187375231664E-2   -8.331270064592321E-2    9.458685630648888E-1    8.252817238698150E-2
 1.246607885934402E5     9.460870415012606E-1    8.179197508198804E-2    5.432091278388718E-2   -8.260766859450437E-2    5.447847606262626E-2   -8.277724863004060E-2    9.459694424640720E-1    8.197719755685810E-2
 1.256119332878327E5     9.462280316908509E-1    8.128873483400706E-2    5.420868382571733E-2   -8.207993720372854E-2    5.436294901855055E-2   -8.225568391382386E-2    9.460990825668002E-1    8.145459914295436E-2
 1.265703350856002E5     9.463406765723167E-1    8.073844245032695E-2    5.408952838041769E-2   -8.155773665426273E-2    5.424718251158423E-2   -8.172800843236526E-2    9.462804108391307E-1    8.093894948255682E-2
 1.275360493574453E5     9.464585107213150E-1    8.022228727434491E-2    5.397341569739321E-2   -8.103595724489519E-2    5.413334727141426E-2   -8.120272436370611E-2    9.463582020724155E-1    8.040530461151761E-2
 1.285091318965405E5     9.465638665124219E-1    7.971759298672811E-2    5.385769226935558E-2   -8.052527362793159E-2    5.401933645923660E-2   -8.069362771973274E-2    9.464636671001171E-1    7.989553863043412E-2
 1.294896389217529E5     9.466533657703853E-1    7.919089711356707E-2    5.374605958751751E-2   -8.001126881470522E-2    5.390670144428390E-2   -8.018015093122104E-2    9.466121597093181E-1    7.939183378998314E-2
 1.304776270808914E5     9.467608270963468E-1    7.869495666253928E-2    5.363434812996255E-2   -7.950276340036511E-2    5.379249023702710E-2   -7.967150249003500E-2    9.467034217414607E-1    7.888891000272746E-2
 1.314731534539810E5     9.468490379673924E-1    7.818193834009848E-2    5.352239056972937E-2   -7.900597300144552E-2    5.368043952398579E-2   -7.916754916148670E-2    9.467806869658478E-1    7.838151366569628E-2
 1.324762755565583E5     9.469931700738891E-1    7.769341836059698E-2    5.341278784329242E-2   -7.850901557586001E-2    5.357292460458368E-2   -7.867181643401382E-2    9.469068404790948E-1    7.788930920985664E-2
 1.334870513429962E5     9.470893067336621E-1    7.718750949535338E-2    5.330739404923185E-2   -7.801499023538941E-2    5.346320596993052E-2   -7.817707718535033E-2    9.470459060137767E-1    7.740320192473481E-2
 1.345055392098512E5     9.471993170385385E-1    7.670247512798224E-2    5.319775282019210E-2   -7.752781809231063E-2    5.335623389807687E-2   -7.768838162577352E-2    9.471473941086365E-1    7.689033982078601E-2
 1.355317979992373E5     9.473100900039649E-1    7.622840686677866E-2    5.309110509839868E-2   -7.703910161918290E-2    5.324783262941808E-2   -7.719858969983377E-2    9.472550416673631E-1    7.642638827972022E-2
 1.365658870022265E5     9.474252407558489E-1    7.574402641772453E-2    5.298716245181983E-2   -7.655916720011516E-2    5.314205505495636E-2   -7.671645480874845E-2    9.473275361495672E-1    7.594156603632610E-2
 1.376078659622731E5     9.475556166270482E-1    7.526621849037927E-2    5.288582538134015E-2   -7.608285108536009E-2    5.303418878317306E-2   -7.623910754360436E-2    9.474351320785727E-1    7.545811329962257E-2
 1.386577950786655E5     9.476422773418273E-1    7.481866945941625E-2    5.277822568059060E-2   -7.560900595225931E-2    5.293037736687047E-2   -7.576264226995351E-2    9.475283436186791E-1    7.498262210795081E-2
 1.397157350100044E5     9.477648553305564E-1    7.433947653280033E-2    5.267815920352405E-2   -7.514141024691642E-2    5.282858604942292E-2   -7.529103296685179E-2    9.476713945280267E-1    7.451863520120329E-2
 1.407817468777081E5     9.478429625539806E-1    7.386818929237929E-2    5.257039387010525E-2   -7.467122478106740E-2    5.272405091669070E-2   -7.482599669148760E-2    9.477566237520773E-1    7.404392405756839E-2
 1.418558922695422E5     9.479591474776221E-1    7.339988482730385E-2    5.246985707690507E-2   -7.421685150144229E-2    5.262450220626151E-2   -7.436055608289689E-2    9.478584973141143E-1    7.357518987375158E-2
 1.429382332431784E5     9.480584200931225E-1    7.295048605884211E-2    5.236838930674149E-2   -7.375258853623684E-2    5.251912618570251E-2   -7.390225051541338E-2    9.479657991099484E-1    7.312325221573499E-2
 1.440288323297804E5     9.481506220515431E-1    7.250340595715232E-2    5.226884570078227E-2   -7.330172751051615E-2    5.241851548903309E-2   -7.345010437574033E-2    9.480592879048684E-1    7.266808946208249E-2
 1.451277525376154E5     9.482151124889857E-1    7.202903562622630E-2    5.216759750125764E-2   -7.285013298276423E-2    5.231799964857656E-2   -7.299442080050285E-2    9.481802076381903E-1    7.222860694569982E-2
 1.462350573556962E5     9.482963788363182E-1    7.158742138197535E-2    5.206881551501995E-2   -7.240239303074665E-2    5.221876226652922E-2   -7.254686485111803E-2    9.482492129980937E-1    7.178640945522317E-2
 1.473508107574468E5     9.484169610778751E-1    7.115437898276518E-2    5.197361240164170E-2   -7.196009630192517E-2    5.211875451239111E-2   -7.210206426509444E-2    9.483389672961696E-1    7.133918013067050E-2
 1.484750772044004E5     9.485107209699473E-1    7.070293087482513E-2    5.187381302880863E-2   -7.152539630884798E-2    5.202306979320844E-2   -7.166492655113102E-2    9.484324846405386E-1    7.089729004873990E-2
 1.496079216499225E5     9.486225061395677E-1    7.028002848325000E-2    5.177735319044969E-2   -7.108727706285273E-2    5.192712456537948E-2   -7.122974836540022E-2    9.485392124081524E-1    7.046225034637810E-2
 1.507494095429637E5     9.487093823056812E-1    6.985046466945398E-2    5.168081914887489E-2   -7.065483843913353E-2    5.182735236284392E-2   -7.079310332871966E-2    9.486249285563159E-1    7.003142272042778E-2
 1.518996068318418E5     9.488238152240637E-1    6.943394236517944E-2    5.158235633214264E-2   -7.022468846044122E-2    5.173374611909811E-2   -7.036621855521037E-2    9.487532280509288E-1    6.959521969794062E-2
 1.530585799680507E5     9.488901521672231E-1    6.899712690338224E-2    5.148841164853338E-2   -6.979933566184043E-2    5.163916703933540E-2   -6.994167643328081E-2    9.488531794265910E-1    6.917318321104046E-2
 1.542263959101001E5     9.489603421309127E-1    6.855299295100863E-2    5.138920214678806E-2   -6.937667723760552E-2    5.154491151129788E-2   -6.951954814290057E-2    9.489472303445626E-1    6.875139990430880E-2
 1.554031221273835E5     9.490663279254640E-1    6.814076425539692E-2    5.129810710639095E-2   -6.896228444497171E-2    5.144468827134868E-2   -6.910055450572877E-2    9.490265749720961E-1    6.833023199097356E-2
 1.565888266040779E5     9.491853282511218E-1    6.773630020334583E-2    5.120824741016832E-2   -6.854967416487577E-2    5.135490011387250E-2   -6.868621300724577E-2    9.491117408032801E-1    6.790337711651218E-2
 1.577835778430689E5     9.492917932047428E-1    6.733609837650092E-2    5.111737864518259E-2   -6.813682616306799E-2    5.125823470961273E-2   -6.826964233816440E-2    9.491955291334623E-1    6.750089138215334E-2
 1.589874448699104E5     9.493481259964491E-1    6.693198392298816E-2    5.101961786450050E-2   -6.773402701404313E-2    5.116940434597667E-2   -6.786773105110422E-2    9.492943838877883E-1    6.707357434214473E-2
 1.602004972368116E5     9.494528203678840E-1    6.653187037181604E-2    5.093048652431574E-2   -6.732854241924084E-2    5.107800777578192E-2   -6.746257943790611E-2    9.494081663752859E-1    6.667572180329470E-2
 1.614228050266550E5     9.495544196310104E-1    6.612170850266234E-2    5.083895917955625E-2   -6.693224604669901E-2    5.099186248056165E-2   -6.706189472524451E-2    9.495147443438023E-1    6.628363258169984E-2
 1.626544388570473E5     9.496621186872457E-1    6.572597799264403E-2    5.075097417169436E-2   -6.653378046997617E-2    5.089613013027625E-2   -6.666455218373868E-2    9.495959813206265E-1    6.588051702323793E-2
 1.638954698843964E5     9.497469704592676E-1    6.533093944101609E-2    5.065550038720941E-2   -6.613763577709234E-2    5.080581290185485E-2   -6.627008146395585E-2    9.496707271544317E-1    6.549675843476017E-2
 1.651459698080244E5     9.498485079693086E-1    6.494542335776964E-2    5.056632813193958E-2   -6.575065544240789E-2    5.071801272709598E-2   -6.588263861006138E-2    9.497398729521825E-1    6.509150733291647E-2
 1.664060108743095E5     9.499274744149958E-1    6.454193473847269E-2    5.048023120523217E-2   -6.536387338854747E-2    5.062605631879503E-2   -6.549126831414122E-2    9.498287407369388E-1    6.471786275480440E-2
 1.676756658808590E5     9.500141811335067E-1    6.416506935705271E-2    5.039309247318477E-2   -6.497940337550967E-2    5.053417717920212E-2   -6.511038047941817E-2    9.499286826504250E-1    6.432363484411448E-2
 1.689550081807175E5     9.500849793256122E-1    6.378344542001652E-2    5.030494047326028E-2   -6.460003756645358E-2    5.044955917270571E-2   -6.472630372014462E-2    9.500310656695981E-1    6.392354874438834E-2
 1.702441116866020E5     9.501853052118346E-1    6.340240170406582E-2    5.021208223157605E-2   -6.421918594024634E-2    5.036087844606645E-2   -6.435263798913596E-2    9.501191635811216E-1    6.356894009980640E-2
 1.715430508751738E5     9.502498254507454E-1    6.301614725992390E-2    5.012726020086000E-2   -6.385313306903594E-2    5.027258590040366E-2   -6.397848096007189E-2    9.502015120332645E-1    6.319870651958992E-2
 1.728519007913403E5     9.503536961518323E-1    6.266329095724096E-2    5.004024644763423E-2   -6.347643003216555E-2    5.018589488153150E-2   -6.360491179609921E-2    9.503043291765557E-1    6.282955661718152E-2
 1.741707370525927E5     9.504400513205699E-1    6.230231685947090E-2    4.995291567866020E-2   -6.311369705566522E-2    5.009486776963810E-2   -6.323774486928047E-2    9.503889386590002E-1    6.245602264089346E-2
 1.754996358533718E5     9.505493805008841E-1    6.193394445085362E-2    4.986616314999299E-2   -6.275226199635549E-2    5.001287118247005E-2   -6.287314081281663E-2    9.504679275221153E-1    6.208147584476809E-2
 1.768386739694722E5     9.506248105014544E-1    6.155010633908593E-2    4.977631745654153E-2   -6.238845517883653E-2    4.992466685620146E-2   -6.251149754210771E-2    9.506116402669665E-1    6.174283545516206E-2
 1.781879287624771E5     9.507061895263501E-1    6.120836355521889E-2    4.969450196019687E-2   -6.203481332001496E-2    4.984114329365526E-2   -6.215451525260075E-2    9.507127539504110E-1    6.138858499830462E-2
 1.795474781842276E5     9.507937232227651E-1    6.084419190073751E-2    4.960811134321400E-2   -6.167535671461460E-2    4.975410301993389E-2   -6.179608095468833E-2    9.507899574416081E-1    6.101984368672626E-2
 1.809174007813277E5     9.508991489817503E-1    6.049637387580056E-2    4.952302586756021E-2   -6.132480196976105E-2    4.966483473035077E-2   -6.144287439437673E-2    9.508360065801322E-1    6.066993335578931E-2
 1.822977756996804E5     9.509618596662008E-1    6.013822387241170E-2    4.943459727488173E-2   -6.097786763464701E-2    4.958088178218914E-2   -6.109194539817190E-2    9.509263588309590E-1    6.031900458381627E-2
 1.836886826890609E5     9.510711522749943E-1    5.981166344131376E-2    4.935379647890095E-2   -6.063533153148656E-2    4.948921885914307E-2   -6.074351957948170E-2    9.509982509107172E-1    5.995259896035129E-2
 1.850902021077247E5     9.511454665958300E-1    5.945775860120793E-2    4.927015447675544E-2   -6.029145066490849E-2    4.940965259249108E-2   -6.039936822917465E-2    9.510932119450356E-1    5.961216261468788E-2
 1.865024149270491E5     9.512466739795581E-1    5.910533970915527E-2    4.918786885304796E-2   -5.995198058603918E-2    4.932352248506104E-2   -6.006069894578479E-2    9.511740175717047E-1    5.927312803893049E-2
 1.879254027362132E5     9.513082512227865E-1    5.878034851823417E-2    4.909897206170134E-2   -5.961418373049263E-2    4.924400316851194E-2   -5.972481387942498E-2    9.512761227996172E-1    5.892623360224339E-2
 1.893592477469092E5     9.513694425804502E-1    5.843447023357411E-2    4.901365174221889E-2   -5.926168113043367E-2    4.914987435350437E-2   -5.940104166944254E-2    9.513485915240396E-1    5.856468444277625E-2
 1.908040327980933E5     9.514736478698670E-1    5.811523526044963E-2    4.893405151673712E-2   -5.894811779144219E-2    4.906872976270835E-2   -5.905595732400887E-2    9.514037449806400E-1    5.826447797221358E-2
 1.922598413607715E5     9.515509119080773E-1    5.777977089081358E-2    4.884862383465450E-2   -5.862490324284573E-2    4.898616329431140E-2   -5.872480748902406E-2    9.515188291174258E-1    5.792604762266879E-2
 1.937267575428232E5     9.516092429114333E-1    5.744110458491242E-2    4.876179180428234E-2   -5.829544097111179E-2    4.890783092533324E-2   -5.840579952609399E-2    9.516156038301672E-1    5.760661150907551E-2
 1.952048660938581E5     9.517168475590700E-1    5.712947222836729E-2    4.868085570081631E-2   -5.797554542562836E-2    4.882257636858655E-2   -5.808339942444779E-2    9.516793099553470E-1    5.726621999818976E-2
 1.966942524101142E5     9.517678289488675E-1    5.678459939624374E-2    4.859786689787392E-2   -5.765716284880758E-2    4.874313740108243E-2   -5.776402239356204E-2    9.517916754827273E-1    5.695133007835870E-2
 1.981950025393913E5     9.518270257142795E-1    5.647903879814260E-2    4.851677207698316E-2   -5.733319255810392E-2    4.865437715137881E-2   -5.744431836513141E-2    9.518582596942493E-1    5.663112221435996E-2
