#  HZ   S   RI   R     50.00 
! Rohde & Schwarz Vector Network Analyzer 
! Rohde-Schwarz,ZNLE6-2Port,1323001256200024,1.71.1.10-23.02.1.238
! Created: UTC 4/7/2025, 8:28:55 AM
! freq[Hz]                re:S11                  im:S11                  re:S21                  im:S21                  re:S12                  im:S12                  re:S22                  im:S22
 1.000000000000000E5     9.516828822627286E-1    8.601766443586169E-2    4.882597814543865E-2   -8.669056738382573E-2    4.898099976130737E-2   -8.689572108009055E-2    9.515328520887943E-1    8.613905049489429E-2
 1.007629862646662E5     9.518318160211583E-1    8.541068207767445E-2    4.870256846464219E-2   -8.611180787217421E-2    4.886183980971076E-2   -8.631624329601938E-2    9.516722454917427E-1    8.555831401639871E-2
 1.015317940097331E5     9.519290007606548E-1    8.483723944378534E-2    4.858370912820887E-2   -8.553219377742480E-2    4.873181394038683E-2   -8.573619292559417E-2    9.517912829998136E-1    8.497367036585778E-2
 1.023064676522963E5     9.520442524068592E-1    8.424573617868167E-2    4.846782240953598E-2   -8.496349547477652E-2    4.861411080673649E-2   -8.516044675505169E-2    9.519041784064638E-1    8.439905534969179E-2
 1.030870519483485E5     9.521425608911936E-1    8.368410229956912E-2    4.834680520002323E-2   -8.439065773954060E-2    4.849642116414415E-2   -8.459059753940072E-2    9.519920878466790E-1    8.382257070172328E-2
 1.038735919953636E5     9.522676937917844E-1    8.310738317125996E-2    4.823041948206370E-2   -8.382909767047605E-2    4.837786998254157E-2   -8.402187461333155E-2    9.520934310185004E-1    8.326859068350341E-2
 1.046661332349037E5     9.523684479260357E-1    8.256001880897512E-2    4.811655210702036E-2   -8.327148741800570E-2    4.826008498664026E-2   -8.346475979812069E-2    9.522017844712983E-1    8.270171061665473E-2
 1.054647214552430E5     9.524563749153622E-1    8.197566392089690E-2    4.799952286965825E-2   -8.271456150576846E-2    4.814431706942739E-2   -8.291152298549785E-2    9.523710912723242E-1    8.214436525745875E-2
 1.062694027940149E5     9.525874231652605E-1    8.145036312139403E-2    4.788590502808646E-2   -8.216495379777118E-2    4.803593533426770E-2   -8.235713311941245E-2    9.524693600403454E-1    8.161434826521796E-2
 1.070802237408760E5     9.527140125774143E-1    8.088940477592318E-2    4.777680525149085E-2   -8.162034220525774E-2    4.792419500255191E-2   -8.181066497233383E-2    9.525999124271113E-1    8.107650621894953E-2
 1.078972311401927E5     9.528131588060933E-1    8.034137503696777E-2    4.766860134679036E-2   -8.108170888974101E-2    4.781322597895657E-2   -8.127015439488709E-2    9.527045963116511E-1    8.052728431445605E-2
 1.087204721937475E5     9.528979206453015E-1    7.981387133263300E-2    4.755576760301222E-2   -8.054066720185334E-2    4.770153669549848E-2   -8.072675979138026E-2    9.527963697474485E-1    7.999307383901010E-2
 1.095499944634658E5     9.530519849654617E-1    7.927553003310635E-2    4.745119376191724E-2   -8.001452480829718E-2    4.759819285749528E-2   -8.019449698391742E-2    9.528869603054239E-1    7.946304339278788E-2
 1.103858458741646E5     9.531243876455227E-1    7.874795265798509E-2    4.734198823051871E-2   -7.947663884801889E-2    4.748449664819050E-2   -7.966630663096090E-2    9.530006282443984E-1    7.893277306840743E-2
 1.112280747163201E5     9.532449270953730E-1    7.821320829219965E-2    4.723774522673437E-2   -7.895817648344140E-2    4.738205805224890E-2   -7.914028370690897E-2    9.531376190790700E-1    7.840411613111892E-2
 1.120767296488583E5     9.533248446673704E-1    7.768890149826577E-2    4.712860838498242E-2   -7.843204662357442E-2    4.727643491726469E-2   -7.861912799185802E-2    9.532377192367539E-1    7.788917731050256E-2
 1.129318597019661E5     9.534063023982799E-1    7.718630900090916E-2    4.702702232954523E-2   -7.791971726921636E-2    4.717084141837354E-2   -7.810025126282602E-2    9.533196216812341E-1    7.733830086610115E-2
 1.137935142799240E5     9.535407403938868E-1    7.668626945056524E-2    4.692399379806394E-2   -7.741056416546455E-2    4.706407604724841E-2   -7.758685431398675E-2    9.534134981340866E-1    7.685404319677841E-2
 1.146617431639607E5     9.536221463164052E-1    7.616853301105801E-2    4.682131548997729E-2   -7.689940732537888E-2    4.696546651353230E-2   -7.708032852207700E-2    9.535018045100861E-1    7.634428959931501E-2
 1.155365965151286E5     9.537303605357869E-1    7.568639369273630E-2    4.672835830222037E-2   -7.639462042526463E-2    4.686489901451826E-2   -7.657562988149551E-2    9.536253012365138E-1    7.585863030818564E-2
 1.164181248772018E5     9.538124711689562E-1    7.517021928676458E-2    4.662458460851448E-2   -7.589560503982427E-2    4.676639551375430E-2   -7.607184653219796E-2    9.536955289089558E-1    7.534448778915570E-2
 1.173063791795965E5     9.539214783247305E-1    7.466473022437488E-2    4.652983853858668E-2   -7.539971841046268E-2    4.667386107118448E-2   -7.558124123731841E-2    9.538133314521844E-1    7.486439900279485E-2
 1.182014107403141E5     9.540102738870923E-1    7.419113870553642E-2    4.643519390970741E-2   -7.491180429574654E-2    4.656955372595249E-2   -7.508898214658900E-2    9.539050643100231E-1    7.436455147913917E-2
 1.191032712689044E5     9.540939301601205E-1    7.369048828434141E-2    4.633844183341385E-2   -7.442559763588130E-2    4.647459805698820E-2   -7.459927584541053E-2    9.540311989070509E-1    7.388068912810115E-2
 1.200120128694542E5     9.541387756523196E-1    7.320028293299199E-2    4.624000116465685E-2   -7.394098232785212E-2    4.637804309993070E-2   -7.411554473287721E-2    9.541346031281270E-1    7.339505152492243E-2
 1.209276880435975E5     9.542687988080759E-1    7.273421497866930E-2    4.614267636390829E-2   -7.346094170179898E-2    4.628520390221592E-2   -7.363438525958506E-2    9.542462092810670E-1    7.291966110525305E-2
 1.218503496935483E5     9.543689522599768E-1    7.227379214100133E-2    4.605512215780749E-2   -7.298666247389436E-2    4.618873739149904E-2   -7.315521254862581E-2    9.543060934615204E-1    7.245393936166204E-2
 1.227800511251578E5     9.544569995185550E-1    7.179841288808526E-2    4.596302529116379E-2   -7.251434366160549E-2    4.609532843689654E-2   -7.268438371777736E-2    9.543847450548015E-1    7.195284887083024E-2
 1.237168460509929E5     9.545410752067938E-1    7.132889538241291E-2    4.587063180977244E-2   -7.204939724149481E-2    4.600556138990858E-2   -7.221848213582419E-2    9.544858287576242E-1    7.150470663355535E-2
 1.246607885934402E5     9.546210268370409E-1    7.086806502963545E-2    4.577658251213371E-2   -7.158737624337505E-2    4.591142747963354E-2   -7.174835484519004E-2    9.545731892479983E-1    7.103616901558708E-2
 1.256119332878327E5     9.547274971571104E-1    7.042523839932747E-2    4.568808495714353E-2   -7.112682174703928E-2    4.581992177215204E-2   -7.129231458290193E-2    9.546855596604575E-1    7.057014070209683E-2
 1.265703350856002E5     9.548253735471649E-1    6.995281611822263E-2    4.559731624741804E-2   -7.066805030272197E-2    4.573193265126283E-2   -7.083268933654698E-2    9.547854252440586E-1    7.012879759220551E-2
 1.275360493574453E5     9.549182716225374E-1    6.948677967618991E-2    4.551032871334369E-2   -7.021881490009997E-2    4.564441928700567E-2   -7.037676210839848E-2    9.548627711087814E-1    6.967023103833277E-2
 1.285091318965405E5     9.550154010349658E-1    6.903336349371880E-2    4.541737950959594E-2   -6.976793471770247E-2    4.555052024676012E-2   -6.992352661403391E-2    9.548921343307610E-1    6.921317251246563E-2
 1.294896389217529E5     9.550681880626916E-1    6.858988219030053E-2    4.533053377035458E-2   -6.931729222976728E-2    4.546425345502803E-2   -6.947958048168665E-2    9.550251169596712E-1    6.877070134034613E-2
 1.304776270808914E5     9.551300811036083E-1    6.814723170034447E-2    4.524556933872723E-2   -6.887781239662100E-2    4.537880242016548E-2   -6.903948415265491E-2    9.551076221396081E-1    6.833870765967398E-2
 1.314731534539810E5     9.552036437637833E-1    6.770867791435431E-2    4.515757905867192E-2   -6.844048564763366E-2    4.529104822398898E-2   -6.859638714208142E-2    9.551719941833763E-1    6.788902791913891E-2
 1.324762755565583E5     9.553392440140019E-1    6.727296918638970E-2    4.507745299843367E-2   -6.800857846286873E-2    4.520737689427355E-2   -6.816108438132951E-2    9.552617423134493E-1    6.747250135821160E-2
 1.334870513429962E5     9.553908507111810E-1    6.686265513801977E-2    4.499415821425280E-2   -6.757964339256566E-2    4.512373019984971E-2   -6.773380209517645E-2    9.553938884601993E-1    6.705934134314009E-2
 1.345055392098512E5     9.554923638492769E-1    6.642963431923575E-2    4.490845997670243E-2   -6.715015527597885E-2    4.503736141023306E-2   -6.730791644627973E-2    9.554656117607940E-1    6.660870731201586E-2
 1.355317979992373E5     9.555673826337525E-1    6.600382199692882E-2    4.482632785011385E-2   -6.673002970008358E-2    4.495322016000557E-2   -6.688458813348448E-2    9.555336180932860E-1    6.619229803361806E-2
 1.365658870022265E5     9.556404467461627E-1    6.558296305189765E-2    4.474211386924769E-2   -6.630692239465434E-2    4.487347552784936E-2   -6.646111511332994E-2    9.556074114714849E-1    6.575699770967879E-2
 1.376078659622731E5     9.557732402435429E-1    6.516371236023727E-2    4.466510604932825E-2   -6.589834589376865E-2    4.479104468298494E-2   -6.604340125545395E-2    9.556983122786368E-1    6.534447823790397E-2
 1.386577950786655E5     9.558254370941498E-1    6.476299048688165E-2    4.458432858738472E-2   -6.547983751375822E-2    4.471015944781718E-2   -6.562867868198609E-2    9.557593647860791E-1    6.492946747317863E-2
 1.397157350100044E5     9.559046688449953E-1    6.435318101961365E-2    4.450143067762336E-2   -6.507054673736250E-2    4.462941117152845E-2   -6.521717405050881E-2    9.558483559288908E-1    6.451667021824292E-2
 1.407817468777081E5     9.560052081781517E-1    6.394925746412634E-2    4.442203129625803E-2   -6.466448182141740E-2    4.454913372830901E-2   -6.481173310870289E-2    9.559191871517310E-1    6.410960878717083E-2
 1.418558922695422E5     9.560846032120692E-1    6.355322196862477E-2    4.434157847862687E-2   -6.426343494961566E-2    4.447100270318958E-2   -6.440615096547467E-2    9.560139131634465E-1    6.370426731906016E-2
 1.429382332431784E5     9.561477418480268E-1    6.315946140556652E-2    4.426221088006103E-2   -6.386056082360057E-2    4.439126773017893E-2   -6.400845760097940E-2    9.560995294103733E-1    6.331717158031498E-2
 1.440288323297804E5     9.562045459383920E-1    6.276217062884079E-2    4.418567124669375E-2   -6.346363958810849E-2    4.431473653036880E-2   -6.361223466025538E-2    9.561681435710863E-1    6.291200808744957E-2
 1.451277525376154E5     9.562502317619302E-1    6.235408347378658E-2    4.410626549441604E-2   -6.307485353010080E-2    4.423394909351781E-2   -6.322070115694427E-2    9.562705290994444E-1    6.253396926537307E-2
 1.462350573556962E5     9.563501242953963E-1    6.197888623446005E-2    4.403164883723289E-2   -6.268273893864817E-2    4.415430930364476E-2   -6.282748088665571E-2    9.563281668208315E-1    6.212871446371234E-2
 1.473508107574468E5     9.564183079677863E-1    6.159394801483810E-2    4.395166005755988E-2   -6.229841454283019E-2    4.407608969488356E-2   -6.243898810249658E-2    9.564049797545215E-1    6.173598470543940E-2
 1.484750772044004E5     9.564998630519154E-1    6.120443877568375E-2    4.387672271819695E-2   -6.191404877865021E-2    4.400313863746264E-2   -6.205559955674562E-2    9.564503495555233E-1    6.136586771823421E-2
 1.496079216499225E5     9.565504733643078E-1    6.080769126165811E-2    4.379821147218690E-2   -6.154023921545584E-2    4.392474821153381E-2   -6.168064271154504E-2    9.565449597428191E-1    6.097502790622544E-2
 1.507494095429637E5     9.566426104882709E-1    6.044431506177662E-2    4.372285982995317E-2   -6.115962047144256E-2    4.385072241901167E-2   -6.129958868586388E-2    9.566113477840446E-1    6.060951757012891E-2
 1.518996068318418E5     9.567170322074826E-1    6.008141714548890E-2    4.364776038787257E-2   -6.078527144074517E-2    4.377533557077147E-2   -6.092686669372788E-2    9.567181260241747E-1    6.023075878030242E-2
 1.530585799680507E5     9.568104681705769E-1    5.969746407819279E-2    4.357640776153971E-2   -6.041201533603431E-2    4.369910988237491E-2   -6.055565579277129E-2    9.567735131921277E-1    5.985937255127860E-2
 1.542263959101001E5     9.568594900245013E-1    5.930991280664488E-2    4.349694454034832E-2   -6.004853041641298E-2    4.362428270588214E-2   -6.018640863299985E-2    9.568410905230164E-1    5.949494848884023E-2
 1.554031221273835E5     9.569554026993686E-1    5.895912004439748E-2    4.342566949981014E-2   -5.968372004458378E-2    4.355097977322843E-2   -5.982297557159320E-2    9.568972806314894E-1    5.912031442903930E-2
 1.565888266040779E5     9.570241442528433E-1    5.862032401167949E-2    4.335296434068036E-2   -5.932387413122116E-2    4.347495681145034E-2   -5.946173310328254E-2    9.569759008925627E-1    5.875852487732576E-2
 1.577835778430689E5     9.570842790737408E-1    5.824013685532584E-2    4.327846703974340E-2   -5.896701655903901E-2    4.340445820943403E-2   -5.910351104369953E-2    9.570681368085016E-1    5.841045735309135E-2
 1.589874448699104E5     9.571459639362087E-1    5.790024251277266E-2    4.320345846666552E-2   -5.861181681098990E-2    4.333043786367551E-2   -5.874899190335066E-2    9.571525518772378E-1    5.801766062739650E-2
 1.602004972368116E5     9.572378249611759E-1    5.755068968077089E-2    4.313043059043708E-2   -5.825844361152883E-2    4.325850757589450E-2   -5.839991913806653E-2    9.572718062242991E-1    5.768060044666662E-2
 1.614228050266550E5     9.573052068470947E-1    5.718318006725241E-2    4.306085541352533E-2   -5.791332693916329E-2    4.318781951424916E-2   -5.804880749485637E-2    9.572984853777520E-1    5.732672062983234E-2
 1.626544388570473E5     9.573805901460611E-1    5.684866369684158E-2    4.298842925863627E-2   -5.756532735160231E-2    4.311420917069988E-2   -5.770021057873349E-2    9.573442385757284E-1    5.697705248410578E-2
 1.638954698843964E5     9.574500788517745E-1    5.651212494084455E-2    4.291715092414327E-2   -5.722179908951291E-2    4.304681672121884E-2   -5.736098767855344E-2    9.574577837551939E-1    5.665584012278556E-2
 1.651459698080244E5     9.575468275575495E-1    5.615696055980401E-2    4.284924002028834E-2   -5.688277572168391E-2    4.297563886268942E-2   -5.701904887910782E-2    9.575016515794937E-1    5.630747709993307E-2
 1.664060108743095E5     9.576021025500527E-1    5.581442502449536E-2    4.278032249417157E-2   -5.654872391166611E-2    4.290016923537770E-2   -5.668333375930443E-2    9.575820701266632E-1    5.595534734288730E-2
 1.676756658808590E5     9.576845610117782E-1    5.547219123452325E-2    4.270631602775327E-2   -5.621572811142827E-2    4.283485035319644E-2   -5.634340803874795E-2    9.576395406014161E-1    5.562459124691922E-2
 1.689550081807175E5     9.577379916762366E-1    5.515482155677921E-2    4.264073222554367E-2   -5.588357642523326E-2    4.276159225639944E-2   -5.601187017562600E-2    9.577317857371084E-1    5.529248869071418E-2
 1.702441116866020E5     9.577985470767651E-1    5.482308607439898E-2    4.256874302803576E-2   -5.555296042344226E-2    4.269029156673113E-2   -5.568663916851337E-2    9.578139115578507E-1    5.497491054543527E-2
 1.715430508751738E5     9.578649262169985E-1    5.448733579307809E-2    4.249734383866644E-2   -5.522978584156157E-2    4.262485084309756E-2   -5.535968274792365E-2    9.578540257780673E-1    5.463771634943480E-2
 1.728519007913403E5     9.579532190283980E-1    5.417067923947892E-2    4.242871450582213E-2   -5.491036981266745E-2    4.255120707889498E-2   -5.503575004221496E-2    9.579482899884396E-1    5.430824998933168E-2
 1.741707370525927E5     9.580003810837460E-1    5.383298258162689E-2    4.235968889594603E-2   -5.458531962530436E-2    4.248421590042132E-2   -5.471167979453532E-2    9.580095744845396E-1    5.400552226983039E-2
 1.754996358533718E5     9.580572023135002E-1    5.352378999041234E-2    4.229171544441250E-2   -5.426962343328012E-2    4.241500554163161E-2   -5.439918676475500E-2    9.580556765533371E-1    5.366148672186400E-2
 1.768386739694722E5     9.581342345041767E-1    5.319780193735735E-2    4.222388388132181E-2   -5.395377653699621E-2    4.234310934660755E-2   -5.408317481225182E-2    9.581620925637582E-1    5.337063158023753E-2
 1.781879287624771E5     9.581971928311026E-1    5.288620116635277E-2    4.215686263477289E-2   -5.364610455869619E-2    4.227647953746711E-2   -5.376990840352049E-2    9.582325170406836E-1    5.304524081170128E-2
 1.795474781842276E5     9.582735545871037E-1    5.257404718454024E-2    4.208481216123398E-2   -5.333283072627804E-2    4.220534057965809E-2   -5.345971037633208E-2    9.582872397543201E-1    5.274344486618136E-2
 1.809174007813277E5     9.583465799074200E-1    5.227071813773867E-2    4.201614190357254E-2   -5.302539768246659E-2    4.213660602381840E-2   -5.315031739607155E-2    9.583338833622739E-1    5.242711144035162E-2
 1.822977756996804E5     9.583808887805431E-1    5.196790197489372E-2    4.194816496602030E-2   -5.272492112193011E-2    4.206446101110762E-2   -5.284800462717966E-2    9.583985205805068E-1    5.213002292751166E-2
 1.836886826890609E5     9.584694587401899E-1    5.168112829777097E-2    4.188132710361678E-2   -5.242257567806102E-2    4.199734032944649E-2   -5.254102851258873E-2    9.584621316156503E-1    5.181488471407050E-2
 1.850902021077247E5     9.585498406109761E-1    5.137266534737774E-2    4.181196270586629E-2   -5.212768049572410E-2    4.193130401856855E-2   -5.224601763106328E-2    9.585209429262807E-1    5.150493319312480E-2
 1.865024149270491E5     9.586369678003455E-1    5.108256015287893E-2    4.174833336161984E-2   -5.183019568668987E-2    4.186368808164999E-2   -5.194674577388378E-2    9.585698400787913E-1    5.121440023991331E-2
 1.879254027362132E5     9.586823175322846E-1    5.078503743040751E-2    4.167702644900761E-2   -5.153536720368078E-2    4.179823617702043E-2   -5.165596337446325E-2    9.586511720558133E-1    5.090629553467125E-2
 1.893592477469092E5     9.587578057397207E-1    5.041589392486590E-2    4.160292424434861E-2   -5.124210397044698E-2    4.174987517436175E-2   -5.135848004923784E-2    9.587575683405983E-1    5.064467863018580E-2
 1.908040327980933E5     9.588176935078538E-1    5.021423734581828E-2    4.154437284229998E-2   -5.095507335725830E-2    4.166130941771243E-2   -5.107699444983919E-2    9.588039773885498E-1    5.033884138640133E-2
 1.922598413607715E5     9.588503009684822E-1    4.990183074811886E-2    4.147402932264472E-2   -5.066963551687836E-2    4.159145351166020E-2   -5.078805150705752E-2    9.588786640026372E-1    5.004036150613968E-2
 1.937267575428232E5     9.589332993779496E-1    4.962658171557504E-2    4.140788690808855E-2   -5.038770830678317E-2    4.152718244189160E-2   -5.050486639634204E-2    9.589378305869688E-1    4.975460867337589E-2
 1.952048660938581E5     9.589966579355765E-1    4.934057002589345E-2    4.134257779526164E-2   -5.011131511188142E-2    4.146150820670572E-2   -5.022671112349075E-2    9.590204002198397E-1    4.945310049503993E-2
 1.966942524101142E5     9.590599164740152E-1    4.906059322293235E-2    4.127469814929941E-2   -4.982919134005864E-2    4.139295606383096E-2   -4.994384210476111E-2    9.590775345554456E-1    4.919028070257041E-2
 1.981950025393913E5     9.591086516854395E-1    4.879399584574592E-2    4.120921263547379E-2   -4.955019071983138E-2    4.132661820113673E-2   -4.966558131264519E-2    9.591477762355152E-1    4.890939705928569E-2
