#  HZ   S   RI   R     50.00 
! Rohde & Schwarz Vector Network Analyzer 
! Rohde-Schwarz,ZNLE6-2Port,1323001256200024,1.71.1.10-23.02.1.238
! Created: UTC 4/7/2025, 8:20:53 AM
! freq[Hz]                re:S11                  im:S11                  re:S21                  im:S21                  re:S12                  im:S12                  re:S22                  im:S22
 1.000000000000000E5     9.589548689908535E-1    7.503217159398430E-2    4.147810949357202E-2   -7.604875129701071E-2    4.161390520358113E-2   -7.606788522295417E-2    9.588788860093455E-1    7.537505330382457E-2
 1.007629862646662E5     9.590639945309130E-1    7.445719951438828E-2    4.137582702803675E-2   -7.555397111562027E-2    4.152250174762299E-2   -7.555306150296361E-2    9.589615209610846E-1    7.486279560720573E-2
 1.015317940097331E5     9.591249280601302E-1    7.393700744260367E-2    4.128483247210140E-2   -7.506126489758883E-2    4.142083514108908E-2   -7.504387248329071E-2    9.590425095629609E-1    7.433576028173138E-2
 1.023064676522963E5     9.592222472319227E-1    7.340437389134520E-2    4.118918555327958E-2   -7.456951009330928E-2    4.132759082266821E-2   -7.453738329083044E-2    9.591361640555166E-1    7.383481747922852E-2
 1.030870519483485E5     9.592866829077998E-1    7.289157289004168E-2    4.110251692600213E-2   -7.407631909553093E-2    4.123789328569268E-2   -7.403799930800579E-2    9.592180489479172E-1    7.332882597884997E-2
 1.038735919953636E5     9.593989930325592E-1    7.238316512281531E-2    4.100881844870229E-2   -7.358934413897179E-2    4.114669175908869E-2   -7.353878228567355E-2    9.593132183149290E-1    7.283662262881564E-2
 1.046661332349037E5     9.594847866826377E-1    7.189303141380812E-2    4.091986559586712E-2   -7.309716870126502E-2    4.105693869125415E-2   -7.304851817590036E-2    9.594000441633705E-1    7.234094844961464E-2
 1.054647214552430E5     9.595479849905399E-1    7.139951413880480E-2    4.082761270098197E-2   -7.260338652938669E-2    4.096576067859034E-2   -7.255714748283114E-2    9.594932398857799E-1    7.185980012186709E-2
 1.062694027940149E5     9.596620164150991E-1    7.093806114659718E-2    4.074111796948764E-2   -7.211378553552200E-2    4.088033840030816E-2   -7.206881294071940E-2    9.595664970630754E-1    7.137845445353641E-2
 1.070802237408760E5     9.597718755388345E-1    7.048041921095273E-2    4.066173100881845E-2   -7.161043991540506E-2    4.079695090468478E-2   -7.159161282937410E-2    9.596810654998251E-1    7.091719354192026E-2
 1.078972311401927E5     9.598318379654297E-1    7.007791326610434E-2    4.057808781044364E-2   -7.107991611579410E-2    4.071002543586228E-2   -7.111037347680729E-2    9.597405859529862E-1    7.041421226141868E-2
 1.087204721937475E5     9.599193918316765E-1    6.970426710945356E-2    4.049718437199003E-2   -7.054025820492756E-2    4.062160631048748E-2   -7.063700930752900E-2    9.598446772584142E-1    6.997305066438964E-2
 1.095499944634658E5     9.600099328202463E-1    6.926121367645210E-2    4.041423588847168E-2   -7.004147360454696E-2    4.053474284024863E-2   -7.016882467695648E-2    9.598788961797128E-1    6.948037125717511E-2
 1.103858458741646E5     9.600734042002580E-1    6.882051174704656E-2    4.032947320036378E-2   -6.956805073980978E-2    4.045108876869563E-2   -6.970160650019525E-2    9.600064346040412E-1    6.901926089142527E-2
 1.112280747163201E5     9.601583092424300E-1    6.834852804502319E-2    4.024787107701199E-2   -6.910190433290317E-2    4.036921090486300E-2   -6.924034128485940E-2    9.600907054002066E-1    6.855446547598842E-2
 1.120767296488583E5     9.602328497648581E-1    6.790738685199052E-2    4.016082618234706E-2   -6.863656222102565E-2    4.028387004146273E-2   -6.878029292273188E-2    9.601503640508298E-1    6.808338493983350E-2
 1.129318597019661E5     9.602941161485468E-1    6.745300605814049E-2    4.008086884082532E-2   -6.818311332172061E-2    4.020259282169825E-2   -6.832235917781589E-2    9.601908705328245E-1    6.761864205252963E-2
 1.137935142799240E5     9.603712930808384E-1    6.700757047425271E-2    4.000177369447901E-2   -6.773165569229750E-2    4.012046391631403E-2   -6.787453412571742E-2    9.602449864859531E-1    6.720093242566373E-2
 1.146617431639607E5     9.604381918345922E-1    6.655735323677060E-2    3.992251867107478E-2   -6.728511189944343E-2    4.004269209393703E-2   -6.742772463242347E-2    9.603310349410090E-1    6.673395663004658E-2
 1.155365965151286E5     9.605283199695976E-1    6.613608970478022E-2    3.984676105798448E-2   -6.683959000160605E-2    3.996345531151055E-2   -6.698361247970692E-2    9.604416000605769E-1    6.630767538007475E-2
 1.164181248772018E5     9.605951842820348E-1    6.567663627723573E-2    3.976461466549933E-2   -6.640299128296867E-2    3.988686996689941E-2   -6.654166903249854E-2    9.605091105352640E-1    6.586185880069309E-2
 1.173063791795965E5     9.607014859765187E-1    6.524940653001686E-2    3.969192693925109E-2   -6.596415548052248E-2    3.981336277947412E-2   -6.610881854333317E-2    9.605898194686993E-1    6.542060651046756E-2
 1.182014107403141E5     9.607477216490190E-1    6.482554453491081E-2    3.961603701801580E-2   -6.553448402732534E-2    3.973492775429568E-2   -6.567168011787212E-2    9.606713717134362E-1    6.500439548421158E-2
 1.191032712689044E5     9.608203403700945E-1    6.438312194584138E-2    3.954150195004973E-2   -6.510318486021366E-2    3.965711067703585E-2   -6.524856811049944E-2    9.607736021574246E-1    6.456895567084903E-2
 1.200120128694542E5     9.608927376604777E-1    6.396797000826104E-2    3.946411348254850E-2   -6.467801721223190E-2    3.958345106275059E-2   -6.481830049812687E-2    9.608532621392910E-1    6.413687190128077E-2
 1.209276880435975E5     9.609522764793897E-1    6.355991132499800E-2    3.939274131935926E-2   -6.425371620177479E-2    3.950922961516845E-2   -6.439475178313087E-2    9.609282198378194E-1    6.374551028135902E-2
 1.218503496935483E5     9.610427689529826E-1    6.315342806184139E-2    3.932322231200459E-2   -6.384181382064262E-2    3.943739981377772E-2   -6.397752053962348E-2    9.609716199950639E-1    6.331386168522382E-2
 1.227800511251578E5     9.611144124954489E-1    6.272389746735217E-2    3.924363169132582E-2   -6.342295400064323E-2    3.935972434254867E-2   -6.356021987921255E-2    9.610400932522360E-1    6.288516723387380E-2
 1.237168460509929E5     9.611690136403780E-1    6.230270374808290E-2    3.917305954467721E-2   -6.301277618813930E-2    3.929307661789928E-2   -6.314787139535191E-2    9.611316019543168E-1    6.249153057342307E-2
 1.246607885934402E5     9.612343196158691E-1    6.188747666182820E-2    3.910224319224078E-2   -6.260739868586505E-2    3.921804408329937E-2   -6.273988690193120E-2    9.611813144499153E-1    6.207734601298392E-2
 1.256119332878327E5     9.613524075777099E-1    6.149981772997543E-2    3.903151665850407E-2   -6.220198674806050E-2    3.914477214512085E-2   -6.233706523810896E-2    9.612421628215246E-1    6.164807954459611E-2
 1.265703350856002E5     9.614049113805868E-1    6.108407321331659E-2    3.895982851464441E-2   -6.179880577950570E-2    3.907301465240953E-2   -6.193251341119330E-2    9.613376149511749E-1    6.125166632129975E-2
 1.275360493574453E5     9.614664888366673E-1    6.068591353202816E-2    3.889067873373406E-2   -6.140342832364504E-2    3.900832200699610E-2   -6.152934375464432E-2    9.613914078600226E-1    6.086071376105261E-2
 1.285091318965405E5     9.615487510951964E-1    6.030145485641022E-2    3.881841753528861E-2   -6.100632515567997E-2    3.893577411106862E-2   -6.113906599710169E-2    9.614658686522778E-1    6.046339302791667E-2
 1.294896389217529E5     9.615989034012413E-1    5.989776153264791E-2    3.874957267481925E-2   -6.061211064853649E-2    3.886950882075834E-2   -6.074837019711694E-2    9.615540458975400E-1    6.007829493127285E-2
 1.304776270808914E5     9.616501634968987E-1    5.950458173972829E-2    3.868682801859484E-2   -6.022475402998598E-2    3.879653060686497E-2   -6.036033260645083E-2    9.616138318018321E-1    5.970230687983089E-2
 1.314731534539810E5     9.616870468151795E-1    5.911917725845916E-2    3.861501149411001E-2   -5.983877813553896E-2    3.873066864080307E-2   -5.997227059837992E-2    9.616624734831142E-1    5.929709220480060E-2
 1.324762755565583E5     9.617398916701293E-1    5.872472417474612E-2    3.854890710971230E-2   -5.945901353486056E-2    3.866516364170777E-2   -5.959107626721504E-2    9.617439012916552E-1    5.893371745900091E-2
 1.334870513429962E5     9.617779740641651E-1    5.836502444078197E-2    3.848053471610040E-2   -5.908096117570739E-2    3.859659348711109E-2   -5.921216922542259E-2    9.618249105148666E-1    5.855211563030055E-2
 1.345055392098512E5     9.618924590211954E-1    5.798269512682978E-2    3.841666131685675E-2   -5.870781035559507E-2    3.853096857108154E-2   -5.883657052395753E-2    9.619030367382423E-1    5.816041355274629E-2
 1.355317979992373E5     9.619557379131828E-1    5.762381757547622E-2    3.834952801708735E-2   -5.833523921990074E-2    3.846543496265795E-2   -5.846390126175281E-2    9.619556080729404E-1    5.780052597081134E-2
 1.365658870022265E5     9.620035561626605E-1    5.725416791781071E-2    3.828852388416132E-2   -5.796996678697055E-2    3.839715594918131E-2   -5.809070355270060E-2    9.619869323997920E-1    5.743360846167414E-2
 1.376078659622731E5     9.620729809009422E-1    5.687940935105879E-2    3.822514384048736E-2   -5.760164215451448E-2    3.833146502073416E-2   -5.772549346614184E-2    9.620439786886723E-1    5.704692707979071E-2
 1.386577950786655E5     9.621565674447813E-1    5.653379449047544E-2    3.815854743677894E-2   -5.723821093443896E-2    3.826685808626457E-2   -5.736019222381884E-2    9.621173136887966E-1    5.669107695451776E-2
 1.397157350100044E5     9.622415604285145E-1    5.616396168233346E-2    3.809512871528711E-2   -5.687945983380261E-2    3.820410379530335E-2   -5.699723792564210E-2    9.622172392142492E-1    5.634443143302766E-2
 1.407817468777081E5     9.622897569245685E-1    5.580899343039235E-2    3.803246558935931E-2   -5.652423752178586E-2    3.814011339718575E-2   -5.664456751216296E-2    9.622851712633954E-1    5.596612045803213E-2
 1.418558922695422E5     9.623246911491535E-1    5.544521794113310E-2    3.796572706375419E-2   -5.616897549061129E-2    3.807774924041591E-2   -5.628734783746138E-2    9.623335347168864E-1    5.561282289461806E-2
 1.429382332431784E5     9.623973425081811E-1    5.511231422125310E-2    3.790497279317452E-2   -5.581856992737964E-2    3.801607181550323E-2   -5.594066768514756E-2    9.624040170989111E-1    5.526233567076873E-2
 1.440288323297804E5     9.624373942762929E-1    5.477440651732421E-2    3.784460608535734E-2   -5.547144349804580E-2    3.794960863040727E-2   -5.558942465950269E-2    9.624449081633338E-1    5.491629766030524E-2
 1.451277525376154E5     9.625096599284662E-1    5.440074104008432E-2    3.777769297947446E-2   -5.512518436900518E-2    3.788913428877625E-2   -5.524197187277577E-2    9.625281620117926E-1    5.458526260345119E-2
 1.462350573556962E5     9.625725040308617E-1    5.406705497563253E-2    3.771967601060921E-2   -5.478489849100349E-2    3.782601610772530E-2   -5.489741721983257E-2    9.625931467146061E-1    5.423399257644022E-2
 1.473508107574468E5     9.626099081486984E-1    5.372999088032165E-2    3.765897565660626E-2   -5.444400571307807E-2    3.776567579102675E-2   -5.455743135421723E-2    9.626707533361250E-1    5.390257751266608E-2
 1.484750772044004E5     9.626529571055399E-1    5.337547989832054E-2    3.759394066673864E-2   -5.410951546825508E-2    3.770550013596769E-2   -5.422433294286914E-2    9.627004634552990E-1    5.355945343058180E-2
 1.496079216499225E5     9.627468368550637E-1    5.304784732794259E-2    3.753191311711856E-2   -5.377518823387034E-2    3.764772580531617E-2   -5.388808775653829E-2    9.627484974485786E-1    5.323208317877955E-2
 1.507494095429637E5     9.628133727548116E-1    5.273375820307478E-2    3.747656441711678E-2   -5.344332018163286E-2    3.758673165716876E-2   -5.355818268811089E-2    9.628189376898669E-1    5.291097979660701E-2
 1.518996068318418E5     9.628771749493307E-1    5.239939494923396E-2    3.741293301008092E-2   -5.311672629248228E-2    3.752104480511644E-2   -5.323161978148200E-2    9.628926300399617E-1    5.256928598129199E-2
 1.530585799680507E5     9.629267502496881E-1    5.207507357525251E-2    3.735256073455380E-2   -5.279009525585841E-2    3.745951325263547E-2   -5.290265405425335E-2    9.629441197868821E-1    5.223086291809344E-2
 1.542263959101001E5     9.629784746092231E-1    5.173332388788653E-2    3.729581434509396E-2   -5.246712428252182E-2    3.740648167637863E-2   -5.258025377165019E-2    9.630119867750370E-1    5.192499684658242E-2
 1.554031221273835E5     9.630788180040143E-1    5.142243664306521E-2    3.723826626560878E-2   -5.214749958631093E-2    3.734743420804902E-2   -5.225720305392516E-2    9.630607519727329E-1    5.158209965980262E-2
 1.565888266040779E5     9.630982456207954E-1    5.110993093377722E-2    3.717886343144346E-2   -5.183033566748983E-2    3.728565320602318E-2   -5.194243347045979E-2    9.631378397588400E-1    5.128118201302743E-2
 1.577835778430689E5     9.631699091560504E-1    5.078486999271573E-2    3.712076031721734E-2   -5.151777767967448E-2    3.722698201963197E-2   -5.162843965854313E-2    9.631866292549310E-1    5.095471398540907E-2
 1.589874448699104E5     9.632228975804119E-1    5.048959160803747E-2    3.705939202588886E-2   -5.120655890065380E-2    3.716994150173519E-2   -5.131330971131429E-2    9.632593069642246E-1    5.063279938924470E-2
 1.602004972368116E5     9.632977006324690E-1    5.017118721095716E-2    3.699969724714002E-2   -5.089963971332354E-2    3.711068157454413E-2   -5.100886663488552E-2    9.633475085163336E-1    5.031454629408696E-2
 1.614228050266550E5     9.633630119525678E-1    4.987131098478283E-2    3.694538710000586E-2   -5.059153802540767E-2    3.705071823501984E-2   -5.069846862252014E-2    9.633833136450141E-1    5.000147883572622E-2
 1.626544388570473E5     9.633913859984315E-1    4.956399721655436E-2    3.688753251781329E-2   -5.028638965467966E-2    3.699402180747385E-2   -5.039373483037136E-2    9.634170242189429E-1    4.970391831825986E-2
 1.638954698843964E5     9.634692988164575E-1    4.925430360207667E-2    3.682813743220635E-2   -4.998471647712578E-2    3.693491538189752E-2   -5.009441919059603E-2    9.635038014034586E-1    4.941281475041980E-2
 1.651459698080244E5     9.635321040222459E-1    4.896079899399437E-2    3.677465852480653E-2   -4.968725061608849E-2    3.687752104650817E-2   -4.979538093996561E-2    9.635552732050083E-1    4.911069392922946E-2
 1.664060108743095E5     9.635815034298559E-1    4.866071760260691E-2    3.671752874489519E-2   -4.939207168248901E-2    3.682267699703298E-2   -4.950018394107706E-2    9.635997042534671E-1    4.880216547473158E-2
 1.676756658808590E5     9.636238322754170E-1    4.835231353285555E-2    3.666238794167710E-2   -4.909803381723871E-2    3.676561395871000E-2   -4.920597796533053E-2    9.636696552554799E-1    4.852253600722326E-2
 1.689550081807175E5     9.636488228364996E-1    4.806503455477448E-2    3.660291812073782E-2   -4.881008024817360E-2    3.671080944428678E-2   -4.890989410473077E-2    9.637234636483735E-1    4.821509613432375E-2
 1.702441116866020E5     9.637280018063662E-1    4.777417912729070E-2    3.654436609834075E-2   -4.851745339720737E-2    3.665311220372375E-2   -4.862805619944428E-2    9.637785583770911E-1    4.794342892677676E-2
 1.715430508751738E5     9.637985720683596E-1    4.748253798572099E-2    3.649203079330696E-2   -4.823412196695448E-2    3.659840764098531E-2   -4.834136827963512E-2    9.638337149910315E-1    4.765248492210494E-2
 1.728519007913403E5     9.638830635805066E-1    4.720892089950568E-2    3.643404618959679E-2   -4.794930781246484E-2    3.653966027547571E-2   -4.805258500182575E-2    9.638820627166497E-1    4.736555686977415E-2
 1.741707370525927E5     9.639248688932274E-1    4.692222571286504E-2    3.638062989494701E-2   -4.767208514091902E-2    3.648169344501768E-2   -4.777179604327703E-2    9.639568281955435E-1    4.709247126664994E-2
 1.754996358533718E5     9.639830302929681E-1    4.663105824610148E-2    3.632728492234728E-2   -4.739431484544440E-2    3.642899706960383E-2   -4.749382311088802E-2    9.639925077649669E-1    4.678951160399891E-2
 1.768386739694722E5     9.640241766443468E-1    4.635387212766862E-2    3.626620306553294E-2   -4.711891747567083E-2    3.637211175662453E-2   -4.721487306086290E-2    9.641078346315511E-1    4.654834622291053E-2
 1.781879287624771E5     9.640578602253131E-1    4.607605390155705E-2    3.621464631102169E-2   -4.684434144986733E-2    3.631615059349398E-2   -4.694157778679720E-2    9.641418187405836E-1    4.625552744031940E-2
 1.795474781842276E5     9.641177522065959E-1    4.580988692625115E-2    3.615480060548567E-2   -4.657071988994477E-2    3.625567927538403E-2   -4.667031260607039E-2    9.641936461891200E-1    4.597763781445051E-2
 1.809174007813277E5     9.641870816373659E-1    4.554630763026355E-2    3.610212232434421E-2   -4.630319653284804E-2    3.620142774928452E-2   -4.640156440253523E-2    9.642166614734854E-1    4.570486770330802E-2
 1.822977756996804E5     9.642125306447936E-1    4.526424786613109E-2    3.604538113799093E-2   -4.603614080108789E-2    3.614717318759108E-2   -4.613261752078586E-2    9.643044603208509E-1    4.544866019819346E-2
 1.836886826890609E5     9.642848257316395E-1    4.500822029778188E-2    3.599257403273868E-2   -4.577036801984054E-2    3.608858016898013E-2   -4.586469527883975E-2    9.643430213773466E-1    4.516524237672632E-2
 1.850902021077247E5     9.643491886104840E-1    4.476039179931342E-2    3.593443528613100E-2   -4.551059064009647E-2    3.603630982438859E-2   -4.560697166491590E-2    9.643850319378882E-1    4.489838151955410E-2
 1.865024149270491E5     9.644042607364138E-1    4.447938292531268E-2    3.588227291194876E-2   -4.525597256702069E-2    3.598110518133318E-2   -4.534259028758594E-2    9.644665208391811E-1    4.466185590478956E-2
 1.879254027362132E5     9.644606324402040E-1    4.421600883370885E-2    3.582922572347711E-2   -4.499350539376540E-2    3.592310188755824E-2   -4.508629429926334E-2    9.645099503734188E-1    4.438100666996166E-2
 1.893592477469092E5     9.644964882880653E-1    4.390725472677311E-2    3.575740826359278E-2   -4.473439086918665E-2    3.588277202419007E-2   -4.481456405940975E-2    9.645740442574279E-1    4.414119204894174E-2
 1.908040327980933E5     9.645365795842704E-1    4.370739136564520E-2    3.571331685037838E-2   -4.448439251725127E-2    3.581530700020816E-2   -4.457660338529140E-2    9.646015125974846E-1    4.385414737225224E-2
 1.922598413607715E5     9.646035468560572E-1    4.344212737764170E-2    3.565735680780862E-2   -4.423364856764749E-2    3.575656524385941E-2   -4.432136629161142E-2    9.646734754126152E-1    4.360364245620273E-2
 1.937267575428232E5     9.646441728423875E-1    4.320234519563188E-2    3.560675210897885E-2   -4.398477002073545E-2    3.570437923837412E-2   -4.407445570368731E-2    9.647386556990293E-1    4.335362128928987E-2
 1.952048660938581E5     9.647105696096658E-1    4.297207572257127E-2    3.554973197866274E-2   -4.373783388157120E-2    3.565078863044274E-2   -4.382721876627832E-2    9.647655076870992E-1    4.309679401393631E-2
 1.966942524101142E5     9.647440579597041E-1    4.270545126425881E-2    3.549535360992401E-2   -4.349125727140946E-2    3.559431291316752E-2   -4.358009009736218E-2    9.648314701798484E-1    4.285260095564804E-2
 1.981950025393913E5     9.647845847301909E-1    4.248358481449186E-2    3.544350471252838E-2   -4.325196720198274E-2    3.554202766406535E-2   -4.333932201500969E-2    9.649074797903823E-1    4.261739687885270E-2
