#  HZ   S   RI   R     50.00 
! Rohde & Schwarz Vector Network Analyzer 
! Rohde-Schwarz,ZNLE6-2Port,1323001256200024,1.71.1.10-23.02.1.238
! Created: UTC 4/7/2025, 8:13:27 AM
! freq[Hz]                re:S11                  im:S11                  re:S21                  im:S21                  re:S12                  im:S12                  re:S22                  im:S22
 1.000000000000000E5     9.647361153977428E-1    6.634667286672991E-2    3.567238616178134E-2   -6.689971412763984E-2    3.578334566190374E-2   -6.706127979617585E-2    9.647191646214016E-1    6.643577781475968E-2
 1.007629862646662E5     9.648218618151635E-1    6.586747815897738E-2    3.559550630787050E-2   -6.644457830168889E-2    3.570884576578711E-2   -6.660897067923559E-2    9.648104818930524E-1    6.596689625312183E-2
 1.015317940097331E5     9.648772220368745E-1    6.541612290034926E-2    3.552503516114776E-2   -6.599694531968488E-2    3.563146110055029E-2   -6.615684319805101E-2    9.648348355750136E-1    6.551124467130651E-2
 1.023064676522963E5     9.649413702609774E-1    6.496605661454277E-2    3.544779315758976E-2   -6.555083193994050E-2    3.555778413777981E-2   -6.571092774645663E-2    9.649095712533127E-1    6.505246766612495E-2
 1.030870519483485E5     9.649846120239955E-1    6.449750561833208E-2    3.537529744951085E-2   -6.510730816586251E-2    3.548583690394664E-2   -6.526450273317486E-2    9.649824052574759E-1    6.461879172764501E-2
 1.038735919953636E5     9.650796296030445E-1    6.407298950452757E-2    3.530323793799532E-2   -6.466919237798088E-2    3.541284848529724E-2   -6.482091594980163E-2    9.650192785163249E-1    6.419121215833862E-2
 1.046661332349037E5     9.651201889879825E-1    6.364217030137410E-2    3.523456590338805E-2   -6.423142402404400E-2    3.534043008376805E-2   -6.438734467000587E-2    9.650871662678169E-1    6.373711163396799E-2
 1.054647214552430E5     9.651792577811911E-1    6.319357005863924E-2    3.516158164465824E-2   -6.379899034858216E-2    3.527027854650660E-2   -6.395026914112820E-2    9.652148853058994E-1    6.331677290130454E-2
 1.062694027940149E5     9.652475839000753E-1    6.276485396041750E-2    3.509060561443617E-2   -6.336975637290107E-2    3.520350156696719E-2   -6.351995344522937E-2    9.652607207671888E-1    6.289169401898316E-2
 1.070802237408760E5     9.653277385073137E-1    6.234356559820072E-2    3.502596078280583E-2   -6.294617197219675E-2    3.513481599777062E-2   -6.309591805603747E-2    9.653623352196877E-1    6.246190960993378E-2
 1.078972311401927E5     9.653799719083371E-1    6.190350919471500E-2    3.495948039260092E-2   -6.252482109623492E-2    3.506456630964982E-2   -6.267498296130178E-2    9.654118876520382E-1    6.203911824280990E-2
 1.087204721937475E5     9.654581989986435E-1    6.149575924655828E-2    3.489119179146406E-2   -6.211032428343356E-2    3.499790774481303E-2   -6.225436680075754E-2    9.654833980053462E-1    6.163871546219876E-2
 1.095499944634658E5     9.655252818159985E-1    6.107783407766950E-2    3.482114997903826E-2   -6.168814429800214E-2    3.493288354498756E-2   -6.183809256588650E-2    9.655116837097090E-1    6.121225986793856E-2
 1.103858458741646E5     9.655726783374017E-1    6.068105148299046E-2    3.475775251736257E-2   -6.127945751828835E-2    3.486421885638125E-2   -6.142481042042165E-2    9.656002264892739E-1    6.080576139641632E-2
 1.112280747163201E5     9.656726735699731E-1    6.025060960183660E-2    3.469265894454049E-2   -6.087144356611768E-2    3.479866250270272E-2   -6.101434614438492E-2    9.656592383621710E-1    6.039015841790484E-2
 1.120767296488583E5     9.657143978293421E-1    5.984774237887692E-2    3.462395487596800E-2   -6.046431452921172E-2    3.473139204917063E-2   -6.061178020698775E-2    9.657528903511178E-1    5.997606929848662E-2
 1.129318597019661E5     9.657963502138571E-1    5.943545902206908E-2    3.456485343376735E-2   -6.006403661194935E-2    3.466805316973558E-2   -6.020770646019490E-2    9.657599712184600E-1    5.956025932739312E-2
 1.137935142799240E5     9.658587013068730E-1    5.904409333974998E-2    3.449701763357670E-2   -5.966782404027099E-2    3.460241039222878E-2   -5.980942604546757E-2    9.658215823754069E-1    5.918366888230612E-2
 1.146617431639607E5     9.658963288657723E-1    5.865225808097296E-2    3.443161159587092E-2   -5.926992909608275E-2    3.454081491635972E-2   -5.941199293615410E-2    9.658714328676462E-1    5.877799380450213E-2
 1.155365965151286E5     9.659615564823282E-1    5.828005387813476E-2    3.437624859128222E-2   -5.887695547844914E-2    3.447156689271364E-2   -5.901968542394950E-2    9.659316274479527E-1    5.838556533345752E-2
 1.164181248772018E5     9.659814684433706E-1    5.786736042679017E-2    3.431286621134357E-2   -5.848767515409863E-2    3.441518760333433E-2   -5.863065395350951E-2    9.659930939844414E-1    5.799841480060163E-2
 1.173063791795965E5     9.660854980008090E-1    5.748276635327721E-2    3.425349733271842E-2   -5.810328167027353E-2    3.435435683730438E-2   -5.824563343927952E-2    9.660757384299089E-1    5.761880327831000E-2
 1.182014107403141E5     9.661266673109602E-1    5.710968449819959E-2    3.419271942511592E-2   -5.772564526074376E-2    3.429563521696131E-2   -5.786074279864695E-2    9.661384691994567E-1    5.723707430223468E-2
 1.191032712689044E5     9.662010267985014E-1    5.671544491582185E-2    3.413232907584319E-2   -5.734518252437289E-2    3.423638207787400E-2   -5.748344249403120E-2    9.662207404039860E-1    5.685097238150664E-2
 1.200120128694542E5     9.662014690797299E-1    5.634004695946576E-2    3.407236440424037E-2   -5.696654415806368E-2    3.417009038917351E-2   -5.710296785338880E-2    9.662659027821690E-1    5.646758477089646E-2
 1.209276880435975E5     9.662747398184692E-1    5.599134526384278E-2    3.401571238376186E-2   -5.659510921645838E-2    3.411541132231560E-2   -5.672810302129729E-2    9.663195910615049E-1    5.610672613716634E-2
 1.218503496935483E5     9.663655266483677E-1    5.562338272474360E-2    3.395772928456384E-2   -5.622923874547287E-2    3.405812303379858E-2   -5.635916777691713E-2    9.663814033550308E-1    5.573602565825667E-2
 1.227800511251578E5     9.664374617245020E-1    5.524522626809280E-2    3.389943818727327E-2   -5.586037135033903E-2    3.399598070294175E-2   -5.599231973027208E-2    9.664493472035142E-1    5.535826901816361E-2
 1.237168460509929E5     9.664823719524245E-1    5.486518676258097E-2    3.384027651595395E-2   -5.549579761007235E-2    3.394266608186690E-2   -5.563086812934770E-2    9.665126491748771E-1    5.500738613819710E-2
 1.246607885934402E5     9.664974117919169E-1    5.450944901013025E-2    3.378378423479354E-2   -5.513527954366779E-2    3.387931510945481E-2   -5.526442364501320E-2    9.665393349084893E-1    5.464621275060889E-2
 1.256119332878327E5     9.665682215817428E-1    5.415517326396871E-2    3.372574019972245E-2   -5.477847996683494E-2    3.382728234639765E-2   -5.490865891070454E-2    9.666122922731648E-1    5.426926079893652E-2
 1.265703350856002E5     9.666255733629767E-1    5.377625090939361E-2    3.366875140668330E-2   -5.442092501387381E-2    3.376704379135814E-2   -5.455181978411192E-2    9.666714459704192E-1    5.392633922900254E-2
 1.275360493574453E5     9.666668149048809E-1    5.342400951830922E-2    3.360723020701023E-2   -5.406797332349228E-2    3.371184938925581E-2   -5.420024403214379E-2    9.667393808306052E-1    5.357305153784770E-2
 1.285091318965405E5     9.667472629771471E-1    5.307453820813323E-2    3.355806780572797E-2   -5.372087395950954E-2    3.365611601685206E-2   -5.385004835218402E-2    9.667881633354496E-1    5.322954362113423E-2
 1.294896389217529E5     9.667595163693137E-1    5.272405159787871E-2    3.349849825344207E-2   -5.337285795888655E-2    3.360145655278875E-2   -5.350065762189195E-2    9.668493270518398E-1    5.289853079547398E-2
 1.304776270808914E5     9.668377139306734E-1    5.238443373498952E-2    3.344792246009745E-2   -5.303099674712112E-2    3.354653688134138E-2   -5.315719002027205E-2    9.669244241593057E-1    5.256754696106538E-2
 1.314731534539810E5     9.668522605430132E-1    5.203794550246878E-2    3.339324521025284E-2   -5.268733753828058E-2    3.349225756148030E-2   -5.282043036271156E-2    9.669507915274087E-1    5.220232861816017E-2
 1.324762755565583E5     9.669143295324992E-1    5.170799972072911E-2    3.333746590539508E-2   -5.235562207069573E-2    3.344083134341138E-2   -5.248112936756567E-2    9.670429901562360E-1    5.189371406099871E-2
 1.334870513429962E5     9.669434189907101E-1    5.136807687067257E-2    3.328576223794708E-2   -5.201699947317712E-2    3.338735882866011E-2   -5.214648411406242E-2    9.670967556863415E-1    5.155408407323780E-2
 1.345055392098512E5     9.670168793623101E-1    5.103931917438937E-2    3.323318384420106E-2   -5.168746387356075E-2    3.332912463053611E-2   -5.181266625359824E-2    9.671476177463462E-1    5.121392114837767E-2
 1.355317979992373E5     9.670874239677761E-1    5.071805511327328E-2    3.317971512976848E-2   -5.136129500735064E-2    3.327600890784842E-2   -5.148398045650086E-2    9.671895902447809E-1    5.089533607959159E-2
 1.365658870022265E5     9.670998618127546E-1    5.039030754785093E-2    3.312611795713759E-2   -5.103015554390695E-2    3.323032936357803E-2   -5.115637234105583E-2    9.672299108547794E-1    5.055757740536772E-2
 1.376078659622731E5     9.671906130317469E-1    5.007153190640366E-2    3.307809086631102E-2   -5.071140902815412E-2    3.317557315715401E-2   -5.082823224599957E-2    9.672807146306367E-1    5.022684971935757E-2
 1.386577950786655E5     9.672385675877673E-1    4.975680764745033E-2    3.302678374959996E-2   -5.038940882878837E-2    3.312089522594911E-2   -5.050873905656120E-2    9.673239893004827E-1    4.988963208962307E-2
 1.397157350100044E5     9.672917539914354E-1    4.943577612891637E-2    3.297579799828448E-2   -5.007155803233142E-2    3.307191561836956E-2   -5.018806449495381E-2    9.673757609938786E-1    4.957271859170484E-2
 1.407817468777081E5     9.673783540941238E-1    4.911184797930396E-2    3.292347183138439E-2   -4.975666219376840E-2    3.301556751959503E-2   -4.987095722070187E-2    9.674319135347719E-1    4.925909367169298E-2
 1.418558922695422E5     9.673939351368190E-1    4.881989938007252E-2    3.287153447809238E-2   -4.944644000977143E-2    3.296708791384688E-2   -4.956046053249136E-2    9.674861990975050E-1    4.893888509318665E-2
 1.429382332431784E5     9.674496895427294E-1    4.850017009029264E-2    3.281997378521529E-2   -4.913293931990214E-2    3.291720312280048E-2   -4.924885915278458E-2    9.675520030631036E-1    4.863681954461244E-2
 1.440288323297804E5     9.674787058179117E-1    4.818731667823411E-2    3.277073545074068E-2   -4.882392316831838E-2    3.286630961908442E-2   -4.894098350264657E-2    9.676028984122717E-1    4.832689177882282E-2
 1.451277525376154E5     9.674799502204211E-1    4.788325251410783E-2    3.271967966507952E-2   -4.851692512168281E-2    3.281687933486206E-2   -4.863196518509846E-2    9.676716380578463E-1    4.803124317379649E-2
 1.462350573556962E5     9.675576306992161E-1    4.757626812357368E-2    3.267311056000981E-2   -4.821907773935462E-2    3.276307566750780E-2   -4.833423435618732E-2    9.677060184827939E-1    4.771981224705869E-2
 1.473508107574468E5     9.676265104209476E-1    4.728162527026324E-2    3.261968762911782E-2   -4.791796847971279E-2    3.271312799869659E-2   -4.803047468889124E-2    9.677374093245448E-1    4.740930012251231E-2
 1.484750772044004E5     9.676836032856335E-1    4.696889754753950E-2    3.257150673678607E-2   -4.762194959951042E-2    3.266667398251218E-2   -4.772993292605435E-2    9.677696292911848E-1    4.712138212866773E-2
 1.496079216499225E5     9.677077888170588E-1    4.668649324768753E-2    3.252559317251729E-2   -4.732609021384124E-2    3.261525985776959E-2   -4.743748385066101E-2    9.678250830867784E-1    4.682454560239471E-2
 1.507494095429637E5     9.677638559735293E-1    4.639650846210681E-2    3.247430777609098E-2   -4.703426370853146E-2    3.256648075268544E-2   -4.714470007519293E-2    9.678789633469744E-1    4.654191893112876E-2
 1.518996068318418E5     9.678342709772736E-1    4.611026754337691E-2    3.242515924957807E-2   -4.674422955885877E-2    3.251633466114469E-2   -4.685332447023163E-2    9.679535358430960E-1    4.625093041140948E-2
 1.530585799680507E5     9.678575761482119E-1    4.581559943085508E-2    3.237666601992767E-2   -4.645655696617723E-2    3.246536310723787E-2   -4.656400834188797E-2    9.679869897758069E-1    4.594414330394680E-2
 1.542263959101001E5     9.679058335102816E-1    4.551314534745313E-2    3.232731086298160E-2   -4.616963507687611E-2    3.242272920930547E-2   -4.628017839761774E-2    9.680255240632815E-1    4.565808558766006E-2
 1.554031221273835E5     9.679510217935950E-1    4.523032294479027E-2    3.227666835590338E-2   -4.588555915349133E-2    3.237107844881055E-2   -4.599360680891076E-2    9.680735195120611E-1    4.537668864696325E-2
 1.565888266040779E5     9.680056184990894E-1    4.496486263966124E-2    3.222962408748910E-2   -4.560878895101304E-2    3.232592177943869E-2   -4.571779827084144E-2    9.681264591743711E-1    4.508275411370442E-2
 1.577835778430689E5     9.680759075257300E-1    4.467079781997643E-2    3.218543204964081E-2   -4.533034679743040E-2    3.227572949265310E-2   -4.543584497085611E-2    9.681564909172983E-1    4.480816703714950E-2
 1.589874448699104E5     9.681303520414625E-1    4.443395670896584E-2    3.213441861876106E-2   -4.505320149362798E-2    3.222720381514954E-2   -4.515999287590720E-2    9.682295691707468E-1    4.450690798799925E-2
 1.602004972368116E5     9.681848147167075E-1    4.414900985662495E-2    3.208571091220344E-2   -4.478183294659328E-2    3.218052439562981E-2   -4.488818018028643E-2    9.683189595851188E-1    4.424088189912687E-2
 1.614228050266550E5     9.682306808688390E-1    4.386836132624811E-2    3.204118839975550E-2   -4.451181027759810E-2    3.213254797736906E-2   -4.461867010979385E-2    9.683502195354087E-1    4.396564029187188E-2
 1.626544388570473E5     9.682758806183948E-1    4.359758696656746E-2    3.199401465439924E-2   -4.423821582639426E-2    3.208499473936361E-2   -4.434555228623060E-2    9.683756610030209E-1    4.370226943087681E-2
 1.638954698843964E5     9.683444684858589E-1    4.333753603511604E-2    3.194645447016634E-2   -4.397616636324817E-2    3.203991770696529E-2   -4.407979718995961E-2    9.684277223936828E-1    4.343984688298225E-2
 1.651459698080244E5     9.683661418682947E-1    4.307447859974883E-2    3.190099980911086E-2   -4.371111696549276E-2    3.199115504427250E-2   -4.381842818473240E-2    9.684851281743886E-1    4.317363999612794E-2
 1.664060108743095E5     9.684236180448327E-1    4.279237218894135E-2    3.185308865670523E-2   -4.345034729603879E-2    3.194338335259072E-2   -4.355543469652341E-2    9.685166794516574E-1    4.291335378714437E-2
 1.676756658808590E5     9.684810353065858E-1    4.253421471630027E-2    3.181037752099985E-2   -4.319311863117214E-2    3.189884603669612E-2   -4.329681834576670E-2    9.685980515930577E-1    4.265954662660051E-2
 1.689550081807175E5     9.685041909490061E-1    4.226668484454531E-2    3.175747533948558E-2   -4.293486979606436E-2    3.184656523688988E-2   -4.303601177349771E-2    9.686344283951150E-1    4.237889079596647E-2
 1.702441116866020E5     9.685546913479626E-1    4.202246987481411E-2    3.171182249163506E-2   -4.267781315352998E-2    3.180834723956272E-2   -4.278156069891585E-2    9.686665188128105E-1    4.214775062731951E-2
 1.715430508751738E5     9.685935250067790E-1    4.175815033179515E-2    3.166546618156665E-2   -4.242491184482058E-2    3.175610128312083E-2   -4.252657249272060E-2    9.687024594683871E-1    4.187671423039725E-2
 1.728519007913403E5     9.686680880681940E-1    4.152297536611316E-2    3.161892144801414E-2   -4.217563251042396E-2    3.171121914155659E-2   -4.227346196203315E-2    9.687480392767533E-1    4.162769929572219E-2
 1.741707370525927E5     9.687053032988862E-1    4.126564854153857E-2    3.157255433283841E-2   -4.192926582211366E-2    3.166332307176938E-2   -4.202837354967786E-2    9.687965374875680E-1    4.138526364186791E-2
 1.754996358533718E5     9.687632010656415E-1    4.101771115717598E-2    3.152679335037426E-2   -4.168021892638671E-2    3.161834814090075E-2   -4.178342469775097E-2    9.688081320289366E-1    4.112535969174339E-2
 1.768386739694722E5     9.687793678397221E-1    4.075549492678507E-2    3.147861214973900E-2   -4.143912410274421E-2    3.157222133560345E-2   -4.153449659117219E-2    9.688812985363645E-1    4.089342893444706E-2
 1.781879287624771E5     9.688195716616761E-1    4.051567501349213E-2    3.143496020600939E-2   -4.119850367909510E-2    3.152867400560273E-2   -4.129553519918417E-2    9.689554110283219E-1    4.065657501988205E-2
 1.795474781842276E5     9.688725566212371E-1    4.028382016543654E-2    3.138739591013198E-2   -4.095531060661200E-2    3.147776984354572E-2   -4.105313880154041E-2    9.689901663991296E-1    4.040281438960101E-2
 1.809174007813277E5     9.689200786658566E-1    4.003041795721602E-2    3.134076871843656E-2   -4.071596408212472E-2    3.143324480477760E-2   -4.081612442237010E-2    9.689889680975970E-1    4.016379550723304E-2
 1.822977756996804E5     9.689358501277554E-1    3.979713396405957E-2    3.129889317694890E-2   -4.048024848238858E-2    3.138625812421407E-2   -4.057899692098145E-2    9.690470421242184E-1    3.993092714862885E-2
 1.836886826890609E5     9.689916013643225E-1    3.955679781464813E-2    3.125357700396840E-2   -4.024801449249179E-2    3.133950223913078E-2   -4.034157044321413E-2    9.691077902320091E-1    3.968658451077216E-2
 1.850902021077247E5     9.690377961717848E-1    3.932110994764315E-2    3.120614147954540E-2   -4.001528772478952E-2    3.129474522504523E-2   -4.011016445573851E-2    9.691760308216962E-1    3.946271368571485E-2
 1.865024149270491E5     9.690733794943314E-1    3.909207571738430E-2    3.115960146015626E-2   -3.978649533470429E-2    3.124908268772780E-2   -3.988036206569810E-2    9.692068299620210E-1    3.921984856306398E-2
 1.879254027362132E5     9.691440997300342E-1    3.885786916094131E-2    3.111700095282698E-2   -3.956067781769156E-2    3.120569490149376E-2   -3.965536007564512E-2    9.692504541609485E-1    3.897471986145316E-2
 1.893592477469092E5     9.692395771362593E-1    3.861064696613813E-2    3.107126685526279E-2   -3.935327945898325E-2    3.114552595446011E-2   -3.942948033937767E-2    9.693080938645113E-1    3.874159480372322E-2
 1.908040327980933E5     9.692197985090323E-1    3.842664779227909E-2    3.102065707841112E-2   -3.910603858508663E-2    3.110860225262638E-2   -3.919680482139530E-2    9.693345485382975E-1    3.854220513633688E-2
 1.922598413607715E5     9.692436236788542E-1    3.817575178382696E-2    3.097334287420864E-2   -3.888609267208523E-2    3.106478816708685E-2   -3.897443271532544E-2    9.693720960230869E-1    3.830327767705925E-2
 1.937267575428232E5     9.692881212789696E-1    3.796844325713750E-2    3.092868543324752E-2   -3.866411215096639E-2    3.101995324543294E-2   -3.875877644310088E-2    9.694207236592256E-1    3.808452317043116E-2
 1.952048660938581E5     9.693629933007568E-1    3.775548697478243E-2    3.088250281396643E-2   -3.844920476282379E-2    3.097400553013265E-2   -3.854023225610443E-2    9.694468084428595E-1    3.785265610670047E-2
 1.966942524101142E5     9.693939711484335E-1    3.753137774212983E-2    3.083526341847456E-2   -3.823373127154109E-2    3.092474302312969E-2   -3.832412210601618E-2    9.695029412735477E-1    3.764372042026016E-2
 1.981950025393913E5     9.694194150744591E-1    3.731779052286958E-2    3.079450642416313E-2   -3.801923589874341E-2    3.088265870464575E-2   -3.810869700777539E-2    9.695388748647222E-1    3.742070786918177E-2
