#  HZ   S   RI   R     50.00 
! Rohde & Schwarz Vector Network Analyzer 
! Rohde-Schwarz,ZNLE6-2Port,1323001256200024,1.71.1.10-23.02.1.238
! Created: UTC 4/7/2025, 8:01:23 AM
! freq[Hz]                re:S11                  im:S11                  re:S21                  im:S21                  re:S12                  im:S12                  re:S22                  im:S22
 1.000000000000000E5     9.693308272565508E-1    5.852097307128698E-2    3.100770703732580E-2   -5.907179644601428E-2    3.110366258637689E-2   -5.921704268414910E-2    9.692997752036051E-1    5.861144535609877E-2
 1.007629862646662E5     9.693964317444863E-1    5.808589251415093E-2    3.094226238807161E-2   -5.866883794104406E-2    3.104458642514287E-2   -5.881469512734579E-2    9.693314841743023E-1    5.820917895184312E-2
 1.015317940097331E5     9.694369380745349E-1    5.768519465621495E-2    3.089205525385469E-2   -5.827357327488545E-2    3.098270765171633E-2   -5.841455067999386E-2    9.693919788215234E-1    5.780643453723869E-2
 1.023064676522963E5     9.694954070747672E-1    5.728593776045626E-2    3.082925905489013E-2   -5.788289556258008E-2    3.092179390459007E-2   -5.801905953676724E-2    9.694385729403424E-1    5.740064471046596E-2
 1.030870519483485E5     9.695272718007800E-1    5.689088436758697E-2    3.076879782916915E-2   -5.748315943886269E-2    3.086691493296322E-2   -5.762582415576064E-2    9.694851974190705E-1    5.701817297759430E-2
 1.038735919953636E5     9.695971493590506E-1    5.649708280499705E-2    3.071429851342052E-2   -5.710065089953991E-2    3.080486376613622E-2   -5.723379697929040E-2    9.695244399770799E-1    5.662436964247278E-2
 1.046661332349037E5     9.696317298190863E-1    5.611238088416372E-2    3.065901677954521E-2   -5.671081300669416E-2    3.075071514859212E-2   -5.684574000946670E-2    9.695820017376797E-1    5.624112365514556E-2
 1.054647214552430E5     9.696292096739922E-1    5.572425917862280E-2    3.059818650797861E-2   -5.632542551290932E-2    3.069704092936591E-2   -5.646467184798562E-2    9.697029301898101E-1    5.586584640911978E-2
 1.062694027940149E5     9.697354364944228E-1    5.533520933509099E-2    3.054512740683790E-2   -5.595226726943475E-2    3.063962661812310E-2   -5.608207817676797E-2    9.697178273772759E-1    5.548536493522981E-2
 1.070802237408760E5     9.697948198658111E-1    5.494900891573461E-2    3.048952713414701E-2   -5.557127722552390E-2    3.058243648585682E-2   -5.570951024653552E-2    9.697680917026403E-1    5.511651240046695E-2
 1.078972311401927E5     9.698527403324888E-1    5.457392084958659E-2    3.044383710962337E-2   -5.519737062694560E-2    3.053117525319872E-2   -5.533545879119181E-2    9.698153043556157E-1    5.472480102383336E-2
 1.087204721937475E5     9.698846743095413E-1    5.421937269081669E-2    3.038521807225307E-2   -5.482970296244269E-2    3.047437087437887E-2   -5.496191630530049E-2    9.698802416339920E-1    5.438424441791485E-2
 1.095499944634658E5     9.699514648348584E-1    5.383444097934331E-2    3.033181868400021E-2   -5.446456759495486E-2    3.042222801008349E-2   -5.459674473560490E-2    9.699094543598171E-1    5.399698791747609E-2
 1.103858458741646E5     9.700134902035077E-1    5.346999575831334E-2    3.027914419156696E-2   -5.409818563300216E-2    3.036923460011445E-2   -5.423046393668850E-2    9.699814054335282E-1    5.363355861477757E-2
 1.112280747163201E5     9.700749029142882E-1    5.312384144619846E-2    3.022579691738981E-2   -5.373646705087887E-2    3.031610879792981E-2   -5.387032311063355E-2    9.700451232348781E-1    5.325396832180539E-2
 1.120767296488583E5     9.701007395564911E-1    5.276211459095582E-2    3.017183140442969E-2   -5.338070995919770E-2    3.026636826353870E-2   -5.351186254953507E-2    9.700865150707527E-1    5.290463500528270E-2
 1.129318597019661E5     9.701279562718509E-1    5.239067483005327E-2    3.011824395717522E-2   -5.302439561993815E-2    3.021268259618223E-2   -5.315274752272281E-2    9.701325109818739E-1    5.253588505659253E-2
 1.137935142799240E5     9.702017402608494E-1    5.203623911506926E-2    3.006830798656969E-2   -5.267214777966027E-2    3.015914913869635E-2   -5.279957009358004E-2    9.701848345673955E-1    5.220187307556068E-2
 1.146617431639607E5     9.702454488887367E-1    5.170088527368572E-2    3.002061176720981E-2   -5.232016294559685E-2    3.010971800375215E-2   -5.245206645081100E-2    9.702076061805796E-1    5.184645302668184E-2
 1.155365965151286E5     9.702981633634218E-1    5.135771222387955E-2    2.997048875786892E-2   -5.197498872578919E-2    3.005996741738957E-2   -5.210253636209142E-2    9.702822525866924E-1    5.149986178280884E-2
 1.164181248772018E5     9.703323214134865E-1    5.101315314028415E-2    2.992297476388262E-2   -5.162959572614913E-2    3.000728604530052E-2   -5.175600433424515E-2    9.703213297720285E-1    5.115362609122967E-2
 1.173063791795965E5     9.703906051445799E-1    5.067592756434097E-2    2.987229859672798E-2   -5.129349294157496E-2    2.996482971536698E-2   -5.141862114678333E-2    9.703680096909856E-1    5.080895842917473E-2
 1.182014107403141E5     9.704284181598447E-1    5.032888871302475E-2    2.982628673466837E-2   -5.095685078096831E-2    2.990952153475270E-2   -5.108036878300787E-2    9.704211657974933E-1    5.048149604767846E-2
 1.191032712689044E5     9.704390767804094E-1    4.996963219764967E-2    2.977945105223495E-2   -5.061961208248121E-2    2.986511415684729E-2   -5.074227889188312E-2    9.704813310172483E-1    5.014536169246494E-2
 1.200120128694542E5     9.704737505931543E-1    4.965210045719759E-2    2.973008798932456E-2   -5.028716927933193E-2    2.981494906441233E-2   -5.040585775821921E-2    9.705342631612253E-1    4.980369656604943E-2
 1.209276880435975E5     9.705311918281168E-1    4.932322940348237E-2    2.968264952333584E-2   -4.995738329267921E-2    2.976677722969645E-2   -5.007545531787080E-2    9.705724070284633E-1    4.947941514736316E-2
 1.218503496935483E5     9.705971564062257E-1    4.901042535721256E-2    2.963596741508525E-2   -4.963547898183397E-2    2.971802446125928E-2   -4.974619444505227E-2    9.706172279067101E-1    4.915206540251632E-2
 1.227800511251578E5     9.706675486554323E-1    4.870149417391029E-2    2.958849383871416E-2   -4.930753183796802E-2    2.967337924031901E-2   -4.942548726090906E-2    9.706725415689759E-1    4.882421756563926E-2
 1.237168460509929E5     9.707113515887752E-1    4.835418452445815E-2    2.954047190279224E-2   -4.898546658297857E-2    2.962223077309373E-2   -4.910281271790640E-2    9.707029772526242E-1    4.851417453809444E-2
 1.246607885934402E5     9.707271143149773E-1    4.802504070625664E-2    2.949658216703879E-2   -4.866711411333129E-2    2.957655626184147E-2   -4.877827842727464E-2    9.707264114957226E-1    4.819003633226489E-2
 1.256119332878327E5     9.708166819837792E-1    4.771962619985192E-2    2.944870492694623E-2   -4.834825916153280E-2    2.953001096073951E-2   -4.846231245155472E-2    9.707995433518630E-1    4.786196526866363E-2
 1.265703350856002E5     9.708186422659945E-1    4.739292845102783E-2    2.940144169402585E-2   -4.803611994443437E-2    2.948600823026587E-2   -4.814896175340624E-2    9.708556746100162E-1    4.754520441110004E-2
 1.275360493574453E5     9.708633869996988E-1    4.708001142835280E-2    2.935686371945223E-2   -4.772477664014642E-2    2.944472635245115E-2   -4.783625717303831E-2    9.709099996930436E-1    4.724317165923312E-2
 1.285091318965405E5     9.709205051021839E-1    4.678582099406664E-2    2.930952389556205E-2   -4.741510820855924E-2    2.939558479624435E-2   -4.752947301899167E-2    9.709288419610790E-1    4.693563529543631E-2
 1.294896389217529E5     9.709416054223079E-1    4.645915565336676E-2    2.926312544161545E-2   -4.710638326121714E-2    2.934925869502516E-2   -4.721990143997842E-2    9.709843830462691E-1    4.663140680911957E-2
 1.304776270808914E5     9.709630640796317E-1    4.615156839897602E-2    2.922079198351698E-2   -4.680531349042091E-2    2.930622453204252E-2   -4.691847954203784E-2    9.710239032539844E-1    4.634067693496593E-2
 1.314731534539810E5     9.710338933627050E-1    4.586206456761407E-2    2.917964864186933E-2   -4.650583659424758E-2    2.926016994528982E-2   -4.661367737252142E-2    9.710329428756606E-1    4.602285984188203E-2
 1.324762755565583E5     9.710533612241513E-1    4.555857522580365E-2    2.913640492307994E-2   -4.620932777643594E-2    2.921829554510001E-2   -4.631470337395209E-2    9.710803187993415E-1    4.572928503754192E-2
 1.334870513429962E5     9.710662985080724E-1    4.526624648939147E-2    2.908925366992518E-2   -4.590786176384625E-2    2.917341210469425E-2   -4.602150676423998E-2    9.711510109122683E-1    4.543278638622657E-2
 1.345055392098512E5     9.711426948387463E-1    4.496849621377603E-2    2.904895100142411E-2   -4.561626858204282E-2    2.913266597205282E-2   -4.572685001054809E-2    9.712105107124995E-1    4.513316127013849E-2
 1.355317979992373E5     9.711783263987653E-1    4.467839264198108E-2    2.900336440768484E-2   -4.532445755905603E-2    2.908466060926486E-2   -4.543480422711108E-2    9.712403659848580E-1    4.486073173728991E-2
 1.365658870022265E5     9.712234720108948E-1    4.439032559959202E-2    2.896134686752786E-2   -4.503672032368017E-2    2.904457473792767E-2   -4.514391272565086E-2    9.712667794325346E-1    4.456984804028296E-2
 1.376078659622731E5     9.712873819274819E-1    4.411613438148781E-2    2.892065663135453E-2   -4.475312136318274E-2    2.900489889740724E-2   -4.485927472642154E-2    9.713173436143666E-1    4.427979164162592E-2
 1.386577950786655E5     9.713045179849219E-1    4.382384978882314E-2    2.887847803521587E-2   -4.446978497719262E-2    2.895576211072782E-2   -4.457327820197277E-2    9.713319011312442E-1    4.398378903954248E-2
 1.397157350100044E5     9.713581936738617E-1    4.351968715437732E-2    2.883458601302699E-2   -4.418773586968994E-2    2.891419643234157E-2   -4.429174135457332E-2    9.714022680857652E-1    4.369418331586555E-2
 1.407817468777081E5     9.714172086286498E-1    4.326985442357727E-2    2.879362200515714E-2   -4.391059319043376E-2    2.887661279299729E-2   -4.401374119615822E-2    9.714610782352157E-1    4.342494098820666E-2
 1.418558922695422E5     9.714569660273967E-1    4.298474482954481E-2    2.875073267196474E-2   -4.363392314064102E-2    2.883347038059648E-2   -4.373413338114460E-2    9.714747914492490E-1    4.314261425938091E-2
 1.429382332431784E5     9.715002647409567E-1    4.271018633065243E-2    2.870844955498896E-2   -4.335857225954440E-2    2.879438211679684E-2   -4.345975597488033E-2    9.715190942537222E-1    4.285404111042767E-2
 1.440288323297804E5     9.715320841771194E-1    4.245132619862686E-2    2.866909605041853E-2   -4.308893957640984E-2    2.875172723789864E-2   -4.319106150957516E-2    9.715608385045830E-1    4.258878948208614E-2
 1.451277525376154E5     9.715503639446053E-1    4.216416248613696E-2    2.862780449338639E-2   -4.281887637271391E-2    2.870773830998614E-2   -4.291901126262164E-2    9.716165326318100E-1    4.232722630607125E-2
 1.462350573556962E5     9.716075377214817E-1    4.189485802293774E-2    2.858710064814153E-2   -4.255209833398274E-2    2.867016506169533E-2   -4.265408586507988E-2    9.716539580143839E-1    4.205188967885867E-2
 1.473508107574468E5     9.716456652672678E-1    4.163810801460711E-2    2.854690470465535E-2   -4.228096396335360E-2    2.862749488178157E-2   -4.238272468636321E-2    9.716930374596479E-1    4.179730748836322E-2
 1.484750772044004E5     9.716745502802315E-1    4.136054620037192E-2    2.850751337837485E-2   -4.202483982206718E-2    2.858715244299078E-2   -4.211917393859323E-2    9.716982880442404E-1    4.152577095440687E-2
 1.496079216499225E5     9.716744760289311E-1    4.110329266450215E-2    2.846325507005733E-2   -4.176088715950368E-2    2.854676620446029E-2   -4.186201771797104E-2    9.717555167562344E-1    4.127518566467221E-2
 1.507494095429637E5     9.717504140999328E-1    4.084116873342141E-2    2.842435770944446E-2   -4.150556199378311E-2    2.850575554118572E-2   -4.160244503397170E-2    9.717844859593948E-1    4.099911254507261E-2
 1.518996068318418E5     9.718138451328667E-1    4.059659108090070E-2    2.838047412364796E-2   -4.124503820363808E-2    2.846455893344414E-2   -4.134677936435741E-2    9.718412946078457E-1    4.075566239943118E-2
 1.530585799680507E5     9.718496529369809E-1    4.033575714681970E-2    2.834283434788197E-2   -4.099107095799700E-2    2.842589496391331E-2   -4.109229112843309E-2    9.718875715197708E-1    4.048867976130222E-2
 1.542263959101001E5     9.718608689884265E-1    4.007706761818219E-2    2.830326661477401E-2   -4.074319019911359E-2    2.838390733764995E-2   -4.083948434189075E-2    9.719314184953332E-1    4.024779558865647E-2
 1.554031221273835E5     9.719157850509605E-1    3.981316332595551E-2    2.825814479369311E-2   -4.048921095277578E-2    2.834219668615491E-2   -4.058626376976976E-2    9.719620528409093E-1    3.998115785106394E-2
 1.565888266040779E5     9.719603251664113E-1    3.958864248217959E-2    2.822444514345082E-2   -4.024337825637461E-2    2.830290696780306E-2   -4.034016148152866E-2    9.720142688230643E-1    3.973352117746556E-2
 1.577835778430689E5     9.720095425652032E-1    3.933223034553793E-2    2.818454084677553E-2   -3.999888675719066E-2    2.826352493113939E-2   -4.009473588018137E-2    9.720502951349442E-1    3.947593083441495E-2
 1.589874448699104E5     9.720343459975732E-1    3.910081721493305E-2    2.814434135353596E-2   -3.975615684265854E-2    2.822478975896434E-2   -3.984960095023978E-2    9.720949930057842E-1    3.923302342863510E-2
 1.602004972368116E5     9.721098694870298E-1    3.885763605137285E-2    2.810317647653180E-2   -3.951742598045176E-2    2.818663263819832E-2   -3.961171046352634E-2    9.721948763915235E-1    3.898222009686916E-2
 1.614228050266550E5     9.721674195024074E-1    3.862185805600585E-2    2.806683507396689E-2   -3.927642957103199E-2    2.814612444067737E-2   -3.937090300074773E-2    9.722316808272173E-1    3.874885820009896E-2
 1.626544388570473E5     9.721779276793806E-1    3.838903755095281E-2    2.802425694016456E-2   -3.903775573492945E-2    2.810656349503805E-2   -3.913114730347209E-2    9.722183537127965E-1    3.850657874858868E-2
 1.638954698843964E5     9.722208038317859E-1    3.813965467459963E-2    2.798947410244396E-2   -3.880136690074822E-2    2.806973127242567E-2   -3.889880381483241E-2    9.722841321061853E-1    3.827043041847474E-2
 1.651459698080244E5     9.722476880011797E-1    3.791566428525806E-2    2.794764874989846E-2   -3.857224770161382E-2    2.803029395586519E-2   -3.866423378794177E-2    9.723303681332325E-1    3.804915364705302E-2
 1.664060108743095E5     9.722860432232969E-1    3.767477377606928E-2    2.791250989711990E-2   -3.833897861666244E-2    2.799125894544142E-2   -3.843129485550165E-2    9.723759970677356E-1    3.780737243060726E-2
 1.676756658808590E5     9.723352227772624E-1    3.743547040137819E-2    2.786986902345828E-2   -3.811301485617941E-2    2.795042605892219E-2   -3.820250320524645E-2    9.724069936527971E-1    3.757892307582691E-2
 1.689550081807175E5     9.723515855156122E-1    3.719592285398828E-2    2.783215030164309E-2   -3.788586546382315E-2    2.791156321489937E-2   -3.797721109629155E-2    9.724485200744378E-1    3.733441932606773E-2
 1.702441116866020E5     9.723801495593484E-1    3.697598756851257E-2    2.779022339337782E-2   -3.765550586952876E-2    2.787470546225844E-2   -3.775337353526699E-2    9.725187128639083E-1    3.713216343690280E-2
 1.715430508751738E5     9.724340646784047E-1    3.674838443580152E-2    2.775600547368367E-2   -3.743281246054254E-2    2.783517608387711E-2   -3.752729861103628E-2    9.725074497855015E-1    3.689245277590778E-2
 1.728519007913403E5     9.724927216721576E-1    3.654479042550154E-2    2.771472339070759E-2   -3.721193404168180E-2    2.779472556817229E-2   -3.730465756832344E-2    9.725520304811210E-1    3.665545025110864E-2
 1.741707370525927E5     9.725324679407095E-1    3.632258190859957E-2    2.767523142281611E-2   -3.699742206189829E-2    2.775336886200942E-2   -3.708113146297523E-2    9.725969608408032E-1    3.643939596576999E-2
 1.754996358533718E5     9.725803474923415E-1    3.609402498050851E-2    2.763917310012919E-2   -3.677911504267647E-2    2.771853860382300E-2   -3.686397719844681E-2    9.726160146461859E-1    3.622159702784166E-2
 1.768386739694722E5     9.725914548067957E-1    3.586869246451113E-2    2.759867182569818E-2   -3.656215974991235E-2    2.767961693011658E-2   -3.664840010288786E-2    9.727018270423611E-1    3.602505621909611E-2
 1.781879287624771E5     9.726174806405899E-1    3.564821771352340E-2    2.756330387228334E-2   -3.634465290240649E-2    2.763874048027209E-2   -3.643523868293470E-2    9.727292627567129E-1    3.578304520530234E-2
 1.795474781842276E5     9.726710639801374E-1    3.545208582964610E-2    2.752034024831190E-2   -3.613314148101823E-2    2.759838466336963E-2   -3.621989114653701E-2    9.727318252477092E-1    3.557311993570478E-2
 1.809174007813277E5     9.727402253425164E-1    3.522161983499419E-2    2.748193499814206E-2   -3.592943156396327E-2    2.755891406890270E-2   -3.600940022864815E-2    9.727713398270904E-1    3.536571984921338E-2
 1.822977756996804E5     9.727273461118052E-1    3.501084669240508E-2    2.744426709021425E-2   -3.571416415649397E-2    2.751998131069237E-2   -3.580047095709766E-2    9.727972576354011E-1    3.516175259085966E-2
 1.836886826890609E5     9.727768655104694E-1    3.481277265518492E-2    2.740861014392585E-2   -3.550938310989109E-2    2.748004904190080E-2   -3.559127189544752E-2    9.728423371838263E-1    3.494909178041132E-2
 1.850902021077247E5     9.728189800932860E-1    3.460568360391069E-2    2.737367638846920E-2   -3.530769214441524E-2    2.744381558250145E-2   -3.538913395120059E-2    9.728687220263362E-1    3.473612277847188E-2
 1.865024149270491E5     9.728614961053974E-1    3.439628016369271E-2    2.733167057784030E-2   -3.510223714341364E-2    2.740408421431300E-2   -3.518772411501499E-2    9.729268219356927E-1    3.455006812180187E-2
 1.879254027362132E5     9.729147956140772E-1    3.420595707461067E-2    2.729143207886624E-2   -3.490456033455567E-2    2.736932012969748E-2   -3.498325600129108E-2    9.729934125738520E-1    3.433630279811956E-2
 1.893592477469092E5     9.729456158830964E-1    3.399043022223536E-2    2.726156964702427E-2   -3.468751677532485E-2    2.732369419253677E-2   -3.479139304539931E-2    9.730143497104444E-1    3.411370906532035E-2
 1.908040327980933E5     9.729989868920208E-1    3.380304729551827E-2    2.721420078612662E-2   -3.450310363560105E-2    2.728676093854930E-2   -3.458594533220764E-2    9.730294090204559E-1    3.392191867322432E-2
 1.922598413607715E5     9.730287295037242E-1    3.359487799341724E-2    2.717533737475256E-2   -3.431034831408232E-2    2.724924857357269E-2   -3.438671925123898E-2    9.731106012117320E-1    3.372033516665053E-2
 1.937267575428232E5     9.730840380361311E-1    3.339459814107985E-2    2.714211517446090E-2   -3.411231104291573E-2    2.721230429374097E-2   -3.419230938893542E-2    9.731452615497370E-1    3.352483771197599E-2
 1.952048660938581E5     9.731094367166315E-1    3.320758146836163E-2    2.709979390623806E-2   -3.392143260308208E-2    2.717251747643028E-2   -3.400022121869187E-2    9.731653116871947E-1    3.332556980058256E-2
 1.966942524101142E5     9.731204635289840E-1    3.300081576126049E-2    2.705744955339807E-2   -3.373014564655133E-2    2.713130684666294E-2   -3.380795878840538E-2    9.732129240691271E-1    3.313055624193809E-2
 1.981950025393913E5     9.731195404734151E-1    3.281686303608409E-2    2.702143700844921E-2   -3.354046167293616E-2    2.709324353696754E-2   -3.361694181409457E-2    9.732282134125916E-1    3.295566592553622E-2
