#  HZ   S   RI   R     50.00 
! Rohde & Schwarz Vector Network Analyzer 
! Rohde-Schwarz,ZNLE6-2Port,1323001256200024,1.71.1.10-23.02.1.238
! Created: UTC 4/7/2025, 7:53:21 AM
! freq[Hz]                re:S11                  im:S11                  re:S21                  im:S21                  re:S12                  im:S12                  re:S22                  im:S22
 1.000000000000000E5     9.731281425012138E-1    5.211627678098647E-2    2.721001465424568E-2   -5.261451492498550E-2    2.729576486718273E-2   -5.275166227085597E-2    9.731392031171147E-1    5.221062413081253E-2
 1.007629862646662E5     9.732174903474046E-1    5.172438757469160E-2    2.716313021040386E-2   -5.226062830240486E-2    2.725070017640345E-2   -5.239037288199402E-2    9.732035077870441E-1    5.184359105135004E-2
 1.015317940097331E5     9.732479120631998E-1    5.136662230116160E-2    2.711748463452015E-2   -5.190778143850709E-2    2.719939107285496E-2   -5.203067196234378E-2    9.732269012322440E-1    5.147909944610340E-2
 1.023064676522963E5     9.732644310572591E-1    5.101016052897257E-2    2.706900189464030E-2   -5.155489402269708E-2    2.715108283691284E-2   -5.167883433749598E-2    9.732836040120635E-1    5.112825491033196E-2
 1.030870519483485E5     9.732720040734746E-1    5.066198591091495E-2    2.702313524302294E-2   -5.120353986999594E-2    2.710857762564746E-2   -5.132718589916044E-2    9.733085321748036E-1    5.079009990007678E-2
 1.038735919953636E5     9.733238966510044E-1    5.029166489280954E-2    2.697611094139326E-2   -5.085725625752607E-2    2.705597643106175E-2   -5.097879458592521E-2    9.733608782064592E-1    5.042327594945028E-2
 1.046661332349037E5     9.733563191543941E-1    4.995583764747193E-2    2.693265886113241E-2   -5.051054770396163E-2    2.700912293504838E-2   -5.063292474346765E-2    9.733893664804603E-1    5.008200510084797E-2
 1.054647214552430E5     9.733773221596062E-1    4.959111792765515E-2    2.688619990000856E-2   -5.016923480815087E-2    2.696663098995180E-2   -5.028969909144881E-2    9.734579885431216E-1    4.974407512982203E-2
 1.062694027940149E5     9.734346186458069E-1    4.924942664823027E-2    2.683987317150408E-2   -4.983066879617726E-2    2.692466281388087E-2   -4.995210909460793E-2    9.734893391000370E-1    4.940845063703177E-2
 1.070802237408760E5     9.734870703685797E-1    4.890256829520232E-2    2.679315626324260E-2   -4.949538615471849E-2    2.687731954730197E-2   -4.961639170077297E-2    9.735526528283737E-1    4.908435621566174E-2
 1.078972311401927E5     9.735400672903083E-1    4.858518876571383E-2    2.675307975994395E-2   -4.916501218768250E-2    2.683320213534560E-2   -4.928151769848372E-2    9.735816084816845E-1    4.873177178971957E-2
 1.087204721937475E5     9.735614523769216E-1    4.825759940754288E-2    2.671103697908327E-2   -4.883298366462394E-2    2.679031247150673E-2   -4.895057902663522E-2    9.736458964954856E-1    4.840826234308099E-2
 1.095499944634658E5     9.736075426191442E-1    4.792059361611940E-2    2.666738275900345E-2   -4.850184186082459E-2    2.674733269391669E-2   -4.862308818507462E-2    9.736383984867162E-1    4.806532928085782E-2
 1.103858458741646E5     9.736331375354614E-1    4.759322282312500E-2    2.662003828774414E-2   -4.818003285870863E-2    2.670290541389184E-2   -4.829459267488727E-2    9.736982554137678E-1    4.775029399902633E-2
 1.112280747163201E5     9.736779057706010E-1    4.728044454793366E-2    2.657838421069106E-2   -4.785924877584340E-2    2.665821951652177E-2   -4.797030800765383E-2    9.737506927134206E-1    4.742007618582804E-2
 1.120767296488583E5     9.737176189903897E-1    4.695529801465594E-2    2.653486259361514E-2   -4.753497317924103E-2    2.661348356724975E-2   -4.764934334279483E-2    9.737982348210462E-1    4.709634392386315E-2
 1.129318597019661E5     9.737437883986566E-1    4.662987223058682E-2    2.649255055420383E-2   -4.722221061067673E-2    2.657381645292991E-2   -4.733257549733451E-2    9.737998911374893E-1    4.677297345239795E-2
 1.137935142799240E5     9.738084619099819E-1    4.632198054987067E-2    2.645036942958004E-2   -4.690749089615808E-2    2.652901654550566E-2   -4.701926590867919E-2    9.738425745594381E-1    4.647435876251760E-2
 1.146617431639607E5     9.738321421326103E-1    4.599111153208951E-2    2.641130641118305E-2   -4.659625797476338E-2    2.649108801370216E-2   -4.670677933317621E-2    9.739058522081002E-1    4.615337222642463E-2
 1.155365965151286E5     9.738871419392924E-1    4.570196978191208E-2    2.637130738411521E-2   -4.628576259017187E-2    2.644617515798445E-2   -4.639900991692620E-2    9.739492556517106E-1    4.584802925213788E-2
 1.164181248772018E5     9.739058019709858E-1    4.538198670885835E-2    2.633261124608609E-2   -4.597565421694911E-2    2.640996188630768E-2   -4.609189213729047E-2    9.739668206499358E-1    4.554831090454711E-2
 1.173063791795965E5     9.739542846577617E-1    4.507376628424572E-2    2.629269889077899E-2   -4.567430475188999E-2    2.636686797248291E-2   -4.578524566765175E-2    9.740025671756530E-1    4.523448695813887E-2
 1.182014107403141E5     9.739842730858315E-1    4.478322541855043E-2    2.624956061342037E-2   -4.537480195130363E-2    2.632882542642789E-2   -4.548179497295537E-2    9.740445463445367E-1    4.492853451729242E-2
 1.191032712689044E5     9.740225596652231E-1    4.444991843252461E-2    2.621070805005818E-2   -4.507452700841739E-2    2.628830689679291E-2   -4.518282006071318E-2    9.741464209091318E-1    4.462823081085861E-2
 1.200120128694542E5     9.740748508216432E-1    4.418729396757362E-2    2.617359646352551E-2   -4.477911557154370E-2    2.624931704181442E-2   -4.488789457283137E-2    9.741583134351075E-1    4.432266662638474E-2
 1.209276880435975E5     9.740879899981717E-1    4.388500514773326E-2    2.613085705855513E-2   -4.448565343720630E-2    2.620886725890922E-2   -4.459227484548178E-2    9.741789518868297E-1    4.403745392961796E-2
 1.218503496935483E5     9.741476781662473E-1    4.359674824366443E-2    2.609806261429991E-2   -4.419458205768404E-2    2.617315117525200E-2   -4.430056327062098E-2    9.742224159078011E-1    4.376647967547481E-2
 1.227800511251578E5     9.741901993045758E-1    4.331212928800196E-2    2.605475241108302E-2   -4.390562416096170E-2    2.613098217931704E-2   -4.400991161926082E-2    9.742444480128820E-1    4.344561138506046E-2
 1.237168460509929E5     9.742101148621816E-1    4.302336087515773E-2    2.601906153088612E-2   -4.361899847206217E-2    2.609371470629470E-2   -4.372365783389517E-2    9.743099128810901E-1    4.316792268039685E-2
 1.246607885934402E5     9.742203928386256E-1    4.271563118635158E-2    2.597757229095598E-2   -4.333369590306525E-2    2.605375157572343E-2   -4.343485412505856E-2    9.743140866470003E-1    4.288198471235778E-2
 1.256119332878327E5     9.743178338823968E-1    4.245964167405682E-2    2.594070378110754E-2   -4.305267878226940E-2    2.601447567134077E-2   -4.315418707057368E-2    9.743723817367400E-1    4.258406612675484E-2
 1.265703350856002E5     9.743356633113562E-1    4.214965319863435E-2    2.590281442340353E-2   -4.277338531275882E-2    2.597945366565227E-2   -4.287440047363967E-2    9.744147129535047E-1    4.232246488720908E-2
 1.275360493574453E5     9.743812270465345E-1    4.187679865416713E-2    2.586502120100867E-2   -4.249288282846306E-2    2.594361138649824E-2   -4.259140432356773E-2    9.744806841763338E-1    4.205814611180535E-2
 1.285091318965405E5     9.744105913643986E-1    4.161701899108046E-2    2.582670027550422E-2   -4.221905973773002E-2    2.590366846687069E-2   -4.231594412590930E-2    9.744622961605811E-1    4.177488196570118E-2
 1.294896389217529E5     9.744338080819630E-1    4.133948172830781E-2    2.579052675567826E-2   -4.194515437046848E-2    2.586608840553921E-2   -4.204508178893598E-2    9.745264081754739E-1    4.150877244605797E-2
 1.304776270808914E5     9.744359474068460E-1    4.104291707674373E-2    2.575382923743747E-2   -4.167408510928876E-2    2.582792895135051E-2   -4.177502805175864E-2    9.745622847973342E-1    4.124163586695193E-2
 1.314731534539810E5     9.744843934241080E-1    4.078478057604955E-2    2.571789831952635E-2   -4.140524595297521E-2    2.579458971471663E-2   -4.150436737014876E-2    9.745826164848588E-1    4.094452544046470E-2
 1.324762755565583E5     9.745284500681904E-1    4.052397328390509E-2    2.568520768083940E-2   -4.114165166537959E-2    2.575753486924440E-2   -4.123897292289355E-2    9.746455668378932E-1    4.070307489633903E-2
 1.334870513429962E5     9.745331648158013E-1    4.026714059417523E-2    2.564436040056291E-2   -4.087676547920432E-2    2.572114555523564E-2   -4.097457244057398E-2    9.746816651313602E-1    4.043578893777577E-2
 1.345055392098512E5     9.745916457912183E-1    3.999933384560332E-2    2.561011446444339E-2   -4.061529832917844E-2    2.568910491444659E-2   -4.071350177033182E-2    9.747294669316130E-1    4.016509200499357E-2
 1.355317979992373E5     9.746504556168123E-1    3.973817788214874E-2    2.557722395320719E-2   -4.035853707137810E-2    2.565087596376699E-2   -4.045348382832412E-2    9.747547716786773E-1    3.992304932369969E-2
 1.365658870022265E5     9.746617083061929E-1    3.948039654086868E-2    2.553963689475679E-2   -4.010205248871244E-2    2.561623428381720E-2   -4.019201394572754E-2    9.747474648936931E-1    3.965079063959850E-2
 1.376078659622731E5     9.747191509884514E-1    3.922822989651012E-2    2.550562561836138E-2   -3.984523949637772E-2    2.557669400150874E-2   -3.993850682818788E-2    9.747902664347345E-1    3.939641299999398E-2
 1.386577950786655E5     9.747434141697283E-1    3.897555149483321E-2    2.546887973865921E-2   -3.959257841997280E-2    2.554337898975420E-2   -3.968145890537788E-2    9.748354256026314E-1    3.912692453166493E-2
 1.397157350100044E5     9.747973313157441E-1    3.872590140163269E-2    2.543664279699769E-2   -3.934051364314164E-2    2.550816948926116E-2   -3.942971719467707E-2    9.748779521653771E-1    3.887801822366418E-2
 1.407817468777081E5     9.748480763869862E-1    3.847505720444591E-2    2.540143316930159E-2   -3.909298386507111E-2    2.547255799655303E-2   -3.918037696842627E-2    9.749060916437183E-1    3.863839145753978E-2
 1.418558922695422E5     9.748567150210067E-1    3.822636316466385E-2    2.536799441875991E-2   -3.884669641972471E-2    2.544239094034520E-2   -3.893512471729831E-2    9.749677907232343E-1    3.838515069155383E-2
 1.429382332431784E5     9.748627602327812E-1    3.799038931811333E-2    2.533081074617895E-2   -3.860290893394207E-2    2.540385898133931E-2   -3.869473227119332E-2    9.750062587255173E-1    3.814668146150182E-2
 1.440288323297804E5     9.749157099838242E-1    3.775295448692597E-2    2.529804664728369E-2   -3.835680938581808E-2    2.536806329351091E-2   -3.845149081120656E-2    9.750439599244243E-1    3.789697216750930E-2
 1.451277525376154E5     9.749077696636043E-1    3.748206317034844E-2    2.526191492806740E-2   -3.811820951064931E-2    2.533107567319088E-2   -3.820557670185907E-2    9.750916442437333E-1    3.765484449401666E-2
 1.462350573556962E5     9.749623814509442E-1    3.724697938643799E-2    2.522778561594377E-2   -3.788211477584723E-2    2.529987194789145E-2   -3.796699488688612E-2    9.750930005212084E-1    3.741426346399323E-2
 1.473508107574468E5     9.749971183952607E-1    3.701999545834499E-2    2.519567122721057E-2   -3.764695611814547E-2    2.526570954294168E-2   -3.772897304491681E-2    9.751527656181452E-1    3.718026951290646E-2
 1.484750772044004E5     9.750541948434618E-1    3.677719392366940E-2    2.516404737556233E-2   -3.741067836624724E-2    2.522884276589386E-2   -3.749299507882661E-2    9.751486462529849E-1    3.693961111982921E-2
 1.496079216499225E5     9.750817107018601E-1    3.654993361978664E-2    2.512654374592229E-2   -3.717950713060743E-2    2.519829693578009E-2   -3.726340755170716E-2    9.751834516984055E-1    3.670751408742658E-2
 1.507494095429637E5     9.751182815484910E-1    3.633233079671387E-2    2.509244526269538E-2   -3.694590249712718E-2    2.516263842319785E-2   -3.703147608220751E-2    9.752099456206729E-1    3.649312348360383E-2
 1.518996068318418E5     9.751534293701430E-1    3.609776437102195E-2    2.506059010480385E-2   -3.672062485674563E-2    2.513061149316471E-2   -3.680352247791752E-2    9.752701470676325E-1    3.624975212781873E-2
 1.530585799680507E5     9.751657391938090E-1    3.586972332953692E-2    2.502483158728011E-2   -3.649194276742256E-2    2.509422451426720E-2   -3.658005962744148E-2    9.752989809704367E-1    3.600994203794636E-2
 1.542263959101001E5     9.752027773249612E-1    3.562240860802628E-2    2.499347966539176E-2   -3.627172043892096E-2    2.506018276163293E-2   -3.635157741085022E-2    9.753266999535646E-1    3.580101862878469E-2
 1.554031221273835E5     9.752458008217288E-1    3.541168104697377E-2    2.495633176016731E-2   -3.604501286414859E-2    2.502674505882443E-2   -3.612455630759739E-2    9.753636831463147E-1    3.556112751532044E-2
 1.565888266040779E5     9.752802298731329E-1    3.520448985132498E-2    2.492555089095016E-2   -3.582292753106216E-2    2.499620488816328E-2   -3.590495813525550E-2    9.753952565388108E-1    3.533254316990737E-2
 1.577835778430689E5     9.753095926943560E-1    3.495495323422780E-2    2.489564143515215E-2   -3.560201694875349E-2    2.495988048750620E-2   -3.568463200934081E-2    9.754251021756050E-1    3.512651838098495E-2
 1.589874448699104E5     9.753389627734740E-1    3.476579905817200E-2    2.485801534599492E-2   -3.538661045675993E-2    2.492582912136523E-2   -3.546817423803780E-2    9.754642932340930E-1    3.489881798560450E-2
 1.602004972368116E5     9.754086134013665E-1    3.454166494465149E-2    2.482402128386161E-2   -3.517215855597065E-2    2.489360441233193E-2   -3.525466137516646E-2    9.755565279532195E-1    3.467328407441872E-2
 1.614228050266550E5     9.754155285729461E-1    3.433267705599730E-2    2.479252004809862E-2   -3.495899285216272E-2    2.486353840781953E-2   -3.504029998588579E-2    9.755610460801732E-1    3.445835567890795E-2
 1.626544388570473E5     9.754390779189693E-1    3.411653318945864E-2    2.475870118611901E-2   -3.474646562943910E-2    2.483018037747827E-2   -3.482701107130996E-2    9.755745305956597E-1    3.423917581401220E-2
 1.638954698843964E5     9.754999819070929E-1    3.389824576712300E-2    2.472528067794354E-2   -3.453769929411989E-2    2.479659782871717E-2   -3.461665098080324E-2    9.756196575438786E-1    3.405007623680120E-2
 1.651459698080244E5     9.755278484287164E-1    3.368745494721191E-2    2.469424347584795E-2   -3.433251207439155E-2    2.476315669881885E-2   -3.441047577092360E-2    9.756318803575010E-1    3.383382601690416E-2
 1.664060108743095E5     9.755332727553007E-1    3.348538788945016E-2    2.466104578510046E-2   -3.412610067509880E-2    2.472845910845562E-2   -3.420613696251002E-2    9.757127487990727E-1    3.361960020900357E-2
 1.676756658808590E5     9.755726808087124E-1    3.326631013383453E-2    2.463039623116521E-2   -3.391935754553847E-2    2.469828344948690E-2   -3.399741938685521E-2    9.757311425448442E-1    3.342440299670341E-2
 1.689550081807175E5     9.756086787582052E-1    3.305273951649957E-2    2.459592030802068E-2   -3.371988660147873E-2    2.466604579431781E-2   -3.379316001395798E-2    9.757633970181242E-1    3.321138676197790E-2
 1.702441116866020E5     9.756080666714559E-1    3.287016437369337E-2    2.456231549733474E-2   -3.351867293153061E-2    2.463121741319124E-2   -3.359617629313189E-2    9.758129031044012E-1    3.301398808279868E-2
 1.715430508751738E5     9.756509563840939E-1    3.266544306623523E-2    2.452816512312126E-2   -3.331618087326196E-2    2.459980213538038E-2   -3.339279894304005E-2    9.758045037486610E-1    3.280809361130871E-2
 1.728519007913403E5     9.757175768252979E-1    3.247174112582030E-2    2.449895358209872E-2   -3.312086659284700E-2    2.456712325660896E-2   -3.319386540907694E-2    9.758859456920240E-1    3.260787009722069E-2
 1.741707370525927E5     9.757247030922491E-1    3.226334274590714E-2    2.446459536589463E-2   -3.292552180891575E-2    2.453022738715478E-2   -3.299823815628126E-2    9.759133659987254E-1    3.241557405221823E-2
 1.754996358533718E5     9.757665147377929E-1    3.207224573541483E-2    2.443102131255951E-2   -3.273218998310153E-2    2.449896606952482E-2   -3.280426247099850E-2    9.759098191008559E-1    3.220376629824966E-2
 1.768386739694722E5     9.757920635978915E-1    3.187079066629974E-2    2.439874599628844E-2   -3.253704292963577E-2    2.446576533917095E-2   -3.261464577518440E-2    9.759931535424821E-1    3.203576711876659E-2
 1.781879287624771E5     9.758111107954639E-1    3.167595729963678E-2    2.436526416399329E-2   -3.234562009705616E-2    2.443331828603663E-2   -3.241995927959863E-2    9.760180087532383E-1    3.183339874253430E-2
 1.795474781842276E5     9.758491067404975E-1    3.149429298190482E-2    2.432943154218520E-2   -3.215682430518165E-2    2.439761500369824E-2   -3.222992700092032E-2    9.760354728739931E-1    3.163889667256026E-2
 1.809174007813277E5     9.759276391650704E-1    3.129784837974313E-2    2.429887773431974E-2   -3.197237376571111E-2    2.436555472032991E-2   -3.203975050909053E-2    9.760369059066500E-1    3.145247173966591E-2
 1.822977756996804E5     9.759286779112893E-1    3.110196059700762E-2    2.426877392889891E-2   -3.178593952294408E-2    2.433246231183593E-2   -3.185788277665785E-2    9.761047222612684E-1    3.127023868031828E-2
 1.836886826890609E5     9.759534830737695E-1    3.092893711036140E-2    2.423617908720960E-2   -3.160244624464246E-2    2.429602083347386E-2   -3.167177609280121E-2    9.760751169981475E-1    3.107078682291923E-2
 1.850902021077247E5     9.760066474779274E-1    3.074957652232613E-2    2.419947286089336E-2   -3.141738119186958E-2    2.426644393412898E-2   -3.148830249484826E-2    9.761223714453570E-1    3.086864154604631E-2
 1.865024149270491E5     9.760356584498997E-1    3.056001301627036E-2    2.416756692337278E-2   -3.123904669008730E-2    2.423290246214734E-2   -3.130546469734421E-2    9.761603753346993E-1    3.070354018123934E-2
 1.879254027362132E5     9.760665975383869E-1    3.037720227983723E-2    2.413454631843986E-2   -3.106069287100672E-2    2.420176371796028E-2   -3.113020214775973E-2    9.762133590880232E-1    3.050832197066711E-2
 1.893592477469092E5     9.761275712467268E-1    3.012742752923531E-2    2.408635863922139E-2   -3.089283086379871E-2    2.415375747859279E-2   -3.093236626677969E-2    9.762490396979924E-1    3.034333161233554E-2
 1.908040327980933E5     9.761028465893352E-1    3.002475468574331E-2    2.406607304860057E-2   -3.070369322277709E-2    2.413052004487430E-2   -3.077086080056188E-2    9.762875906402385E-1    3.016145789158341E-2
 1.922598413607715E5     9.761556325547101E-1    2.982619106685720E-2    2.403461171264097E-2   -3.052593171099908E-2    2.409546484185589E-2   -3.059792079764383E-2    9.763194176595406E-1    2.997025113922235E-2
 1.937267575428232E5     9.761880947423619E-1    2.966519494278941E-2    2.399975846670980E-2   -3.035682398182813E-2    2.406693437181084E-2   -3.042305916753634E-2    9.763613155290903E-1    2.979839265302094E-2
 1.952048660938581E5     9.762446883082058E-1    2.948329561022256E-2    2.396820422577960E-2   -3.018544675141151E-2    2.403581328422962E-2   -3.025042452410542E-2    9.763897016001230E-1    2.962498396119450E-2
 1.966942524101142E5     9.762551682509591E-1    2.930552824587159E-2    2.393409077717560E-2   -3.001151127067691E-2    2.399765059666397E-2   -3.007958507876541E-2    9.764138621459119E-1    2.944258246838232E-2
 1.981950025393913E5     9.762710684813010E-1    2.914758838919181E-2    2.389986987725488E-2   -2.984548410927611E-2    2.396860645214577E-2   -2.990868927849136E-2    9.764395147130787E-1    2.928257275941754E-2
