#  HZ   S   RI   R     50.00 
! Rohde & Schwarz Vector Network Analyzer 
! Rohde-Schwarz,ZNLE6-2Port,1323001256200024,1.71.1.10-23.02.1.238
! Created: UTC 4/7/2025, 7:42:18 AM
! freq[Hz]                re:S11                  im:S11                  re:S21                  im:S21                  re:S12                  im:S12                  re:S22                  im:S22
 1.000000000000000E5     9.762154437847622E-1    4.670337611568992E-2    2.407767173115870E-2   -4.716900830121603E-2    2.414821164124831E-2   -4.728208168991188E-2    9.762381462550117E-1    4.676932733328774E-2
 1.007629862646662E5     9.763093055374972E-1    4.635955260186779E-2    2.403486251008011E-2   -4.684846218394265E-2    2.411355476208179E-2   -4.695920519796789E-2    9.762903547446058E-1    4.644218934642141E-2
 1.015317940097331E5     9.763116698525245E-1    4.603007847965077E-2    2.399992953498432E-2   -4.652659087710349E-2    2.407251515882449E-2   -4.663609427210604E-2    9.762988442690280E-1    4.611644712230915E-2
 1.023064676522963E5     9.763463312689173E-1    4.570802677869667E-2    2.396000084493250E-2   -4.621221824395107E-2    2.402939108756201E-2   -4.632377422711478E-2    9.763499159283059E-1    4.579296280668804E-2
 1.030870519483485E5     9.763641998806584E-1    4.539756675255192E-2    2.392063255067879E-2   -4.589422268207733E-2    2.399225525414055E-2   -4.600679455194683E-2    9.763995561217007E-1    4.546981173533936E-2
 1.038735919953636E5     9.764021111420965E-1    4.507165448618878E-2    2.388374234982298E-2   -4.558536407780450E-2    2.395455128576421E-2   -4.569148113922743E-2    9.764165616044281E-1    4.517704776617550E-2
 1.046661332349037E5     9.764030191140762E-1    4.476299717222337E-2    2.384485449741926E-2   -4.527425814506390E-2    2.391593487739881E-2   -4.538270657213538E-2    9.764301975821790E-1    4.486181079422905E-2
 1.054647214552430E5     9.764385594373961E-1    4.443770440691958E-2    2.380995963919926E-2   -4.496696814243185E-2    2.387928806980387E-2   -4.507541143947550E-2    9.764990887003043E-1    4.455877214891502E-2
 1.062694027940149E5     9.764561347882394E-1    4.413806328166498E-2    2.376935472056307E-2   -4.466424768163298E-2    2.384287969076590E-2   -4.477025098974574E-2    9.765239580770788E-1    4.425489398860744E-2
 1.070802237408760E5     9.765380664498553E-1    4.381754970144769E-2    2.373457230451087E-2   -4.436253504623051E-2    2.380174774673775E-2   -4.447185620274647E-2    9.765723593900376E-1    4.395202107289147E-2
 1.078972311401927E5     9.765765549351688E-1    4.352623364093318E-2    2.369992751657284E-2   -4.406136670459104E-2    2.377012887267056E-2   -4.417122048941676E-2    9.765561102601271E-1    4.363627727506951E-2
 1.087204721937475E5     9.765872501455296E-1    4.322676509544091E-2    2.365672538945725E-2   -4.376864032931660E-2    2.373312805135483E-2   -4.387289300313957E-2    9.766433169844233E-1    4.335900240690371E-2
 1.095499944634658E5     9.766397284116266E-1    4.291994327712672E-2    2.362600344773100E-2   -4.347371766881068E-2    2.369643507733481E-2   -4.357746882537044E-2    9.766626681609584E-1    4.304925857996444E-2
 1.103858458741646E5     9.766519771435738E-1    4.263680637127999E-2    2.358932265100413E-2   -4.317991605306409E-2    2.366293901145345E-2   -4.328448088158143E-2    9.767166987808249E-1    4.275812238161474E-2
 1.112280747163201E5     9.766976838324000E-1    4.233498211496917E-2    2.355630988077030E-2   -4.289659987847499E-2    2.362928968505092E-2   -4.299611113763761E-2    9.767502868312282E-1    4.247648742189201E-2
 1.120767296488583E5     9.767136349505238E-1    4.205443885132197E-2    2.351784504461641E-2   -4.260208294417393E-2    2.359337908624611E-2   -4.270770380372519E-2    9.767599067358815E-1    4.217329668299345E-2
 1.129318597019661E5     9.767259080468248E-1    4.177318134735803E-2    2.348136449753517E-2   -4.232201650408435E-2    2.355523416446067E-2   -4.241955496580216E-2    9.767739938338160E-1    4.187519161046107E-2
 1.137935142799240E5     9.767840527448899E-1    4.148221203169609E-2    2.344941632648380E-2   -4.204050802445444E-2    2.352087390460606E-2   -4.213857312047614E-2    9.768136569198355E-1    4.161531022227606E-2
 1.146617431639607E5     9.768146335074297E-1    4.118909657651867E-2    2.341243405476572E-2   -4.175726840100063E-2    2.348879078885357E-2   -4.186272560255715E-2    9.768717948106528E-1    4.135132521799331E-2
 1.155365965151286E5     9.768413781324305E-1    4.093598028604038E-2    2.338580235094490E-2   -4.147987921134298E-2    2.345165036996429E-2   -4.158083670116033E-2    9.769118208955213E-1    4.105517385052897E-2
 1.164181248772018E5     9.768594596529897E-1    4.065324088828225E-2    2.334783127518759E-2   -4.120556552429486E-2    2.341984407523962E-2   -4.130583907397727E-2    9.768976200072298E-1    4.077256939803189E-2
 1.173063791795965E5     9.769160147963289E-1    4.036685919458272E-2    2.331436848544246E-2   -4.093177438487847E-2    2.338559675353966E-2   -4.103641153919429E-2    9.769621121318528E-1    4.050894456602634E-2
 1.182014107403141E5     9.769329917904571E-1    4.010944317285006E-2    2.328355735959667E-2   -4.066457151686475E-2    2.335563642141008E-2   -4.076299558704096E-2    9.769853832874211E-1    4.024130103293133E-2
 1.191032712689044E5     9.769962269314489E-1    3.982153541145880E-2    2.324827849602431E-2   -4.039408612974284E-2    2.331908105260596E-2   -4.049069807793814E-2    9.770460494854760E-1    3.996806954061615E-2
 1.200120128694542E5     9.769882999724052E-1    3.956450014337126E-2    2.321501707139730E-2   -4.012976651495535E-2    2.328669247839146E-2   -4.022265117058629E-2    9.770699465839969E-1    3.970234565701610E-2
 1.209276880435975E5     9.770257099385452E-1    3.931542835833575E-2    2.318405585815920E-2   -3.986415006674161E-2    2.325463364098634E-2   -3.995690376310464E-2    9.770929010738998E-1    3.944324759236743E-2
 1.218503496935483E5     9.770710987608099E-1    3.905986621856164E-2    2.315494491707443E-2   -3.960434111192618E-2    2.322378128272748E-2   -3.969629203480743E-2    9.771279810945503E-1    3.917301424314040E-2
 1.227800511251578E5     9.770931266533687E-1    3.879019671268165E-2    2.312078588966666E-2   -3.934451551925499E-2    2.319008298916586E-2   -3.943980821181686E-2    9.771517177975734E-1    3.889982011448950E-2
 1.237168460509929E5     9.771353383340095E-1    3.852255977330409E-2    2.309109067178522E-2   -3.908401218035976E-2    2.315630285217045E-2   -3.917854495859419E-2    9.772059965663452E-1    3.864468721394940E-2
 1.246607885934402E5     9.771232472671694E-1    3.826769704107827E-2    2.306007447875151E-2   -3.883039970021552E-2    2.312209052553079E-2   -3.892476748890480E-2    9.772328973229387E-1    3.839567991943702E-2
 1.256119332878327E5     9.771798589958368E-1    3.802583360835444E-2    2.302764879453681E-2   -3.858003528134923E-2    2.309407970090597E-2   -3.866687567074040E-2    9.772474627727240E-1    3.813471359786555E-2
 1.265703350856002E5     9.772234596648044E-1    3.776677639845517E-2    2.299895256506231E-2   -3.832634699200394E-2    2.305926133138661E-2   -3.841677421868471E-2    9.773218047746799E-1    3.788804671010905E-2
 1.275360493574453E5     9.772617550632640E-1    3.749932651031770E-2    2.296302162674251E-2   -3.807691398383291E-2    2.303036581491994E-2   -3.816319443606142E-2    9.773390557415568E-1    3.764257787059842E-2
 1.285091318965405E5     9.773012150489090E-1    3.726638901970739E-2    2.293420178680700E-2   -3.783194555118389E-2    2.299849739602618E-2   -3.791690444214680E-2    9.773517266376873E-1    3.739706743150363E-2
 1.294896389217529E5     9.773021875142798E-1    3.699930954118162E-2    2.290325104185458E-2   -3.758543315136562E-2    2.296829816943637E-2   -3.767197663614231E-2    9.774024195411225E-1    3.714793577153012E-2
 1.304776270808914E5     9.773076654388780E-1    3.675400294466830E-2    2.287026050605721E-2   -3.734047240624691E-2    2.293673534377262E-2   -3.742716872235068E-2    9.774166689365548E-1    3.691461343453407E-2
 1.314731534539810E5     9.773717569980396E-1    3.651111563465554E-2    2.284584227011864E-2   -3.710200593656022E-2    2.290642918791881E-2   -3.718620146295338E-2    9.774402736629617E-1    3.665186286302781E-2
 1.324762755565583E5     9.774065612407292E-1    3.626291988660919E-2    2.281090839170145E-2   -3.686526201738386E-2    2.287305159739418E-2   -3.694501085119652E-2    9.774837546187176E-1    3.642752625929549E-2
 1.334870513429962E5     9.774088545790370E-1    3.602732603306216E-2    2.278057786957481E-2   -3.662534858193982E-2    2.284540751392570E-2   -3.671099950749756E-2    9.775196725664358E-1    3.619847946725424E-2
 1.345055392098512E5     9.774397026247512E-1    3.579296184492538E-2    2.275136272045132E-2   -3.639368535646320E-2    2.281336080536581E-2   -3.647530339242864E-2    9.775553091353814E-1    3.594228230313753E-2
 1.355317979992373E5     9.774670970396546E-1    3.557202703032149E-2    2.272340520529789E-2   -3.616149767988591E-2    2.278560479122946E-2   -3.624158687728404E-2    9.775861857229070E-1    3.572651242446254E-2
 1.365658870022265E5     9.774687393399686E-1    3.533349137193675E-2    2.269420916628743E-2   -3.592950770619028E-2    2.275299098271287E-2   -3.601243673345826E-2    9.775907438640022E-1    3.549213172680252E-2
 1.376078659622731E5     9.775179270829273E-1    3.508386805946833E-2    2.266695554110794E-2   -3.569851908161250E-2    2.272745691956905E-2   -3.577981060767250E-2    9.776584619308653E-1    3.526095435921107E-2
 1.386577950786655E5     9.775499678540350E-1    3.487861838495135E-2    2.263252268448296E-2   -3.546925238225836E-2    2.269308865953425E-2   -3.555275937634880E-2    9.776540588235823E-1    3.503403440767137E-2
 1.397157350100044E5     9.775739244564985E-1    3.465430633675337E-2    2.260338333580826E-2   -3.524292563055839E-2    2.266483531974347E-2   -3.532724057222361E-2    9.776901333358847E-1    3.479382354386501E-2
 1.407817468777081E5     9.776272396976329E-1    3.442386376944639E-2    2.257532581208472E-2   -3.502388340526660E-2    2.263524073149669E-2   -3.510253937293941E-2    9.777391825379594E-1    3.457055785805725E-2
 1.418558922695422E5     9.776398883355230E-1    3.420651784650443E-2    2.254724427212623E-2   -3.480080229993491E-2    2.260854607695449E-2   -3.488077136616492E-2    9.777444743850169E-1    3.434341444623217E-2
 1.429382332431784E5     9.776668956719162E-1    3.398743281296266E-2    2.251389617504473E-2   -3.458121128504005E-2    2.257679296093582E-2   -3.466204976229662E-2    9.777743254427929E-1    3.413047264430769E-2
 1.440288323297804E5     9.776859223904211E-1    3.377843366913769E-2    2.248693807001235E-2   -3.436260820773392E-2    2.255084018104869E-2   -3.444492451219328E-2    9.778248984009941E-1    3.391718325898468E-2
 1.451277525376154E5     9.776791820165271E-1    3.354437339590041E-2    2.245377729933842E-2   -3.414671360226852E-2    2.251808665456172E-2   -3.422480078059485E-2    9.778907662672698E-1    3.370474619290397E-2
 1.462350573556962E5     9.777105957113321E-1    3.331798570293005E-2    2.242835685611112E-2   -3.393503417972073E-2    2.248893497309183E-2   -3.401411301287691E-2    9.778954762351535E-1    3.347438981195046E-2
 1.473508107574468E5     9.777644916267774E-1    3.312014817014829E-2    2.240041730196003E-2   -3.372568252375008E-2    2.246014372407709E-2   -3.379884483749241E-2    9.779150713855647E-1    3.327045192306219E-2
 1.484750772044004E5     9.777599499356290E-1    3.289384077069141E-2    2.236926448838024E-2   -3.350868473386198E-2    2.243140147930338E-2   -3.358610760338445E-2    9.779294286031415E-1    3.305558994544582E-2
 1.496079216499225E5     9.778053763546251E-1    3.269475526396066E-2    2.234039185509460E-2   -3.330525989090633E-2    2.240350303692689E-2   -3.338163639952861E-2    9.779465183670280E-1    3.284838141429564E-2
 1.507494095429637E5     9.778546483884303E-1    3.248986415437725E-2    2.231098854981120E-2   -3.309532001541299E-2    2.237166307679743E-2   -3.317254684729645E-2    9.779763509942941E-1    3.263614688065707E-2
 1.518996068318418E5     9.778960379488977E-1    3.228513575185324E-2    2.228393888989424E-2   -3.289220393579317E-2    2.234479221105901E-2   -3.296495730058124E-2    9.780189402586753E-1    3.243499159490611E-2
 1.530585799680507E5     9.779247486084853E-1    3.208001349158895E-2    2.225786706784166E-2   -3.268661660302152E-2    2.231582409485326E-2   -3.276125579974663E-2    9.780307213298226E-1    3.221805462844366E-2
 1.542263959101001E5     9.779118286462501E-1    3.185590545947967E-2    2.222619836672801E-2   -3.248530855474069E-2    2.228720121681625E-2   -3.255963182352432E-2    9.780731255516172E-1    3.202544516417468E-2
 1.554031221273835E5     9.779764572543418E-1    3.166525172408356E-2    2.219737157425646E-2   -3.228772979256412E-2    2.226006116736810E-2   -3.236013056557614E-2    9.780921797423925E-1    3.181273114801734E-2
 1.565888266040779E5     9.779824784295044E-1    3.147580595656203E-2    2.216704566197358E-2   -3.208610877855579E-2    2.222960533596185E-2   -3.216195053581489E-2    9.781163161029821E-1    3.161223342259514E-2
 1.577835778430689E5     9.780037420804075E-1    3.127180613988145E-2    2.214123859154984E-2   -3.188944135090604E-2    2.220401224212499E-2   -3.196594536395483E-2    9.781403809720594E-1    3.140860043462532E-2
 1.589874448699104E5     9.780290184518902E-1    3.109433395674384E-2    2.211221205930090E-2   -3.169653440267600E-2    2.217291707021461E-2   -3.177166008207304E-2    9.781769475937323E-1    3.119944988715872E-2
 1.602004972368116E5     9.780893385899605E-1    3.089930224485312E-2    2.208431296714053E-2   -3.150516819385104E-2    2.214369835970548E-2   -3.157785688241712E-2    9.782532777118262E-1    3.100878758032748E-2
 1.614228050266550E5     9.781185707428262E-1    3.068741398962532E-2    2.205552300753575E-2   -3.131193337689199E-2    2.211849115089968E-2   -3.138656389136346E-2    9.783046021242968E-1    3.080903921647995E-2
 1.626544388570473E5     9.781562615856808E-1    3.050244543498970E-2    2.202657386135257E-2   -3.112208870915952E-2    2.208883798589622E-2   -3.119333612573871E-2    9.782915334757575E-1    3.061403661010826E-2
 1.638954698843964E5     9.781879246210877E-1    3.031551916039308E-2    2.199841440183299E-2   -3.092954343799729E-2    2.206206718270387E-2   -3.101115619317004E-2    9.783247165829506E-1    3.043894538414975E-2
 1.651459698080244E5     9.782045031466232E-1    3.012394799011290E-2    2.197265454961715E-2   -3.074851891696068E-2    2.203252648751070E-2   -3.081981456961159E-2    9.783342174226936E-1    3.025488821991484E-2
 1.664060108743095E5     9.782142916530342E-1    2.994197179875330E-2    2.194568238234252E-2   -3.055963386545736E-2    2.200335837945988E-2   -3.063200241257296E-2    9.783761513842488E-1    3.005977093472498E-2
 1.676756658808590E5     9.782449972358093E-1    2.974482636230519E-2    2.191372766199211E-2   -3.037620549406931E-2    2.197521230863043E-2   -3.044990813542245E-2    9.783869717958416E-1    2.988139935213013E-2
 1.689550081807175E5     9.782591045449263E-1    2.954176010363653E-2    2.188496673143541E-2   -3.019925044530475E-2    2.194822228449294E-2   -3.026663472070217E-2    9.784230487451081E-1    2.968930593265342E-2
 1.702441116866020E5     9.783280791100384E-1    2.937387587521412E-2    2.186213158881237E-2   -3.001572838561703E-2    2.192105384418972E-2   -3.008868418480121E-2    9.784439485344526E-1    2.951298507301015E-2
 1.715430508751738E5     9.783121554871811E-1    2.918922953449669E-2    2.182528458330966E-2   -2.983460067534426E-2    2.189054355650777E-2   -2.990859949417536E-2    9.784541031214886E-1    2.932092275161861E-2
 1.728519007913403E5     9.783578160444597E-1    2.902426961005035E-2    2.180398575309365E-2   -2.966051637386377E-2    2.186468785491372E-2   -2.972756425436473E-2    9.785198956539418E-1    2.914821600068163E-2
 1.741707370525927E5     9.783911564753820E-1    2.885706072650275E-2    2.177517073041263E-2   -2.948623208329106E-2    2.183104458233840E-2   -2.955473216987240E-2    9.785290647681012E-1    2.896583275432356E-2
 1.754996358533718E5     9.784106731167930E-1    2.866754543039853E-2    2.174655659210228E-2   -2.930909216305489E-2    2.180590417736126E-2   -2.937954035547639E-2    9.785225650877943E-1    2.877543357205356E-2
 1.768386739694722E5     9.784603002752921E-1    2.848535846352879E-2    2.171736834708211E-2   -2.913901267575430E-2    2.177957198978012E-2   -2.920827144473504E-2    9.786127148729341E-1    2.862823174964325E-2
 1.781879287624771E5     9.784745566580993E-1    2.833127322115420E-2    2.169083794946050E-2   -2.896772040826527E-2    2.175056181277782E-2   -2.903153427827882E-2    9.786376547704216E-1    2.845205189658939E-2
 1.795474781842276E5     9.785049106759184E-1    2.816793145437190E-2    2.166045517674399E-2   -2.879496556851437E-2    2.172070732689535E-2   -2.886282664762108E-2    9.786584245328855E-1    2.827585367848845E-2
 1.809174007813277E5     9.785414287971282E-1    2.797301776314935E-2    2.163241388947752E-2   -2.862594049872184E-2    2.169176807022490E-2   -2.869663154165164E-2    9.786667469659680E-1    2.810089608594248E-2
 1.822977756996804E5     9.785606878087336E-1    2.780152280449630E-2    2.160368040625339E-2   -2.846112884428123E-2    2.166296533061982E-2   -2.852726440300330E-2    9.787079598839828E-1    2.794011857376157E-2
 1.836886826890609E5     9.786005103211173E-1    2.764244291211150E-2    2.157450917576280E-2   -2.829270117103355E-2    2.163458266341435E-2   -2.836239350229103E-2    9.787038379038248E-1    2.776176430313818E-2
 1.850902021077247E5     9.786086241515545E-1    2.747549731079802E-2    2.154794055697788E-2   -2.813040281665932E-2    2.160500200394629E-2   -2.819472311300724E-2    9.787488521885120E-1    2.759437041020785E-2
 1.865024149270491E5     9.786479613033513E-1    2.729930236566680E-2    2.151985050605255E-2   -2.796942674732888E-2    2.157744637881443E-2   -2.803306303118942E-2    9.787811129111599E-1    2.743562036129546E-2
 1.879254027362132E5     9.786946093626190E-1    2.714942444353067E-2    2.149251938077987E-2   -2.780504720014142E-2    2.155070378883337E-2   -2.787410056267149E-2    9.788462984036840E-1    2.726588776496731E-2
 1.893592477469092E5     9.787725984974637E-1    2.692928875598024E-2    2.144755574423953E-2   -2.766359065664145E-2    2.151509330096134E-2   -2.769362265145517E-2    9.788822628877487E-1    2.711672563243988E-2
 1.908040327980933E5     9.787724019863799E-1    2.684296868552764E-2    2.143369477154621E-2   -2.749059909161235E-2    2.149069639432444E-2   -2.755269766029480E-2    9.789262453723266E-1    2.694806225067239E-2
 1.922598413607715E5     9.787779487427843E-1    2.666807335039826E-2    2.140252306984444E-2   -2.733301383141775E-2    2.146182570044464E-2   -2.739554728499633E-2    9.789416540144709E-1    2.678104658729801E-2
 1.937267575428232E5     9.788035910937397E-1    2.650998881628949E-2    2.137470533998782E-2   -2.717348659321704E-2    2.143423790729338E-2   -2.723931971980184E-2    9.789747082865189E-1    2.662864565957816E-2
 1.952048660938581E5     9.788465161638072E-1    2.635653792225600E-2    2.134602242631970E-2   -2.702129895592655E-2    2.140490978803932E-2   -2.708627050427200E-2    9.789732648326723E-1    2.644836050444673E-2
 1.966942524101142E5     9.788627744032392E-1    2.618920601893340E-2    2.131777594258087E-2   -2.687200592185673E-2    2.137464668741832E-2   -2.693236512346947E-2    9.790086928353213E-1    2.629556950284001E-2
 1.981950025393913E5     9.788801660356964E-1    2.605280627182686E-2    2.128845271600581E-2   -2.671832689923398E-2    2.134698912365095E-2   -2.677956652345728E-2    9.790329139347017E-1    2.615327261252956E-2
