#  HZ   S   RI   R     50.00 
! Rohde & Schwarz Vector Network Analyzer 
! Rohde-Schwarz,ZNLE6-2Port,1323001256200024,1.71.1.10-23.02.1.238
! Created: UTC 4/7/2025, 7:27:37 AM
! freq[Hz]                re:S11                  im:S11                  re:S21                  im:S21                  re:S12                  im:S12                  re:S22                  im:S22
 1.000000000000000E5     9.787940913166742E-1    4.214789305212946E-2    2.145214954854624E-2   -4.258600462291554E-2    2.151774393697872E-2   -4.269059993711462E-2    9.788453642033547E-1    4.221591115653162E-2
 1.007629862646662E5     9.788333624171520E-1    4.181643906979150E-2    2.141641718502240E-2   -4.229491371268845E-2    2.148524511762743E-2   -4.240138702616476E-2    9.788887697437714E-1    4.192378725254672E-2
 1.015317940097331E5     9.788509618929653E-1    4.152951842339037E-2    2.138396865526114E-2   -4.200839158069501E-2    2.144814094359481E-2   -4.211087446813236E-2    9.789168988214648E-1    4.162348908044415E-2
 1.023064676522963E5     9.788944642857683E-1    4.122635009210621E-2    2.135355182142427E-2   -4.171848636087354E-2    2.141498927113727E-2   -4.182449074286619E-2    9.789536748516333E-1    4.132595434432295E-2
 1.030870519483485E5     9.789062539053189E-1    4.093211489163981E-2    2.132029272707230E-2   -4.143860557712892E-2    2.138476945091514E-2   -4.153633361615215E-2    9.789815155048391E-1    4.104485399223371E-2
 1.038735919953636E5     9.789403012229860E-1    4.065858684611404E-2    2.128987361413278E-2   -4.115285672438369E-2    2.135269103609312E-2   -4.125144762840861E-2    9.790109035951028E-1    4.076641454710291E-2
 1.046661332349037E5     9.789479765253220E-1    4.036812500890434E-2    2.125583664455868E-2   -4.087260456480010E-2    2.132362766942180E-2   -4.097718470282947E-2    9.790219356134756E-1    4.048055528782400E-2
 1.054647214552430E5     9.789595790648298E-1    4.008571527364108E-2    2.122478047187179E-2   -4.059498472799194E-2    2.128862238399905E-2   -4.069374461919060E-2    9.790993662094010E-1    4.020576642671519E-2
 1.062694027940149E5     9.789948200846956E-1    3.981046027530805E-2    2.119479550038524E-2   -4.032293540144714E-2    2.126088731714102E-2   -4.041744574002409E-2    9.790749717370050E-1    3.994085076657319E-2
 1.070802237408760E5     9.790242322183973E-1    3.952594810670566E-2    2.116286806348839E-2   -4.004509648292190E-2    2.122866426210004E-2   -4.014597172196244E-2    9.791306158967035E-1    3.966365873320588E-2
 1.078972311401927E5     9.790430280198505E-1    3.926451545856412E-2    2.113388427024987E-2   -3.977898290284981E-2    2.119925618509939E-2   -3.987252951214867E-2    9.791501858528290E-1    3.937635516635929E-2
 1.087204721937475E5     9.790872035521943E-1    3.899563779020074E-2    2.110425916892936E-2   -3.950888058523640E-2    2.116750516746596E-2   -3.960246657819969E-2    9.791742882062586E-1    3.912228299054828E-2
 1.095499944634658E5     9.791154737602591E-1    3.871601710912949E-2    2.107396258437362E-2   -3.924117205898166E-2    2.113718270418994E-2   -3.933719780937558E-2    9.791987361159992E-1    3.884661704045676E-2
 1.103858458741646E5     9.791476581880411E-1    3.845249239658039E-2    2.104499274616858E-2   -3.897768655805490E-2    2.110543857231866E-2   -3.906949334361759E-2    9.792375500401990E-1    3.858795887367834E-2
 1.112280747163201E5     9.791857639412346E-1    3.817859323111860E-2    2.101463581742133E-2   -3.871732809627426E-2    2.107738693013615E-2   -3.880845101722533E-2    9.792827622621596E-1    3.832335888328888E-2
 1.120767296488583E5     9.792280118832778E-1    3.792873446605795E-2    2.098634993884997E-2   -3.845607721688604E-2    2.104824947588759E-2   -3.855026817233638E-2    9.793244234767012E-1    3.805163769007103E-2
 1.129318597019661E5     9.792337481350476E-1    3.766665496884299E-2    2.095369972265958E-2   -3.819865193950112E-2    2.101837821518506E-2   -3.828881055894276E-2    9.793104243866532E-1    3.779015379618983E-2
 1.137935142799240E5     9.792733946124009E-1    3.741265030946287E-2    2.092128531657908E-2   -3.794379610789616E-2    2.098980187269649E-2   -3.802783223430936E-2    9.793436425833812E-1    3.755146324770672E-2
 1.146617431639607E5     9.792750110721795E-1    3.714786812566575E-2    2.089724949691433E-2   -3.768766466110637E-2    2.096159120227382E-2   -3.778342867921871E-2    9.793602599179441E-1    3.728969777629451E-2
 1.155365965151286E5     9.793034216473220E-1    3.690787776749831E-2    2.087396331536447E-2   -3.743945809290860E-2    2.093510545666242E-2   -3.752778506529079E-2    9.794256513044357E-1    3.704384429149060E-2
 1.164181248772018E5     9.793100507297198E-1    3.664494947147842E-2    2.084297574784503E-2   -3.718817955816257E-2    2.090403814417513E-2   -3.727692061557825E-2    9.794148203742118E-1    3.678130376229221E-2
 1.173063791795965E5     9.793797914622530E-1    3.639537616476196E-2    2.081501582788232E-2   -3.694177269468991E-2    2.087752381620032E-2   -3.703317632691551E-2    9.794436173279444E-1    3.654039820551019E-2
 1.182014107403141E5     9.793876126081985E-1    3.616328659692931E-2    2.078886643909243E-2   -3.669673760300782E-2    2.084680637605558E-2   -3.678438061148793E-2    9.794730118849443E-1    3.628934268282378E-2
 1.191032712689044E5     9.794253401493928E-1    3.591001341567528E-2    2.076329129683657E-2   -3.645494741923865E-2    2.082148720630996E-2   -3.654299218021391E-2    9.795278334647561E-1    3.604857936131965E-2
 1.200120128694542E5     9.794124957354482E-1    3.566762888132124E-2    2.073834911454650E-2   -3.621479408675547E-2    2.079073683720340E-2   -3.629909667814470E-2    9.795758699865122E-1    3.579157544585887E-2
 1.209276880435975E5     9.794447035284413E-1    3.542659370326579E-2    2.070954777310327E-2   -3.597428403032216E-2    2.076487252432105E-2   -3.605597316735536E-2    9.795719753720763E-1    3.556139471786347E-2
 1.218503496935483E5     9.794937471313847E-1    3.520007853055467E-2    2.068194028179547E-2   -3.573806275192905E-2    2.073784054284122E-2   -3.582045739345780E-2    9.795958320383067E-1    3.531788092276622E-2
 1.227800511251578E5     9.795414634904974E-1    3.496295885001123E-2    2.065408274221631E-2   -3.550129356654159E-2    2.071040812422534E-2   -3.558369467559881E-2    9.796363492412933E-1    3.507289155445437E-2
 1.237168460509929E5     9.795425764696351E-1    3.471351541950767E-2    2.062676325894735E-2   -3.526675232791997E-2    2.068619700928613E-2   -3.535431428522981E-2    9.796796408146522E-1    3.485398368150739E-2
 1.246607885934402E5     9.795334534400416E-1    3.446588660838270E-2    2.059546084685969E-2   -3.503583936829945E-2    2.065589079454263E-2   -3.511697640127679E-2    9.797062525498034E-1    3.462060805783982E-2
 1.256119332878327E5     9.795954213612118E-1    3.425185071149205E-2    2.056855938862183E-2   -3.481006895862262E-2    2.062726526849105E-2   -3.489130537876719E-2    9.797100442750388E-1    3.437897652327205E-2
 1.265703350856002E5     9.796210103521465E-1    3.402161554246535E-2    2.054358307100150E-2   -3.458162639085715E-2    2.060142793647872E-2   -3.466223349047254E-2    9.797692056087445E-1    3.416158210643757E-2
 1.275360493574453E5     9.796149090996771E-1    3.378405389958938E-2    2.051666818373494E-2   -3.435563332419643E-2    2.057453612926933E-2   -3.443393829930022E-2    9.797699527097283E-1    3.392152982614054E-2
 1.285091318965405E5     9.796633336136167E-1    3.356826221938263E-2    2.049230522811183E-2   -3.412846411297437E-2    2.054859044045421E-2   -3.421035875040813E-2    9.797987812573434E-1    3.370822290744185E-2
 1.294896389217529E5     9.796694587953061E-1    3.334270554773641E-2    2.046438728470096E-2   -3.391012203775601E-2    2.052491365660574E-2   -3.398733824600961E-2    9.798429167119264E-1    3.349208231302586E-2
 1.304776270808914E5     9.796817237001113E-1    3.311033277344679E-2    2.043817776453860E-2   -3.368869777006669E-2    2.050098342118255E-2   -3.376823468578226E-2    9.798754600959050E-1    3.327781544469408E-2
 1.314731534539810E5     9.797037313189904E-1    3.290201657509279E-2    2.041734903633876E-2   -3.347392071766239E-2    2.047048341227373E-2   -3.354969736784130E-2    9.798831802270360E-1    3.304213780593895E-2
 1.324762755565583E5     9.797580173416853E-1    3.267602105312669E-2    2.038774525858937E-2   -3.325829953997733E-2    2.044826943619183E-2   -3.333322708015141E-2    9.799145553982863E-1    3.284269903603030E-2
 1.334870513429962E5     9.797667343496540E-1    3.245847241933104E-2    2.036181198399118E-2   -3.303831967416215E-2    2.041753482850111E-2   -3.311884351065368E-2    9.799378595118449E-1    3.262460545588276E-2
 1.345055392098512E5     9.797893269508149E-1    3.225300013561050E-2    2.033907529371871E-2   -3.282913625081019E-2    2.039411217899294E-2   -3.290600203887274E-2    9.799501215278531E-1    3.240266660151365E-2
 1.355317979992373E5     9.798431811098804E-1    3.203787935779330E-2    2.031267685807863E-2   -3.262059122168433E-2    2.036704283623294E-2   -3.269315937691299E-2    9.799826363931962E-1    3.220872284162136E-2
 1.365658870022265E5     9.798396399451387E-1    3.182176008005458E-2    2.028942638364937E-2   -3.240559098473385E-2    2.034219102519891E-2   -3.248332639150876E-2    9.800006484789667E-1    3.199060499052157E-2
 1.376078659622731E5     9.798832139683397E-1    3.163430501895327E-2    2.026081222923671E-2   -3.220037834159518E-2    2.031832199070815E-2   -3.227638730087137E-2    9.800415702360501E-1    3.177064583044641E-2
 1.386577950786655E5     9.798886223689052E-1    3.142879199195446E-2    2.023402676913106E-2   -3.199257472392373E-2    2.029242972112727E-2   -3.206798763816130E-2    9.800345992136846E-1    3.156662410969560E-2
 1.397157350100044E5     9.799422744210117E-1    3.121957528703557E-2    2.021530627083751E-2   -3.179209252274447E-2    2.026566692362367E-2   -3.186498932214037E-2    9.800831972124663E-1    3.135165963632402E-2
 1.407817468777081E5     9.799821832714529E-1    3.102930842551724E-2    2.018944249786678E-2   -3.158940038060899E-2    2.024179744843962E-2   -3.166165871092519E-2    9.801112362557521E-1    3.115714483327938E-2
 1.418558922695422E5     9.799952014473199E-1    3.081492978757683E-2    2.016212990912436E-2   -3.138715049347474E-2    2.021723291058883E-2   -3.145828543481371E-2    9.801422024961030E-1    3.095094155676929E-2
 1.429382332431784E5     9.800131739192086E-1    3.061133763507880E-2    2.013799125398833E-2   -3.118663285424400E-2    2.019442901048093E-2   -3.126638196437481E-2    9.801645474985825E-1    3.074172236578076E-2
 1.440288323297804E5     9.799877973763300E-1    3.042856947671290E-2    2.011327876557895E-2   -3.099332725082936E-2    2.016636347955865E-2   -3.106586824256434E-2    9.802051464651974E-1    3.054663098726175E-2
 1.451277525376154E5     9.800267684076323E-1    3.022111221315348E-2    2.008844789495583E-2   -3.079578799570075E-2    2.014402244878451E-2   -3.086861459344560E-2    9.802813920668492E-1    3.037142076047120E-2
 1.462350573556962E5     9.800191580025327E-1    3.000660943895989E-2    2.006317322140307E-2   -3.060130965922937E-2    2.011680980407897E-2   -3.067276713359790E-2    9.802733091421709E-1    3.017564681131704E-2
 1.473508107574468E5     9.800468724751218E-1    2.982882848193086E-2    2.003830994889950E-2   -3.041136963776502E-2    2.009306971177943E-2   -3.048125732123444E-2    9.803091580391938E-1    2.995931112276670E-2
 1.484750772044004E5     9.800827886535166E-1    2.962564672394380E-2    2.001309731235831E-2   -3.022149849514716E-2    2.007104005344788E-2   -3.028824839858842E-2    9.802829662402618E-1    2.976906420222155E-2
 1.496079216499225E5     9.800978122159155E-1    2.943731516651517E-2    1.998785287591925E-2   -3.003046247438331E-2    2.004526046146558E-2   -3.010281920133659E-2    9.802791513514713E-1    2.958048279857481E-2
 1.507494095429637E5     9.801485292958892E-1    2.926764129946470E-2    1.996260178764387E-2   -2.984297647241190E-2    2.002066353584279E-2   -2.991298922913095E-2    9.803199291785754E-1    2.940228191862833E-2
 1.518996068318418E5     9.801841656514629E-1    2.907311368684559E-2    1.994001209673136E-2   -2.965510828074490E-2    1.999744117382529E-2   -2.972975401925805E-2    9.803875487736888E-1    2.921369105432076E-2
 1.530585799680507E5     9.801915808646163E-1    2.888447117141096E-2    1.991342074046339E-2   -2.947102876663511E-2    1.996656877536028E-2   -2.954185924042510E-2    9.803666321901044E-1    2.900463347433680E-2
 1.542263959101001E5     9.802169667797199E-1    2.868225085311964E-2    1.988876199677592E-2   -2.929161088030344E-2    1.994680870666966E-2   -2.935841663030610E-2    9.803849873920075E-1    2.883701664588871E-2
 1.554031221273835E5     9.802349052562963E-1    2.850823134386526E-2    1.986231068917338E-2   -2.910554474646048E-2    1.992079519323032E-2   -2.917712157005222E-2    9.804175456820018E-1    2.864489882751239E-2
 1.565888266040779E5     9.802611669556869E-1    2.833083144408106E-2    1.983828970377864E-2   -2.893410323633775E-2    1.989765892769771E-2   -2.900024212538553E-2    9.804201571552451E-1    2.846868191103495E-2
 1.577835778430689E5     9.803219920778419E-1    2.815492718469641E-2    1.981741322341204E-2   -2.875478484204784E-2    1.987261546181063E-2   -2.881917952230761E-2    9.804530615093799E-1    2.828742264819760E-2
 1.589874448699104E5     9.802934572801991E-1    2.798927171754472E-2    1.979188193855252E-2   -2.857483649461644E-2    1.984610882555338E-2   -2.864064519033702E-2    9.804971061349352E-1    2.809394349915087E-2
 1.602004972368116E5     9.803567653812304E-1    2.781651187768405E-2    1.976757222153222E-2   -2.840133069230487E-2    1.982280129529958E-2   -2.846842473586199E-2    9.805565411420102E-1    2.790911793575546E-2
 1.614228050266550E5     9.803757980673591E-1    2.763443746329915E-2    1.974041418585774E-2   -2.822783904899766E-2    1.979990135677447E-2   -2.829446789562348E-2    9.805647881232353E-1    2.773512181143209E-2
 1.626544388570473E5     9.804038888487686E-1    2.745229000957601E-2    1.971961768382807E-2   -2.805323669718798E-2    1.977517471818878E-2   -2.811962897329869E-2    9.805763887770594E-1    2.756731055191092E-2
 1.638954698843964E5     9.804445407788924E-1    2.728840137709102E-2    1.969393081023781E-2   -2.788269115202939E-2    1.974811242494268E-2   -2.795046991988814E-2    9.806075760135013E-1    2.739377556760313E-2
 1.651459698080244E5     9.804854289664386E-1    2.711139305778077E-2    1.967176249008745E-2   -2.771842200283936E-2    1.972494560976405E-2   -2.778127902526465E-2    9.806240683396701E-1    2.722248342660727E-2
 1.664060108743095E5     9.805199817067474E-1    2.694390468362100E-2    1.964800353653008E-2   -2.754956200607855E-2    1.970317469122364E-2   -2.761336880239247E-2    9.806228580613910E-1    2.705097361759561E-2
 1.676756658808590E5     9.805244937282912E-1    2.677063910464291E-2    1.962046674186306E-2   -2.737997666175189E-2    1.967732325795160E-2   -2.744197852676271E-2    9.806388848106139E-1    2.688317886118850E-2
 1.689550081807175E5     9.805307550203987E-1    2.659151933415799E-2    1.959529953644918E-2   -2.721969878690933E-2    1.965072584886050E-2   -2.728004052629154E-2    9.806927887110023E-1    2.670789768737716E-2
 1.702441116866020E5     9.805369142626672E-1    2.642702018359683E-2    1.957432162439102E-2   -2.704963811869280E-2    1.962861666648131E-2   -2.711712067224219E-2    9.807335093664636E-1    2.655050606315556E-2
 1.715430508751738E5     9.805757214945984E-1    2.626821457425023E-2    1.954781942291576E-2   -2.689410968703096E-2    1.960162363385310E-2   -2.695157114555437E-2    9.807483156116179E-1    2.638992803329552E-2
 1.728519007913403E5     9.806016370877135E-1    2.610872712640945E-2    1.952495936399027E-2   -2.672986966899514E-2    1.957793573570293E-2   -2.679249826804570E-2    9.808051411672823E-1    2.622735872506026E-2
 1.741707370525927E5     9.806312480070258E-1    2.595603969442752E-2    1.949817363912430E-2   -2.657110250865245E-2    1.955436250531220E-2   -2.663353636686563E-2    9.808192416773124E-1    2.606491605296925E-2
 1.754996358533718E5     9.806439597810017E-1    2.578503564676578E-2    1.947419438116928E-2   -2.641232792234697E-2    1.953084010469626E-2   -2.647514719840616E-2    9.808123165574458E-1    2.590814122200840E-2
 1.768386739694722E5     9.806491240979416E-1    2.562183490303754E-2    1.945062148445378E-2   -2.625759554713870E-2    1.950491850479188E-2   -2.631663047224777E-2    9.808689611376351E-1    2.575589903836562E-2
 1.781879287624771E5     9.806589952707920E-1    2.545051262317838E-2    1.942670712088963E-2   -2.610398555984866E-2    1.948170546832651E-2   -2.616246578800880E-2    9.809050783279325E-1    2.558430820271887E-2
 1.795474781842276E5     9.806847894300664E-1    2.531740120355996E-2    1.940083515120675E-2   -2.594485368273412E-2    1.945326513612924E-2   -2.600823443840289E-2    9.808802312376113E-1    2.544063910473322E-2
 1.809174007813277E5     9.807144629205174E-1    2.515033353792056E-2    1.937805968573410E-2   -2.579403731590099E-2    1.943435915147661E-2   -2.585610634343100E-2    9.809247406753090E-1    2.528425227894874E-2
 1.822977756996804E5     9.807300339266475E-1    2.500126135908130E-2    1.934995306199357E-2   -2.564273570323979E-2    1.940571425784478E-2   -2.570098319142626E-2    9.809831870934216E-1    2.514808248214656E-2
 1.836886826890609E5     9.807657599768347E-1    2.484748240668278E-2    1.932857284185625E-2   -2.549531561494243E-2    1.937861867381349E-2   -2.555060841211993E-2    9.809833965442514E-1    2.497685253329535E-2
 1.850902021077247E5     9.807798361423192E-1    2.469736304658905E-2    1.930614568670314E-2   -2.534399500295420E-2    1.935543108606513E-2   -2.540080361484811E-2    9.810057763966800E-1    2.482506197485907E-2
 1.865024149270491E5     9.808046599471238E-1    2.454381824291581E-2    1.927852601791897E-2   -2.519767508670442E-2    1.933190434497664E-2   -2.525622641707279E-2    9.810436888814482E-1    2.468784852886360E-2
 1.879254027362132E5     9.808409345775475E-1    2.439955128477796E-2    1.925565548551091E-2   -2.504904974272454E-2    1.930357381617234E-2   -2.511170389241643E-2    9.810729359341085E-1    2.452115499499482E-2
 1.893592477469092E5     9.808454173893830E-1    2.420469352741921E-2    1.921903484661115E-2   -2.489810949728581E-2    1.927607240023580E-2   -2.497334334368805E-2    9.810971137582615E-1    2.433970974565529E-2
 1.908040327980933E5     9.808869359837731E-1    2.411687851158519E-2    1.920477838913266E-2   -2.476154967990419E-2    1.925437994049326E-2   -2.481724610238360E-2    9.811030947887428E-1    2.422662212279173E-2
 1.922598413607715E5     9.809169433416465E-1    2.395859094626391E-2    1.917725558313619E-2   -2.462105568045063E-2    1.922954409320475E-2   -2.467339861309419E-2    9.811122650714416E-1    2.406577443516898E-2
 1.937267575428232E5     9.809190256103675E-1    2.381288636453533E-2    1.915456085430021E-2   -2.447873528836182E-2    1.920438697464766E-2   -2.453280487669334E-2    9.811581846722781E-1    2.393602177030077E-2
 1.952048660938581E5     9.809626296108420E-1    2.366702543170076E-2    1.912750238029879E-2   -2.433628727092233E-2    1.918101949896095E-2   -2.439430359350413E-2    9.811455983649873E-1    2.377377092580115E-2
 1.966942524101142E5     9.810002314544077E-1    2.351515147792965E-2    1.910224409197312E-2   -2.420070358492486E-2    1.915234977774847E-2   -2.425505249504437E-2    9.811773195252231E-1    2.364886566457351E-2
 1.981950025393913E5     9.810013526543007E-1    2.338776407708858E-2    1.907852213765687E-2   -2.405781080350045E-2    1.912915887160818E-2   -2.411606642874844E-2    9.812489894086290E-1    2.351291781528395E-2
