#  HZ   S   RI   R     50.00 
! Rohde & Schwarz Vector Network Analyzer 
! Rohde-Schwarz,ZNLE6-2Port,1323001256200024,1.71.1.10-23.02.1.238
! Created: UTC 4/7/2025, 7:17:39 AM
! freq[Hz]                re:S11                  im:S11                  re:S21                  im:S21                  re:S12                  im:S12                  re:S22                  im:S22
 1.000000000000000E5     9.810228213504533E-1    3.816515233458956E-2    1.923731026544989E-2   -3.859618462169447E-2    1.929709031910586E-2   -3.868686902775652E-2    9.810311154886604E-1    3.823292375241918E-2
 1.007629862646662E5     9.810602588285906E-1    3.788964858099174E-2    1.921136981214233E-2   -3.833174101845866E-2    1.927081022071451E-2   -3.842269885021981E-2    9.810294173044610E-1    3.796700301935176E-2
 1.015317940097331E5     9.810808346546065E-1    3.762538214010235E-2    1.918234937243814E-2   -3.807096115404013E-2    1.924227200109321E-2   -3.816218420488452E-2    9.810701443496612E-1    3.767557305762900E-2
 1.023064676522963E5     9.811245987194004E-1    3.734830753368684E-2    1.916134789682496E-2   -3.781106336923456E-2    1.921328962606632E-2   -3.789888364546757E-2    9.810965098890269E-1    3.741562690657836E-2
 1.030870519483485E5     9.811070049400669E-1    3.708646043312996E-2    1.912916876565982E-2   -3.755106312204795E-2    1.918758462557520E-2   -3.764240750016894E-2    9.811027788243086E-1    3.715247592575174E-2
 1.038735919953636E5     9.811390690689396E-1    3.681749320346305E-2    1.910648772407493E-2   -3.729688413616242E-2    1.915807661010517E-2   -3.738044657161560E-2    9.811089543423724E-1    3.690791502761790E-2
 1.046661332349037E5     9.811547593211856E-1    3.657393577478998E-2    1.907675354717240E-2   -3.704226039781118E-2    1.913050858544254E-2   -3.712938528180203E-2    9.811359226818671E-1    3.665071591204808E-2
 1.054647214552430E5     9.811488519891588E-1    3.630513003187377E-2    1.905018479193320E-2   -3.679071969604728E-2    1.910388011341166E-2   -3.687504956371344E-2    9.811728206780099E-1    3.640198219411508E-2
 1.062694027940149E5     9.811944261360545E-1    3.605733940520060E-2    1.902475781719828E-2   -3.654173060667193E-2    1.908089669403833E-2   -3.662611734229810E-2    9.812099236561916E-1    3.614436097943756E-2
 1.070802237408760E5     9.812556889050452E-1    3.580852273487257E-2    1.899879362042031E-2   -3.629129911143322E-2    1.905694124937111E-2   -3.637800973353234E-2    9.812795320096708E-1    3.590894956369474E-2
 1.078972311401927E5     9.812455542803357E-1    3.555632362938012E-2    1.897085178949248E-2   -3.604408019808421E-2    1.903150497028537E-2   -3.613540917203196E-2    9.812943219691111E-1    3.564352967584204E-2
 1.087204721937475E5     9.812862173187005E-1    3.531661640438052E-2    1.894883436638812E-2   -3.580513205958687E-2    1.900207246742839E-2   -3.588806012718304E-2    9.813258120881201E-1    3.541262231777259E-2
 1.095499944634658E5     9.813122146545052E-1    3.505236151690003E-2    1.892195086821171E-2   -3.556244226849859E-2    1.897740018389830E-2   -3.564221713527228E-2    9.812943466840777E-1    3.516214779933208E-2
 1.103858458741646E5     9.813373491492891E-1    3.482142831238017E-2    1.889824670750090E-2   -3.532625578122200E-2    1.895268359204926E-2   -3.540613684050421E-2    9.813392886612937E-1    3.491913819829050E-2
 1.112280747163201E5     9.813524056196032E-1    3.457658382572650E-2    1.886795962132500E-2   -3.508244398142000E-2    1.892663432215696E-2   -3.516610611891779E-2    9.813691672818042E-1    3.467844238803597E-2
 1.120767296488583E5     9.813835369173876E-1    3.434018577869424E-2    1.884401277777198E-2   -3.484363687205215E-2    1.890033742344290E-2   -3.493084518354103E-2    9.814004785839062E-1    3.443578541371137E-2
 1.129318597019661E5     9.813701630356648E-1    3.410017614732173E-2    1.882255025578726E-2   -3.461270014224475E-2    1.887791699656264E-2   -3.469301263872242E-2    9.813907082147615E-1    3.417416397561544E-2
 1.137935142799240E5     9.814162819663246E-1    3.387765926583091E-2    1.879281277165137E-2   -3.438113930711559E-2    1.884986747260840E-2   -3.446159806189329E-2    9.814245123657013E-1    3.397743432375260E-2
 1.146617431639607E5     9.814227269653466E-1    3.363544292742493E-2    1.877105986149076E-2   -3.414875654062322E-2    1.882580879745353E-2   -3.423120285096212E-2    9.814335716436411E-1    3.375033885703976E-2
 1.155365965151286E5     9.814682990773077E-1    3.343324498889830E-2    1.874782926598917E-2   -3.392253141452424E-2    1.880515860603755E-2   -3.400308021318337E-2    9.814885300751290E-1    3.352564769000931E-2
 1.164181248772018E5     9.814829697351746E-1    3.318592571145092E-2    1.872784165539414E-2   -3.369483347035251E-2    1.878141299518100E-2   -3.377908876390261E-2    9.814718265508673E-1    3.327572751460308E-2
 1.173063791795965E5     9.815201882959708E-1    3.296036208726084E-2    1.870317934290667E-2   -3.346801185975685E-2    1.875440778146246E-2   -3.355221915428716E-2    9.814884123249209E-1    3.304631643098267E-2
 1.182014107403141E5     9.815446835389099E-1    3.274656967958782E-2    1.867753099935830E-2   -3.324921668625136E-2    1.873150698037760E-2   -3.332688735275959E-2    9.815191365014890E-1    3.282734948842107E-2
 1.191032712689044E5     9.815403769838711E-1    3.249716034818046E-2    1.865302579310124E-2   -3.302804495982442E-2    1.870740830571459E-2   -3.310643341513721E-2    9.815696639904787E-1    3.262054210779441E-2
 1.200120128694542E5     9.815207025879582E-1    3.229252269555238E-2    1.862927401416624E-2   -3.280987249333354E-2    1.868649151123947E-2   -3.288611659059156E-2    9.815979926249775E-1    3.239808552191871E-2
 1.209276880435975E5     9.815513907009660E-1    3.208470355624227E-2    1.860837382520564E-2   -3.259209383509549E-2    1.866027397930699E-2   -3.267009239982956E-2    9.816238329562346E-1    3.218381209947625E-2
 1.218503496935483E5     9.816074575153745E-1    3.186966427739906E-2    1.858598628761714E-2   -3.237969749527051E-2    1.863535665679407E-2   -3.245936705614956E-2    9.816337151527453E-1    3.196056519283580E-2
 1.227800511251578E5     9.816234670404133E-1    3.164735650879153E-2    1.856163954870120E-2   -3.216451982265777E-2    1.861360754373602E-2   -3.224210434772766E-2    9.816538174108363E-1    3.173829955229081E-2
 1.237168460509929E5     9.816420581281540E-1    3.141251661123186E-2    1.853889208225790E-2   -3.195465803458688E-2    1.859159467399057E-2   -3.202843891884576E-2    9.816788576942793E-1    3.152665554308193E-2
 1.246607885934402E5     9.816410140461951E-1    3.121226245515123E-2    1.851387242574723E-2   -3.174194790154507E-2    1.856946467797077E-2   -3.181716476331901E-2    9.817006303288708E-1    3.131086019070420E-2
 1.256119332878327E5     9.816798632844153E-1    3.101287729350955E-2    1.849258838494432E-2   -3.153140059528758E-2    1.854901894908358E-2   -3.160895154845954E-2    9.817342670605029E-1    3.109138909709614E-2
 1.265703350856002E5     9.816816095464861E-1    3.078304889591880E-2    1.846863602640820E-2   -3.132685183120606E-2    1.852216060793571E-2   -3.140335500915938E-2    9.817830203805609E-1    3.087983922986852E-2
 1.275360493574453E5     9.817298561064928E-1    3.058706070041300E-2    1.844654066020310E-2   -3.112071774957598E-2    1.849976810419446E-2   -3.119427052743949E-2    9.817812646309371E-1    3.069385461071776E-2
 1.285091318965405E5     9.817720632301621E-1    3.039297820184540E-2    1.842623919864091E-2   -3.091751921542561E-2    1.847482859604338E-2   -3.099375485525978E-2    9.817736440725113E-1    3.049648976796807E-2
 1.294896389217529E5     9.817801054588804E-1    3.017566727752462E-2    1.840178420014677E-2   -3.071539978405290E-2    1.845712645869323E-2   -3.078921082846451E-2    9.818110434848779E-1    3.028648913360142E-2
 1.304776270808914E5     9.817644478969635E-1    2.996341826962440E-2    1.838325861220640E-2   -3.051682106645491E-2    1.843191095977840E-2   -3.059301860752526E-2    9.818240422108564E-1    3.010837016425512E-2
 1.314731534539810E5     9.817904786648959E-1    2.977360983957223E-2    1.835803668932463E-2   -3.032235682197861E-2    1.840897589362895E-2   -3.039288382123521E-2    9.818249617546883E-1    2.987899874315747E-2
 1.324762755565583E5     9.818270693947632E-1    2.956639100679738E-2    1.833635751455628E-2   -3.012706772934404E-2    1.838847619524848E-2   -3.019503729409982E-2    9.818723953085765E-1    2.970074553380130E-2
 1.334870513429962E5     9.818062672601551E-1    2.938308844212340E-2    1.831497976533518E-2   -2.992584543039962E-2    1.836621368792771E-2   -3.000078460377274E-2    9.819062740028776E-1    2.952214669836686E-2
 1.345055392098512E5     9.818597701159305E-1    2.918440941627201E-2    1.829377539524356E-2   -2.973667134706614E-2    1.834248166493859E-2   -2.980953402078675E-2    9.819174533832835E-1    2.930165111563897E-2
 1.355317979992373E5     9.818830495970429E-1    2.899867594976926E-2    1.827273927339454E-2   -2.954710277321373E-2    1.832379038171058E-2   -2.961669219579481E-2    9.819185556775561E-1    2.912478130149997E-2
 1.365658870022265E5     9.819004216948878E-1    2.880841784512308E-2    1.824904646543865E-2   -2.935641834677957E-2    1.830147129594512E-2   -2.942508799564727E-2    9.819348793279605E-1    2.891655843501403E-2
 1.376078659622731E5     9.819366443097144E-1    2.861384628822327E-2    1.823218827667422E-2   -2.916951481710114E-2    1.828062594586773E-2   -2.923582619742437E-2    9.819539168826016E-1    2.872880762369177E-2
 1.386577950786655E5     9.819457136104692E-1    2.842887581209601E-2    1.820519849408975E-2   -2.898383103720155E-2    1.825664620154414E-2   -2.904738770416893E-2    9.819842480163683E-1    2.854566227583462E-2
 1.397157350100044E5     9.819647857924383E-1    2.824047339709448E-2    1.818530952834830E-2   -2.879381801572408E-2    1.823484466363910E-2   -2.886330793188049E-2    9.820353471137381E-1    2.836405077863303E-2
 1.407817468777081E5     9.819983428511629E-1    2.806389728513329E-2    1.816400410528508E-2   -2.861359183514717E-2    1.821391837811357E-2   -2.867652051597324E-2    9.820625607636633E-1    2.816557775056942E-2
 1.418558922695422E5     9.819959957003165E-1    2.787105734699312E-2    1.814135902842382E-2   -2.843547738995183E-2    1.819232624764878E-2   -2.849662797638225E-2    9.820676940402960E-1    2.798067891645300E-2
 1.429382332431784E5     9.820452190326346E-1    2.769548088969659E-2    1.812161119799833E-2   -2.825093063614527E-2    1.817051099270217E-2   -2.831714014623180E-2    9.820921698582433E-1    2.780745033273850E-2
 1.440288323297804E5     9.820396498021252E-1    2.752335301113841E-2    1.809872710032358E-2   -2.807177261874338E-2    1.814816087757677E-2   -2.813750849903559E-2    9.821312126786121E-1    2.762026266595428E-2
 1.451277525376154E5     9.820486608164706E-1    2.731998590531110E-2    1.807849097123386E-2   -2.789515366453399E-2    1.812807501109388E-2   -2.795773152514692E-2    9.821644263967388E-1    2.745477648017856E-2
 1.462350573556962E5     9.820747816045132E-1    2.715398465527511E-2    1.805661102755172E-2   -2.772050181631447E-2    1.810703540988947E-2   -2.778039487836508E-2    9.821775593516578E-1    2.728119553698224E-2
 1.473508107574468E5     9.821125825810538E-1    2.698188595244705E-2    1.803794010328639E-2   -2.754369325166949E-2    1.808323277993554E-2   -2.760654844064463E-2    9.821959927085637E-1    2.709261838608507E-2
 1.484750772044004E5     9.820994780316845E-1    2.678583106008690E-2    1.801552083247310E-2   -2.737148920594249E-2    1.806383593849626E-2   -2.743291741163655E-2    9.821904373596356E-1    2.691663542612571E-2
 1.496079216499225E5     9.821203348576597E-1    2.662682404628465E-2    1.798929812285578E-2   -2.719938118359538E-2    1.804329541233833E-2   -2.726060176714820E-2    9.822047644149113E-1    2.675678891867938E-2
 1.507494095429637E5     9.821571303457924E-1    2.646487173066897E-2    1.797235721194765E-2   -2.702697619962938E-2    1.802152586967111E-2   -2.708981674448310E-2    9.822257826584522E-1    2.657217024836983E-2
 1.518996068318418E5     9.822082158931202E-1    2.630432976352365E-2    1.795128420379555E-2   -2.686313586988521E-2    1.800203985354122E-2   -2.692163100453402E-2    9.822861843020478E-1    2.641472851887996E-2
 1.530585799680507E5     9.822139157929667E-1    2.613143981052865E-2    1.792973483638411E-2   -2.669342428612616E-2    1.797852790103814E-2   -2.675039277249445E-2    9.822820506174378E-1    2.623131188628687E-2
 1.542263959101001E5     9.822300927916207E-1    2.594347251977301E-2    1.790755743889048E-2   -2.652924600230017E-2    1.795980659209338E-2   -2.658616038271797E-2    9.823171071663370E-1    2.606766220752783E-2
 1.554031221273835E5     9.822505130201074E-1    2.578631109283670E-2    1.788739339234010E-2   -2.636087239051955E-2    1.793678512628437E-2   -2.642385918084136E-2    9.823308375118981E-1    2.589981106025301E-2
 1.565888266040779E5     9.822702522813036E-1    2.563225459847589E-2    1.786751786553525E-2   -2.619992051709854E-2    1.791312410345883E-2   -2.625778299818644E-2    9.823588885858786E-1    2.572385210037366E-2
 1.577835778430689E5     9.822873237709517E-1    2.545251086938331E-2    1.784246308372912E-2   -2.603939975293840E-2    1.789447178214616E-2   -2.609972738371968E-2    9.823579499717416E-1    2.556023901041070E-2
 1.589874448699104E5     9.822906577294420E-1    2.531157301057664E-2    1.782407295609339E-2   -2.588092565957410E-2    1.787272273765421E-2   -2.593525058275200E-2    9.824006826233530E-1    2.539412738047924E-2
 1.602004972368116E5     9.823271570790624E-1    2.515385953582991E-2    1.780228682493160E-2   -2.572045279679660E-2    1.785264082431401E-2   -2.577964364457380E-2    9.824731769138261E-1    2.523631651850643E-2
 1.614228050266550E5     9.823690281765037E-1    2.497841855656860E-2    1.778311237725908E-2   -2.556264636649720E-2    1.783011583087601E-2   -2.561956783896710E-2    9.825012039906343E-1    2.507660210545809E-2
 1.626544388570473E5     9.824167452212298E-1    2.482700661683344E-2    1.776020904559438E-2   -2.540796725296010E-2    1.781027559408637E-2   -2.546574633940070E-2    9.824601439999442E-1    2.491954856187483E-2
 1.638954698843964E5     9.824313447982234E-1    2.467630311410917E-2    1.773805192949349E-2   -2.524942325940327E-2    1.779006729238352E-2   -2.530935483777515E-2    9.824843479319960E-1    2.475394879988466E-2
 1.651459698080244E5     9.824370283527200E-1    2.450751504895233E-2    1.771772692369724E-2   -2.509768861218415E-2    1.776840861460668E-2   -2.515464186454130E-2    9.825185798236055E-1    2.460751203244186E-2
 1.664060108743095E5     9.824727956552758E-1    2.435830214315558E-2    1.769767142297564E-2   -2.494324954091007E-2    1.774571263385230E-2   -2.500411203550043E-2    9.825403568122358E-1    2.445636913176624E-2
 1.676756658808590E5     9.824979030185889E-1    2.419633062884720E-2    1.767420917508122E-2   -2.479218368644860E-2    1.772595114423207E-2   -2.485230877011906E-2    9.825791255405237E-1    2.431031139672990E-2
 1.689550081807175E5     9.825112311164833E-1    2.403937109196524E-2    1.765381468319678E-2   -2.464500449322668E-2    1.770216024933704E-2   -2.470121214135911E-2    9.825897255184836E-1    2.414146496446919E-2
 1.702441116866020E5     9.825141704306112E-1    2.388979964385395E-2    1.763527933607190E-2   -2.449835710265018E-2    1.768118113641886E-2   -2.455125092268124E-2    9.826220007481203E-1    2.400614757927224E-2
 1.715430508751738E5     9.825312360900408E-1    2.374521338214273E-2    1.761344983707964E-2   -2.434694298916504E-2    1.766206387433405E-2   -2.440206137311963E-2    9.826063200428402E-1    2.384609206878911E-2
 1.728519007913403E5     9.825657670267919E-1    2.359620156856078E-2    1.758871513271676E-2   -2.420264633889404E-2    1.763948457938523E-2   -2.426160745996154E-2    9.826772355630649E-1    2.370347566975413E-2
 1.741707370525927E5     9.825629494949556E-1    2.344234801505155E-2    1.757170881845364E-2   -2.405670052527643E-2    1.761682772637640E-2   -2.410997932701361E-2    9.826929659596253E-1    2.356072665486889E-2
 1.754996358533718E5     9.825860121013188E-1    2.329681763845253E-2    1.754515374811534E-2   -2.391426987091309E-2    1.759857447525339E-2   -2.397004005875596E-2    9.826927079573092E-1    2.340514237019934E-2
 1.768386739694722E5     9.825995845368436E-1    2.314923071397681E-2    1.752617695586903E-2   -2.377440908257145E-2    1.757580994584064E-2   -2.382779509731124E-2    9.827676932152911E-1    2.327405499829515E-2
 1.781879287624771E5     9.826308738436812E-1    2.301556526741289E-2    1.750540193574730E-2   -2.363081149541657E-2    1.755427010990321E-2   -2.368776407493492E-2    9.827763304859222E-1    2.313497176969509E-2
 1.795474781842276E5     9.826478371115098E-1    2.287804264207605E-2    1.748145363656325E-2   -2.348980822249212E-2    1.752802424361566E-2   -2.354604243052085E-2    9.827591750107743E-1    2.298466419001165E-2
 1.809174007813277E5     9.826546768842522E-1    2.272018887029089E-2    1.746290673344016E-2   -2.335457458322418E-2    1.750911946221178E-2   -2.340788355901492E-2    9.827509633304443E-1    2.283813450314427E-2
 1.822977756996804E5     9.826815921991749E-1    2.258856292943742E-2    1.743915270012580E-2   -2.321691162230217E-2    1.748695774809620E-2   -2.327170932722698E-2    9.828022712643100E-1    2.270459443869854E-2
 1.836886826890609E5     9.827141076095069E-1    2.244978032981777E-2    1.742045134783811E-2   -2.308017120541020E-2    1.746430394941261E-2   -2.313119856763152E-2    9.828109093485482E-1    2.255454014303532E-2
 1.850902021077247E5     9.827583194731264E-1    2.231126456834180E-2    1.739990146343252E-2   -2.294475482449615E-2    1.744289767073903E-2   -2.299353120334430E-2    9.828246942356471E-1    2.242451387998719E-2
 1.865024149270491E5     9.827783362872592E-1    2.217510684981577E-2    1.737506423230871E-2   -2.281102167295155E-2    1.742133642367171E-2   -2.286200240853771E-2    9.828896223753613E-1    2.229355890291866E-2
 1.879254027362132E5     9.828076899087425E-1    2.204618293486852E-2    1.735472771067004E-2   -2.267667666003909E-2    1.739943045503223E-2   -2.272899132905968E-2    9.829157309782897E-1    2.214419568869993E-2
 1.893592477469092E5     9.828665878087371E-1    2.188453267797698E-2    1.733989112229776E-2   -2.257048880388314E-2    1.736405844587155E-2   -2.259801171843458E-2    9.829125902240451E-1    2.200027446573405E-2
 1.908040327980933E5     9.828691917250467E-1    2.178223322423368E-2    1.730772264004120E-2   -2.241428454036091E-2    1.735662114521474E-2   -2.246547990830727E-2    9.829666340579117E-1    2.187896963084706E-2
 1.922598413607715E5     9.828565908212067E-1    2.162958042035729E-2    1.728789886353839E-2   -2.228935527272723E-2    1.733123392914179E-2   -2.233585247876080E-2    9.829694503404836E-1    2.174121678030710E-2
 1.937267575428232E5     9.828830508352183E-1    2.150488457123739E-2    1.726227807857094E-2   -2.215737270056404E-2    1.731140542964793E-2   -2.220932394777670E-2    9.829838440475158E-1    2.160343124021150E-2
 1.952048660938581E5     9.829068645949938E-1    2.138617355220195E-2    1.724435622679395E-2   -2.203054603556404E-2    1.728937401248908E-2   -2.208344638436332E-2    9.829847250194613E-1    2.145865208543463E-2
 1.966942524101142E5     9.829172004171874E-1    2.122744584549541E-2    1.722363329098782E-2   -2.190398473668783E-2    1.726681439993638E-2   -2.195466633069181E-2    9.830505813217139E-1    2.134215662001890E-2
 1.981950025393913E5     9.829247308023401E-1    2.112507368430617E-2    1.719851980261378E-2   -2.178062969403767E-2    1.724494314781305E-2   -2.182937159895294E-2    9.830775905094045E-1    2.123038138428133E-2
