#  HZ   S   RI   R     50.00 
! Rohde & Schwarz Vector Network Analyzer 
! Rohde-Schwarz,ZNLE6-2Port,1323001256200024,1.71.1.10-23.02.1.238
! Created: UTC 4/7/2025, 7:07:24 AM
! freq[Hz]                re:S11                  im:S11                  re:S21                  im:S21                  re:S12                  im:S12                  re:S22                  im:S22
 1.000000000000000E5     9.828649402814017E-1    3.473246698794206E-2    1.735378391375115E-2   -3.513836212131951E-2    1.740790231153789E-2   -3.522534193798868E-2    9.829094186135300E-1    3.479436602911767E-2
 1.007629862646662E5     9.829071720067831E-1    3.446235770924019E-2    1.733208518170193E-2   -3.489766740563013E-2    1.738418024473910E-2   -3.498084076557340E-2    9.828998245605665E-1    3.453888428556372E-2
 1.015317940097331E5     9.829035996966067E-1    3.423297684836590E-2    1.731236598628604E-2   -3.465339629880910E-2    1.736136289158493E-2   -3.473964871069775E-2    9.829052747406128E-1    3.429010041477842E-2
 1.023064676522963E5     9.829450095692088E-1    3.398430331387089E-2    1.728516796013518E-2   -3.441749706365675E-2    1.733536887681502E-2   -3.450449626786959E-2    9.829414854914692E-1    3.405806743679291E-2
 1.030870519483485E5     9.829484835953580E-1    3.373431094723974E-2    1.726446406089383E-2   -3.418342690581821E-2    1.731031959436418E-2   -3.426538709220207E-2    9.829594348241707E-1    3.381943868176417E-2
 1.038735919953636E5     9.829635947459590E-1    3.348743775776503E-2    1.723776533817826E-2   -3.395067188669987E-2    1.729195507301351E-2   -3.403097514972537E-2    9.829806246997216E-1    3.359474146494774E-2
 1.046661332349037E5     9.829894673530658E-1    3.327686874408244E-2    1.721954710720476E-2   -3.371957432760238E-2    1.726835782669725E-2   -3.380157800244952E-2    9.829984154867929E-1    3.335942237202310E-2
 1.054647214552430E5     9.829664397912351E-1    3.302482940294539E-2    1.719579559355792E-2   -3.348834997299702E-2    1.724533714082276E-2   -3.357267649668546E-2    9.830407266594046E-1    3.314271049708896E-2
 1.062694027940149E5     9.829846927560559E-1    3.279968444502800E-2    1.717635029702557E-2   -3.326044574843420E-2    1.722395327743228E-2   -3.334296128105912E-2    9.830699984017466E-1    3.290588547364790E-2
 1.070802237408760E5     9.830382870374463E-1    3.256703788977613E-2    1.714983670759096E-2   -3.303683313354094E-2    1.720338296471736E-2   -3.311537783655469E-2    9.830741300914313E-1    3.267392426879861E-2
 1.078972311401927E5     9.830662701312166E-1    3.234635420681099E-2    1.713098149095064E-2   -3.280970134981216E-2    1.718004365746185E-2   -3.289350752525363E-2    9.830987240092663E-1    3.243466913016285E-2
 1.087204721937475E5     9.830798008021147E-1    3.211810743795294E-2    1.710801938070872E-2   -3.258949312013230E-2    1.715626229246947E-2   -3.267003171174286E-2    9.831397505848901E-1    3.222558568828170E-2
 1.095499944634658E5     9.831040136116771E-1    3.187779071388631E-2    1.708422077367482E-2   -3.237038231010437E-2    1.713795128470547E-2   -3.244858552195450E-2    9.831059054643608E-1    3.200180670477719E-2
 1.103858458741646E5     9.831132728286165E-1    3.166825229637973E-2    1.706082930293059E-2   -3.215035957050340E-2    1.711745606580982E-2   -3.222482025741667E-2    9.831467895049780E-1    3.177727750950483E-2
 1.112280747163201E5     9.831362406201596E-1    3.143525540716093E-2    1.703999344120683E-2   -3.193300163350448E-2    1.709343444957580E-2   -3.201193823518115E-2    9.831705381500849E-1    3.155741689162830E-2
 1.120767296488583E5     9.831515308529291E-1    3.122588751724955E-2    1.702118534267541E-2   -3.171472540703275E-2    1.707394088327758E-2   -3.179544006712812E-2    9.831957601847492E-1    3.131909905608143E-2
 1.129318597019661E5     9.831693227699024E-1    3.100476112893522E-2    1.699941182171553E-2   -3.150693763793450E-2    1.705005825134828E-2   -3.158354094051101E-2    9.831858107381143E-1    3.110382130202627E-2
 1.137935142799240E5     9.831856510098840E-1    3.079628620173209E-2    1.697490217857769E-2   -3.129567029199955E-2    1.702739415682099E-2   -3.136661368586557E-2    9.831892875746450E-1    3.091491592563904E-2
 1.146617431639607E5     9.831958515436048E-1    3.058246503146557E-2    1.695504774327538E-2   -3.108089278373394E-2    1.701105661438022E-2   -3.115815565942805E-2    9.832148412002126E-1    3.070032659005202E-2
 1.155365965151286E5     9.832285057196180E-1    3.038170420654562E-2    1.693585092820546E-2   -3.087464904589931E-2    1.699044429548736E-2   -3.095147958595092E-2    9.832686235784651E-1    3.049115276341471E-2
 1.164181248772018E5     9.832347023341155E-1    3.016035087681053E-2    1.691503829908425E-2   -3.067031677523377E-2    1.696655377150658E-2   -3.074111174891194E-2    9.832632697686614E-1    3.029224048044843E-2
 1.173063791795965E5     9.832781889827692E-1    2.995479687208111E-2    1.689735439544166E-2   -3.046424645977295E-2    1.694601965859030E-2   -3.053630978013060E-2    9.832993616827476E-1    3.007743100195445E-2
 1.182014107403141E5     9.832831175224340E-1    2.976867472180003E-2    1.687661058796200E-2   -3.026481158578738E-2    1.692802315016777E-2   -3.033531909105533E-2    9.833375646256726E-1    2.988720386810720E-2
 1.191032712689044E5     9.832794371145968E-1    2.954461472509471E-2    1.685672886042638E-2   -3.006235687656758E-2    1.690767772957448E-2   -3.013329195386772E-2    9.833949523748545E-1    2.969531961219288E-2
 1.200120128694542E5     9.832932487726870E-1    2.934735329337054E-2    1.684083614378392E-2   -2.985991114956008E-2    1.689189329806598E-2   -2.993640642320439E-2    9.834185444596072E-1    2.946790050511388E-2
 1.209276880435975E5     9.833272734361205E-1    2.916138274151390E-2    1.681591521313064E-2   -2.966283905240835E-2    1.687092599043803E-2   -2.973552301310203E-2    9.834286431149646E-1    2.928173108350468E-2
 1.218503496935483E5     9.833671662305149E-1    2.897343223276676E-2    1.679575007204001E-2   -2.946780746591371E-2    1.684964326544821E-2   -2.953721580014334E-2    9.834463734092400E-1    2.908278787741596E-2
 1.227800511251578E5     9.833820222333153E-1    2.876712256133800E-2    1.677761723964762E-2   -2.927248384521114E-2    1.682422182811057E-2   -2.934306375181159E-2    9.834225701668187E-1    2.887146568761824E-2
 1.237168460509929E5     9.833950249449019E-1    2.856688505096743E-2    1.675801068831579E-2   -2.908348677078287E-2    1.680707523872695E-2   -2.914975868779733E-2    9.834564574973736E-1    2.868502238493809E-2
 1.246607885934402E5     9.833824340202519E-1    2.836981811468779E-2    1.673720856546387E-2   -2.888952507849479E-2    1.678556878135154E-2   -2.895692427244058E-2    9.834598368290994E-1    2.849344847457019E-2
 1.256119332878327E5     9.834249098762582E-1    2.818900062324273E-2    1.671767173273529E-2   -2.870020008138863E-2    1.676854221170510E-2   -2.876826341147055E-2    9.834837871069566E-1    2.829315112552989E-2
 1.265703350856002E5     9.834423662840360E-1    2.797762796510113E-2    1.669637339708746E-2   -2.850705128766134E-2    1.674847310626922E-2   -2.857788236244774E-2    9.835548869569319E-1    2.811027518352619E-2
 1.275360493574453E5     9.834577316012731E-1    2.779051436749794E-2    1.667688778479774E-2   -2.832658984060391E-2    1.672807595048554E-2   -2.838931838585659E-2    9.835393812638776E-1    2.791734313292856E-2
 1.285091318965405E5     9.834828083964000E-1    2.760706049969614E-2    1.665735304395684E-2   -2.814024237473835E-2    1.670618068756636E-2   -2.820519180023546E-2    9.835536040002165E-1    2.774334674670055E-2
 1.294896389217529E5     9.834644931704511E-1    2.741548774182320E-2    1.663809346769706E-2   -2.795616402792930E-2    1.669018107490556E-2   -2.802075358071788E-2    9.836018178237215E-1    2.755354456448718E-2
 1.304776270808914E5     9.834996921661628E-1    2.722628259829025E-2    1.662133662560823E-2   -2.776981654150614E-2    1.667275771773024E-2   -2.784176794199199E-2    9.836064075091806E-1    2.736842273238313E-2
 1.314731534539810E5     9.835307357936186E-1    2.704067716736553E-2    1.660052875674309E-2   -2.759170968651998E-2    1.665070642693917E-2   -2.765864650196200E-2    9.836043740927556E-1    2.717727683356192E-2
 1.324762755565583E5     9.835572578315408E-1    2.685831939210078E-2    1.658485667145608E-2   -2.741343012757161E-2    1.663318487605858E-2   -2.747974212684224E-2    9.836511260068567E-1    2.701874866886555E-2
 1.334870513429962E5     9.835376907308804E-1    2.669053392167588E-2    1.656600189667611E-2   -2.723370756362510E-2    1.661449927837443E-2   -2.730201359465826E-2    9.836830103342943E-1    2.684698668629629E-2
 1.345055392098512E5     9.835748623623567E-1    2.651994521260187E-2    1.654428928934294E-2   -2.705967888639882E-2    1.659452516827118E-2   -2.712279711375023E-2    9.836817702356789E-1    2.667067226169575E-2
 1.355317979992373E5     9.835979817599284E-1    2.634796608323301E-2    1.653018667685225E-2   -2.688810754416451E-2    1.657502211408926E-2   -2.694998148883269E-2    9.836955639519853E-1    2.650185161703799E-2
 1.365658870022265E5     9.835944682705370E-1    2.616548567659712E-2    1.650811947192410E-2   -2.670847346829379E-2    1.655393645250734E-2   -2.677287022271621E-2    9.836856440794025E-1    2.630567169262316E-2
 1.376078659622731E5     9.836488957726112E-1    2.598208439381072E-2    1.649030910716799E-2   -2.654422253041136E-2    1.653927766033567E-2   -2.660470934651506E-2    9.837349154757888E-1    2.613355258657163E-2
 1.386577950786655E5     9.836420598568438E-1    2.583015060196453E-2    1.647033580387187E-2   -2.636840293727871E-2    1.651681161705183E-2   -2.643549550219074E-2    9.837706466464314E-1    2.594639288746430E-2
 1.397157350100044E5     9.836630450367853E-1    2.565011993907220E-2    1.645592372474636E-2   -2.620254284008325E-2    1.650301214969836E-2   -2.626030352589578E-2    9.838077766404025E-1    2.579196086038005E-2
 1.407817468777081E5     9.837107057600071E-1    2.549858807890946E-2    1.643734357639602E-2   -2.603751585169876E-2    1.648188137578879E-2   -2.609413832807035E-2    9.838260126305002E-1    2.562489661130670E-2
 1.418558922695422E5     9.837289279873427E-1    2.532825509019728E-2    1.641954849979830E-2   -2.586766783125358E-2    1.646145298848792E-2   -2.593172164912460E-2    9.838313688783967E-1    2.545034037489849E-2
 1.429382332431784E5     9.837238580104551E-1    2.515689785116136E-2    1.640081358204878E-2   -2.570262533233826E-2    1.644462981536794E-2   -2.576611530695025E-2    9.838618723760393E-1    2.527324776079823E-2
 1.440288323297804E5     9.837462895667946E-1    2.500238044377629E-2    1.637968417784465E-2   -2.554347459890953E-2    1.642880198569734E-2   -2.559914110899878E-2    9.838716704068904E-1    2.511696084925108E-2
 1.451277525376154E5     9.837084223440148E-1    2.481306510731036E-2    1.636228986326381E-2   -2.537799678134979E-2    1.640549353018067E-2   -2.543941643782596E-2    9.839361446889354E-1    2.496450830531258E-2
 1.462350573556962E5     9.837674082662591E-1    2.465360739348529E-2    1.634374107820497E-2   -2.521852404165591E-2    1.638761602756552E-2   -2.527857804816273E-2    9.839429422933723E-1    2.480341070993778E-2
 1.473508107574468E5     9.837921738948160E-1    2.450376356301587E-2    1.632440726567063E-2   -2.506001843859006E-2    1.637084789108735E-2   -2.511731319384652E-2    9.839531923300828E-1    2.464147713420821E-2
 1.484750772044004E5     9.837875832510864E-1    2.434050547910190E-2    1.630544089614286E-2   -2.490093992886576E-2    1.635031958389554E-2   -2.495865024418959E-2    9.839511830682334E-1    2.448071934248567E-2
 1.496079216499225E5     9.838153377981798E-1    2.418915630566280E-2    1.628857665299897E-2   -2.474596357858447E-2    1.633435218165978E-2   -2.480257469952412E-2    9.839510494390079E-1    2.431790399243953E-2
 1.507494095429637E5     9.838142503835634E-1    2.403688029435850E-2    1.626925537729732E-2   -2.459200536731193E-2    1.631491263737448E-2   -2.464874062599266E-2    9.839654418929865E-1    2.417950784453767E-2
 1.518996068318418E5     9.838575651712979E-1    2.388057214735942E-2    1.624862944526058E-2   -2.443213280642192E-2    1.629659512197790E-2   -2.449240858051213E-2    9.840000952018571E-1    2.400365630867294E-2
 1.530585799680507E5     9.838674980315738E-1    2.372419952070751E-2    1.622988550927048E-2   -2.428414033069353E-2    1.627842562505771E-2   -2.433823219600085E-2    9.840142839169767E-1    2.384657461416600E-2
 1.542263959101001E5     9.838849736516299E-1    2.356329150538719E-2    1.621244129918499E-2   -2.413209196505358E-2    1.626035042547641E-2   -2.418842033583882E-2    9.840406833855839E-1    2.371321121471533E-2
 1.554031221273835E5     9.839067565940249E-1    2.341251225292360E-2    1.618928674850909E-2   -2.398124473214461E-2    1.624082259126446E-2   -2.403625279551359E-2    9.840505971198036E-1    2.354217856273251E-2
 1.565888266040779E5     9.839297253949443E-1    2.326844092675021E-2    1.617346574755985E-2   -2.383002940840195E-2    1.622258890433998E-2   -2.388879373474308E-2    9.840740886218203E-1    2.339444332551079E-2
 1.577835778430689E5     9.839663288030416E-1    2.312175308669855E-2    1.615979876178384E-2   -2.368777218327931E-2    1.620248217527972E-2   -2.373905740176647E-2    9.840991443635636E-1    2.323059820737150E-2
 1.589874448699104E5     9.839601684604873E-1    2.297201201914898E-2    1.613845628626440E-2   -2.353988092329945E-2    1.618438153959376E-2   -2.359779788910779E-2    9.841010296007782E-1    2.308372608896500E-2
 1.602004972368116E5     9.840116509386182E-1    2.282928379405231E-2    1.612167571407913E-2   -2.339497473594709E-2    1.616451799136631E-2   -2.344892577321185E-2    9.841930241950856E-1    2.293294785763240E-2
 1.614228050266550E5     9.840116576694168E-1    2.267706835219098E-2    1.610036540985788E-2   -2.325637426165267E-2    1.614326882234899E-2   -2.330436412234902E-2    9.841725308939772E-1    2.278098896242664E-2
 1.626544388570473E5     9.840177043122880E-1    2.252857511128251E-2    1.608386310794572E-2   -2.311184598584807E-2    1.612611345079352E-2   -2.316395215452401E-2    9.841548055661211E-1    2.263507634316558E-2
 1.638954698843964E5     9.840320880571845E-1    2.238393909647777E-2    1.606462275697794E-2   -2.296639016348564E-2    1.610689756300586E-2   -2.302148291257497E-2    9.842025701199927E-1    2.249975348643763E-2
 1.651459698080244E5     9.840502113131361E-1    2.225074640159668E-2    1.604523513391378E-2   -2.282583689807403E-2    1.609014726839065E-2   -2.287996201170826E-2    9.842159487072333E-1    2.236074081643610E-2
 1.664060108743095E5     9.840746872302618E-1    2.210598652308247E-2    1.602630712972872E-2   -2.268407380493978E-2    1.607365040818378E-2   -2.274327152201298E-2    9.842479025403063E-1    2.222289587298917E-2
 1.676756658808590E5     9.841158366591217E-1    2.195886266226293E-2    1.600893078269549E-2   -2.255221538611171E-2    1.605301217964593E-2   -2.260149569200741E-2    9.842521387388520E-1    2.207933575072604E-2
 1.689550081807175E5     9.841139669435738E-1    2.180513952057418E-2    1.599198775183218E-2   -2.241387298687608E-2    1.603558436890518E-2   -2.246686123816930E-2    9.842592689521141E-1    2.193768063813014E-2
 1.702441116866020E5     9.841179420394269E-1    2.168432170506802E-2    1.596944343040355E-2   -2.227910169878826E-2    1.601701466991395E-2   -2.233085600241851E-2    9.842968030358148E-1    2.181652506962507E-2
 1.715430508751738E5     9.841275836016442E-1    2.153308063490868E-2    1.595161114788781E-2   -2.214439520538836E-2    1.599535559435980E-2   -2.219540017732554E-2    9.843056092556020E-1    2.168309896411924E-2
 1.728519007913403E5     9.841638183975575E-1    2.141074328264458E-2    1.593244991824468E-2   -2.201268288384569E-2    1.597666120774155E-2   -2.206375794432141E-2    9.843171389325051E-1    2.153148251640528E-2
 1.741707370525927E5     9.841634121510323E-1    2.127525168014177E-2    1.591394373964291E-2   -2.187633436014758E-2    1.595393807816298E-2   -2.192892047039858E-2    9.843339967392515E-1    2.141217843810207E-2
 1.754996358533718E5     9.841888019976579E-1    2.112814892364308E-2    1.589429310444402E-2   -2.174951426600384E-2    1.594083820793879E-2   -2.179701843865650E-2    9.843021927383763E-1    2.126754502012297E-2
 1.768386739694722E5     9.841896191731406E-1    2.100094117236433E-2    1.587497438507301E-2   -2.162054491827403E-2    1.592087077534488E-2   -2.166998975569286E-2    9.844153085934618E-1    2.114248068173994E-2
 1.781879287624771E5     9.842054345561810E-1    2.086252386025612E-2    1.586058681804828E-2   -2.149299582641993E-2    1.590238267172746E-2   -2.154332474766986E-2    9.844410466857809E-1    2.101682926011542E-2
 1.795474781842276E5     9.842499238026604E-1    2.075198040263849E-2    1.583877064641654E-2   -2.136231155248906E-2    1.588112225284827E-2   -2.141487815392462E-2    9.844174030331083E-1    2.087791513939574E-2
 1.809174007813277E5     9.842723088029025E-1    2.060878294530808E-2    1.581967245206924E-2   -2.123657693223074E-2    1.586310560327581E-2   -2.128620760671449E-2    9.844005595257320E-1    2.075073257132334E-2
 1.822977756996804E5     9.842875425021617E-1    2.047864285778925E-2    1.579798750025207E-2   -2.111388523597691E-2    1.584343653563646E-2   -2.115940020372669E-2    9.844425878669171E-1    2.062370210582846E-2
 1.836886826890609E5     9.843092481364569E-1    2.035656101981962E-2    1.578327107256464E-2   -2.098725866207724E-2    1.581994453916402E-2   -2.103723705115263E-2    9.844546577715890E-1    2.048871000262851E-2
 1.850902021077247E5     9.843164614836420E-1    2.023678236054792E-2    1.576239309186963E-2   -2.086778836045306E-2    1.580556556387352E-2   -2.091200164100534E-2    9.844760487199337E-1    2.035618521427317E-2
 1.865024149270491E5     9.843523998455195E-1    2.010328457884680E-2    1.574628214961859E-2   -2.074507783626878E-2    1.578744150591644E-2   -2.079069897215713E-2    9.844983527437769E-1    2.024813569138652E-2
 1.879254027362132E5     9.843703980933510E-1    1.998385555026705E-2    1.572106316857999E-2   -2.061987102156464E-2    1.576895082498056E-2   -2.066864187671622E-2    9.845397544033609E-1    2.010720071939697E-2
 1.893592477469092E5     9.843889195224965E-1    1.980736066924679E-2    1.569764817851405E-2   -2.049302428533565E-2    1.576488076739778E-2   -2.055177597789584E-2    9.845742542208971E-1    1.999514691256277E-2
 1.908040327980933E5     9.844171476554523E-1    1.974946806178338E-2    1.568329007949416E-2   -2.037952104122253E-2    1.572800779168087E-2   -2.042821200548489E-2    9.845634701235360E-1    1.986162825127422E-2
 1.922598413607715E5     9.844767986750333E-1    1.961944978793923E-2    1.566660463846957E-2   -2.026708634542368E-2    1.570766788615545E-2   -2.031049706159230E-2    9.845868455753771E-1    1.973422482400059E-2
 1.937267575428232E5     9.844980658350848E-1    1.950620018619565E-2    1.564471918099178E-2   -2.014748921499982E-2    1.568960864146791E-2   -2.019395111749343E-2    9.846052110288179E-1    1.962697647057615E-2
 1.952048660938581E5     9.845072095646198E-1    1.939585405555478E-2    1.562550967609956E-2   -2.002960574719036E-2    1.566663451962046E-2   -2.007596364027923E-2    9.846157970974366E-1    1.948928932360845E-2
 1.966942524101142E5     9.845210908722187E-1    1.925469992056172E-2    1.560459850506351E-2   -1.991668319313449E-2    1.565150750040282E-2   -1.996192780380183E-2    9.846083097046219E-1    1.936749867000472E-2
 1.981950025393913E5     9.844820983670913E-1    1.915407338458860E-2    1.558689162713586E-2   -1.980405312218886E-2    1.562810095697661E-2   -1.984744692988834E-2    9.846477779292238E-1    1.926002886401716E-2
