#  HZ   S   RI   R     50.00 
! Rohde & Schwarz Vector Network Analyzer 
! Rohde-Schwarz,ZNLE6-2Port,1323001256200024,1.71.1.10-23.02.1.238
! Created: UTC 4/7/2025, 6:57:29 AM
! freq[Hz]                re:S11                  im:S11                  re:S21                  im:S21                  re:S12                  im:S12                  re:S22                  im:S22
 1.000000000000000E5     9.844748154919961E-1    3.172690433245958E-2    1.573323050483236E-2   -3.209950400128136E-2    1.578447549188388E-2   -3.218592458135182E-2    9.845267148730961E-1    3.175821939236897E-2
 1.007629862646662E5     9.844911603772347E-1    3.147929115840548E-2    1.571139656590324E-2   -3.187919719542968E-2    1.576334736942536E-2   -3.195881279853985E-2    9.845337755023301E-1    3.154658379564519E-2
 1.015317940097331E5     9.844849164087821E-1    3.124520452564702E-2    1.569390147787070E-2   -3.166263830211743E-2    1.573872439285359E-2   -3.174382590462809E-2    9.845203069118889E-1    3.131318803818705E-2
 1.023064676522963E5     9.845376723898429E-1    3.101660180585098E-2    1.567714079497960E-2   -3.144494705375251E-2    1.572215610560582E-2   -3.152485749287690E-2    9.845570677990803E-1    3.109608960670866E-2
 1.030870519483485E5     9.845237757470445E-1    3.079070189984147E-2    1.565897994642359E-2   -3.123215396118997E-2    1.570252856430741E-2   -3.130606048514351E-2    9.845553908190550E-1    3.086471983558679E-2
 1.038735919953636E5     9.845492000298991E-1    3.057848098109502E-2    1.563506824264626E-2   -3.101616735995186E-2    1.568096550723537E-2   -3.109295154135897E-2    9.845892584156787E-1    3.067964468147220E-2
 1.046661332349037E5     9.845461106294485E-1    3.036183278713284E-2    1.561783841594035E-2   -3.080534587832674E-2    1.566381655185883E-2   -3.087870004831424E-2    9.846054514827982E-1    3.043628128146346E-2
 1.054647214552430E5     9.845178467859382E-1    3.014011129860675E-2    1.559527954312752E-2   -3.059279034050666E-2    1.563973643986205E-2   -3.066803505517201E-2    9.846392326775720E-1    3.023768245329580E-2
 1.062694027940149E5     9.845720383047022E-1    2.992554062661564E-2    1.557891370731376E-2   -3.038778203523990E-2    1.562247377029378E-2   -3.045812568230099E-2    9.846655700982989E-1    3.003427820287878E-2
 1.070802237408760E5     9.846221096701804E-1    2.972289499340694E-2    1.555831988074322E-2   -3.017966986016480E-2    1.560408685641261E-2   -3.025293975694495E-2    9.846939239269317E-1    2.984058498038911E-2
 1.078972311401927E5     9.846369832712443E-1    2.949842911965956E-2    1.554077849701190E-2   -2.997411474373153E-2    1.558945230313975E-2   -3.004719232556373E-2    9.847089590814363E-1    2.961855846941483E-2
 1.087204721937475E5     9.846329404650851E-1    2.931078849217254E-2    1.552073552240925E-2   -2.977154464186865E-2    1.556882465611654E-2   -2.984170158587844E-2    9.847200002368871E-1    2.942146099563743E-2
 1.095499944634658E5     9.846554761167878E-1    2.909461596174863E-2    1.550497534164694E-2   -2.956732741048929E-2    1.554983538544724E-2   -2.963928678833514E-2    9.846959654627662E-1    2.920900321440036E-2
 1.103858458741646E5     9.846777133914916E-1    2.888679764310023E-2    1.548191716217296E-2   -2.936932292930684E-2    1.553292977230039E-2   -2.944035241480802E-2    9.847415695011802E-1    2.899687361277224E-2
 1.112280747163201E5     9.847184746934915E-1    2.868593479396437E-2    1.546769541918229E-2   -2.917574162590238E-2    1.551538746748367E-2   -2.924139530952611E-2    9.847816224031414E-1    2.879715484175716E-2
 1.120767296488583E5     9.847259998006046E-1    2.849277199490190E-2    1.544502063169048E-2   -2.897338450996569E-2    1.549367303212180E-2   -2.904331493884449E-2    9.847818277648253E-1    2.860966305028950E-2
 1.129318597019661E5     9.847148012918083E-1    2.829789281837428E-2    1.543026889317069E-2   -2.878081950313291E-2    1.547374281085515E-2   -2.884987403400863E-2    9.847606612809801E-1    2.838288556495703E-2
 1.137935142799240E5     9.847313198890553E-1    2.809815183689387E-2    1.541099169465122E-2   -2.858648103875125E-2    1.545577567860672E-2   -2.865455370081791E-2    9.847904246680385E-1    2.822169562577219E-2
 1.146617431639607E5     9.847555397420726E-1    2.790888791731806E-2    1.539488269691893E-2   -2.838962379553041E-2    1.543894725564374E-2   -2.845963510882965E-2    9.848085597518044E-1    2.802270500242167E-2
 1.155365965151286E5     9.847684499414819E-1    2.773195456574789E-2    1.538046845820562E-2   -2.820106161515775E-2    1.542315018884642E-2   -2.826955278970104E-2    9.848604853211260E-1    2.783835787914773E-2
 1.164181248772018E5     9.847635572723976E-1    2.751516408834265E-2    1.535823969556709E-2   -2.801115589526993E-2    1.540269004754062E-2   -2.808001723253200E-2    9.848338887045623E-1    2.764954854000054E-2
 1.173063791795965E5     9.848127540863476E-1    2.732393300496086E-2    1.534188504740203E-2   -2.782407623693970E-2    1.538605733798956E-2   -2.789452053087523E-2    9.848647119078984E-1    2.745557188455000E-2
 1.182014107403141E5     9.848021169129257E-1    2.716285031783470E-2    1.532626984052912E-2   -2.764020157839681E-2    1.536685119062537E-2   -2.770864658729337E-2    9.848668275116007E-1    2.725458041704839E-2
 1.191032712689044E5     9.848157730322089E-1    2.695443279228952E-2    1.531003082108525E-2   -2.745374338306243E-2    1.535309118583148E-2   -2.752360601487386E-2    9.849166829791611E-1    2.708237327096379E-2
 1.200120128694542E5     9.848418905857981E-1    2.677215662530003E-2    1.529501102389871E-2   -2.727657039839074E-2    1.533303555989743E-2   -2.733993482669518E-2    9.849356842424086E-1    2.687986946624324E-2
 1.209276880435975E5     9.848373835767963E-1    2.660979540542486E-2    1.527480562432136E-2   -2.708971818049935E-2    1.531438883578890E-2   -2.715536738707856E-2    9.849317989448184E-1    2.671200334116224E-2
 1.218503496935483E5     9.848899111622289E-1    2.642446044137906E-2    1.525601639048043E-2   -2.691165737379898E-2    1.530114827924753E-2   -2.697744347732674E-2    9.849576908183885E-1    2.653060392427173E-2
 1.227800511251578E5     9.849175582909525E-1    2.623830098877314E-2    1.524182056742541E-2   -2.673242925304722E-2    1.527991306525972E-2   -2.679844225862019E-2    9.849722747215389E-1    2.634588601445218E-2
 1.237168460509929E5     9.849287903250015E-1    2.604892692273652E-2    1.522189130843851E-2   -2.655788574823702E-2    1.526747356368368E-2   -2.661863871743768E-2    9.850087830102318E-1    2.617219402878471E-2
 1.246607885934402E5     9.848929839272910E-1    2.587018409962665E-2    1.520714432430993E-2   -2.638043038466944E-2    1.524818768862914E-2   -2.644538882415405E-2    9.850180644586288E-1    2.598700220370555E-2
 1.256119332878327E5     9.849506818761347E-1    2.571373047711195E-2    1.518889794060478E-2   -2.620725612186251E-2    1.523239903476111E-2   -2.627130073168300E-2    9.850277344672899E-1    2.579579068058823E-2
 1.265703350856002E5     9.849611009060211E-1    2.552005372188045E-2    1.517083506245806E-2   -2.603625966501879E-2    1.521443658966593E-2   -2.609749817761767E-2    9.850752662608196E-1    2.563574850158176E-2
 1.275360493574453E5     9.849767980551368E-1    2.534407679800856E-2    1.515543035769305E-2   -2.586445452978485E-2    1.519477542316908E-2   -2.592702752857468E-2    9.850811482013064E-1    2.547838147982668E-2
 1.285091318965405E5     9.850152152935193E-1    2.518809122505116E-2    1.513687697583179E-2   -2.569429368605776E-2    1.517981727967708E-2   -2.576021976275103E-2    9.850806234980982E-1    2.529706302563124E-2
 1.294896389217529E5     9.849867648583815E-1    2.501208926796886E-2    1.511765818069793E-2   -2.552681571148813E-2    1.516471456992946E-2   -2.558966013980948E-2    9.851113878411699E-1    2.513358894078443E-2
 1.304776270808914E5     9.850038457932192E-1    2.482771842789163E-2    1.510601968332628E-2   -2.535761271037304E-2    1.514709792141634E-2   -2.542349945096260E-2    9.851360166028825E-1    2.496927075973218E-2
 1.314731534539810E5     9.850339746915766E-1    2.467441456878538E-2    1.508552702008552E-2   -2.519602366372299E-2    1.513180830332598E-2   -2.525408006393830E-2    9.851439673651453E-1    2.478709476236206E-2
 1.324762755565583E5     9.850578603030146E-1    2.448436353645386E-2    1.507405570435529E-2   -2.503021199329001E-2    1.511503282028479E-2   -2.509320374493611E-2    9.851336581587018E-1    2.463843467855811E-2
 1.334870513429962E5     9.850602759891275E-1    2.434454987463558E-2    1.505201952257522E-2   -2.486938015692612E-2    1.509818816966008E-2   -2.492557965971656E-2    9.851700155541057E-1    2.446350511670230E-2
 1.345055392098512E5     9.850696618430473E-1    2.418012092341137E-2    1.504088281538990E-2   -2.470742262504881E-2    1.508274942178083E-2   -2.476638982872888E-2    9.851837029625961E-1    2.429147404136255E-2
 1.355317979992373E5     9.851048462202963E-1    2.401934628682637E-2    1.502232609087393E-2   -2.454951624930182E-2    1.506371507128640E-2   -2.460752173415687E-2    9.851881906405313E-1    2.415664075949801E-2
 1.365658870022265E5     9.850917169438487E-1    2.385230979779067E-2    1.500663806895918E-2   -2.438759971565191E-2    1.504892313468195E-2   -2.444678553859026E-2    9.852226617269821E-1    2.399137190504903E-2
 1.376078659622731E5     9.851224371960003E-1    2.369960374965456E-2    1.499068865651054E-2   -2.423026931910757E-2    1.502970897346230E-2   -2.428752911106694E-2    9.852133332039714E-1    2.382748376319188E-2
 1.386577950786655E5     9.851379120787399E-1    2.355409473569519E-2    1.497399606497188E-2   -2.407474596183995E-2    1.501362644766400E-2   -2.413258829030492E-2    9.852333062889457E-1    2.366757864023890E-2
 1.397157350100044E5     9.851600402558128E-1    2.340207125764799E-2    1.495563061836924E-2   -2.392025194950193E-2    1.499831202164639E-2   -2.397916828151128E-2    9.852474490375480E-1    2.350461505355119E-2
 1.407817468777081E5     9.851833892370200E-1    2.324741546539896E-2    1.494383314613353E-2   -2.376694254434353E-2    1.498394287701182E-2   -2.382270326985166E-2    9.852890881585731E-1    2.335777510701323E-2
 1.418558922695422E5     9.852038657975977E-1    2.307653738664972E-2    1.492310079130789E-2   -2.361511976303136E-2    1.496642573231601E-2   -2.367205077797564E-2    9.853180517673729E-1    2.320137292828179E-2
 1.429382332431784E5     9.852035181291549E-1    2.293810905090594E-2    1.490582859301759E-2   -2.346104915721278E-2    1.494970381036166E-2   -2.352547278540761E-2    9.853171372307343E-1    2.304973075798513E-2
 1.440288323297804E5     9.852134449744653E-1    2.279294691075732E-2    1.489073241264664E-2   -2.331633027265246E-2    1.493355707553304E-2   -2.337219236771824E-2    9.853503294041706E-1    2.290353023603233E-2
 1.451277525376154E5     9.852096862933899E-1    2.262678148560996E-2    1.487594779607345E-2   -2.316642842343365E-2    1.491582319554984E-2   -2.321936539752059E-2    9.853774101347001E-1    2.275486167844286E-2
 1.462350573556962E5     9.852475152311019E-1    2.248405065236752E-2    1.486201939747146E-2   -2.302256916072249E-2    1.490002190736204E-2   -2.307557016045945E-2    9.853805581127466E-1    2.260743445826537E-2
 1.473508107574468E5     9.852704251426756E-1    2.234866681176661E-2    1.484155805917883E-2   -2.287374134020371E-2    1.488349965515506E-2   -2.292969790912215E-2    9.854109811641772E-1    2.246278613624616E-2
 1.484750772044004E5     9.852977223801537E-1    2.218958349207863E-2    1.482764754666387E-2   -2.272938484937350E-2    1.486700819614696E-2   -2.278244627573288E-2    9.853967203123554E-1    2.231796522748213E-2
 1.496079216499225E5     9.852941523888249E-1    2.204878437198479E-2    1.480985512414691E-2   -2.258606274680773E-2    1.485388635233742E-2   -2.263914821650915E-2    9.854153606043909E-1    2.216561981263096E-2
 1.507494095429637E5     9.853118722909434E-1    2.191280769624599E-2    1.479217370087294E-2   -2.244351806524828E-2    1.483696565730283E-2   -2.249624201573220E-2    9.853991037787005E-1    2.203266936689685E-2
 1.518996068318418E5     9.853731994976935E-1    2.177035730047769E-2    1.477435308246666E-2   -2.230082754946245E-2    1.481783428462086E-2   -2.235932731147695E-2    9.854631389484666E-1    2.188307836357718E-2
 1.530585799680507E5     9.853610644658463E-1    2.163068906136060E-2    1.476175937362040E-2   -2.216291444785123E-2    1.479909013786190E-2   -2.221517367623381E-2    9.854734128124926E-1    2.173653950287097E-2
 1.542263959101001E5     9.853727011726399E-1    2.147403414683673E-2    1.474303301538908E-2   -2.202476841036508E-2    1.478653332705757E-2   -2.207899677243822E-2    9.854831600119685E-1    2.159218620283902E-2
 1.554031221273835E5     9.853941856310462E-1    2.133630550619000E-2    1.472756088174556E-2   -2.188847038560400E-2    1.476852413913550E-2   -2.194049170662313E-2    9.855123670718491E-1    2.145266351588783E-2
 1.565888266040779E5     9.854180444536267E-1    2.120868444683761E-2    1.471252223462140E-2   -2.174788740857506E-2    1.475607702310378E-2   -2.180408498431027E-2    9.855330902149091E-1    2.131011528328918E-2
 1.577835778430689E5     9.854272453376839E-1    2.105743866251711E-2    1.469581243398599E-2   -2.161682617431281E-2    1.473602016856103E-2   -2.166821138051003E-2    9.855096348153952E-1    2.115883163570507E-2
 1.589874448699104E5     9.854347190826694E-1    2.093110969792270E-2    1.468045260141986E-2   -2.148133138361032E-2    1.472037658617362E-2   -2.153540368646328E-2    9.855650661271013E-1    2.103267002974016E-2
 1.602004972368116E5     9.854755502595847E-1    2.079697032337771E-2    1.465846096272579E-2   -2.134921732412769E-2    1.470595304898550E-2   -2.140300412492736E-2    9.856358660068465E-1    2.088350321796058E-2
 1.614228050266550E5     9.854838992846393E-1    2.065933080373404E-2    1.464520100852387E-2   -2.121487529427259E-2    1.468947296166155E-2   -2.127173832416685E-2    9.856343286983007E-1    2.075458011910313E-2
 1.626544388570473E5     9.855249151886711E-1    2.053012445008817E-2    1.462746857990847E-2   -2.108570781582721E-2    1.466952235226834E-2   -2.114147361469488E-2    9.856240962661864E-1    2.061830206211401E-2
 1.638954698843964E5     9.855518455861954E-1    2.041592073884713E-2    1.461100383351434E-2   -2.095469332096733E-2    1.465940745450192E-2   -2.100952850251349E-2    9.856357233453417E-1    2.050509660322234E-2
 1.651459698080244E5     9.855546637585899E-1    2.027071106083670E-2    1.459653089541929E-2   -2.082961504535020E-2    1.463902382033211E-2   -2.088043987916886E-2    9.856350807144302E-1    2.036055265417204E-2
 1.664060108743095E5     9.855691752372548E-1    2.014120750984396E-2    1.458028503659772E-2   -2.070336995972076E-2    1.461656613129046E-2   -2.075637907170740E-2    9.856856242752249E-1    2.024239824791776E-2
 1.676756658808590E5     9.855946870589655E-1    2.000250056788113E-2    1.456433786256110E-2   -2.057447331474107E-2    1.460417939515707E-2   -2.062653176854402E-2    9.856684724020911E-1    2.010702177716723E-2
 1.689550081807175E5     9.855932743442862E-1    1.987281958843222E-2    1.454905791784708E-2   -2.045203366072996E-2    1.458838503687905E-2   -2.050141982054381E-2    9.856896538054832E-1    1.997195575379431E-2
 1.702441116866020E5     9.855909540477615E-1    1.974982380128763E-2    1.453102939507201E-2   -2.032979175179388E-2    1.457089325206581E-2   -2.037789315009362E-2    9.857343410950529E-1    1.986323960575906E-2
 1.715430508751738E5     9.856046362821301E-1    1.964071012422461E-2    1.451493058222436E-2   -2.020506492441577E-2    1.455377545778181E-2   -2.025411571455535E-2    9.857045441589303E-1    1.971605226442822E-2
 1.728519007913403E5     9.856443419237542E-1    1.950808070337124E-2    1.449891903109598E-2   -2.008197487564474E-2    1.453664512231178E-2   -2.012978084783993E-2    9.857651676449503E-1    1.960178979742403E-2
 1.741707370525927E5     9.856598099341413E-1    1.939091351592866E-2    1.447839400213740E-2   -1.996152829071424E-2    1.451926771754327E-2   -2.001274174590335E-2    9.857838855838582E-1    1.947781535699939E-2
 1.754996358533718E5     9.856779172088411E-1    1.926814175186452E-2    1.446407092699709E-2   -1.984233481451814E-2    1.450492686292670E-2   -1.989372436002512E-2    9.857778009956503E-1    1.935109388474568E-2
 1.768386739694722E5     9.856974125738085E-1    1.913594314820059E-2    1.444857359129963E-2   -1.972248740161975E-2    1.448887553206072E-2   -1.977038112371995E-2    9.858408390858243E-1    1.924298312708135E-2
 1.781879287624771E5     9.856824446431685E-1    1.901545656355658E-2    1.442957789691241E-2   -1.960363386944196E-2    1.446914636592250E-2   -1.965517344334291E-2    9.858557696404382E-1    1.912839692684396E-2
 1.795474781842276E5     9.857257964483958E-1    1.890769772017660E-2    1.441430249596623E-2   -1.948771923653807E-2    1.445257608950883E-2   -1.953683193015740E-2    9.858430094955822E-1    1.899740027187646E-2
 1.809174007813277E5     9.857396713988997E-1    1.877452640944479E-2    1.439751759751615E-2   -1.937509136463905E-2    1.443771751715634E-2   -1.941907043772122E-2    9.858214154990721E-1    1.886921402697455E-2
 1.822977756996804E5     9.857297104638457E-1    1.865754873667664E-2    1.437990230552839E-2   -1.925451327664289E-2    1.441820488848556E-2   -1.930385168288490E-2    9.858726428672145E-1    1.876027322701423E-2
 1.836886826890609E5     9.857525856708083E-1    1.855368050458747E-2    1.436244370770920E-2   -1.914062991003388E-2    1.439944155342578E-2   -1.918870305440145E-2    9.859012762633604E-1    1.864203966580774E-2
 1.850902021077247E5     9.857973914646427E-1    1.844042259707083E-2    1.434711800260383E-2   -1.903449069389917E-2    1.438391709552374E-2   -1.908086096498087E-2    9.858764291923408E-1    1.851980222419002E-2
 1.865024149270491E5     9.857956244837924E-1    1.831099730212820E-2    1.432596027343023E-2   -1.891835935534211E-2    1.436611642584158E-2   -1.896243779130105E-2    9.858820397058232E-1    1.841579279081789E-2
 1.879254027362132E5     9.858034148482606E-1    1.819661949496544E-2    1.430961717121707E-2   -1.880456407288929E-2    1.434858491062357E-2   -1.885289178756272E-2    9.859246795638402E-1    1.828289867613326E-2
 1.893592477469092E5     9.858795762464077E-1    1.805278960730365E-2    1.429295650717778E-2   -1.871526522287039E-2    1.432494169223573E-2   -1.872719533539586E-2    9.859509373928796E-1    1.818235170496393E-2
 1.908040327980933E5     9.858439769642000E-1    1.798492124760575E-2    1.427437010171780E-2   -1.859083796404688E-2    1.431346652621899E-2   -1.863038827340403E-2    9.859780043527796E-1    1.806365317105669E-2
 1.922598413607715E5     9.858416720017001E-1    1.785804286611669E-2    1.425740098677252E-2   -1.848268865055251E-2    1.429795699562733E-2   -1.852301358995928E-2    9.859855521367326E-1    1.794546175499582E-2
 1.937267575428232E5     9.858689089265873E-1    1.774609783589415E-2    1.423745407929124E-2   -1.837206641851460E-2    1.427844920633838E-2   -1.841466317058192E-2    9.859892538106593E-1    1.784378552644185E-2
 1.952048660938581E5     9.858887883087484E-1    1.764024606156442E-2    1.422132356943341E-2   -1.826805911509505E-2    1.426176949499895E-2   -1.831137701854825E-2    9.860029146586157E-1    1.773084882441179E-2
 1.966942524101142E5     9.858914371626892E-1    1.752960258304394E-2    1.420627813840508E-2   -1.816205044713518E-2    1.424691070943131E-2   -1.820447638473809E-2    9.860279729175203E-1    1.761874378502195E-2
 1.981950025393913E5     9.858847500214080E-1    1.743155083757068E-2    1.418873198535560E-2   -1.805654574720418E-2    1.422851149448487E-2   -1.810078535897065E-2    9.860549254550200E-1    1.751379944166430E-2
