#  HZ   S   RI   R     50.00 
! Rohde & Schwarz Vector Network Analyzer 
! Rohde-Schwarz,ZNLE6-2Port,1323001256200024,1.71.1.10-23.02.1.238
! Created: UTC 4/7/2025, 6:46:53 AM
! freq[Hz]                re:S11                  im:S11                  re:S21                  im:S21                  re:S12                  im:S12                  re:S22                  im:S22
 1.000000000000000E5     9.858715979680573E-1    2.904767992030146E-2    1.433249930096198E-2   -2.940739538836407E-2    1.438079871793324E-2   -2.948231429382953E-2    9.858968437451514E-1    2.908787923192217E-2
 1.007629862646662E5     9.859369805369044E-1    2.881574139449334E-2    1.431623795090878E-2   -2.920439283520048E-2    1.436363303539792E-2   -2.927570790221431E-2    9.858961621507550E-1    2.887569343497350E-2
 1.015317940097331E5     9.859175666106440E-1    2.861018058409800E-2    1.430495732282248E-2   -2.900504668487505E-2    1.434697923933944E-2   -2.907486069078256E-2    9.859030199899174E-1    2.864152964135686E-2
 1.023064676522963E5     9.859135094813101E-1    2.839581516474880E-2    1.428129985207090E-2   -2.880396623966284E-2    1.432777485893138E-2   -2.887625760418716E-2    9.859417980452507E-1    2.845383067046136E-2
 1.030870519483485E5     9.859249294688822E-1    2.819814454947078E-2    1.426779883156315E-2   -2.860807588290652E-2    1.431275258447398E-2   -2.867790715492378E-2    9.859403487770454E-1    2.825312545575499E-2
 1.038735919953636E5     9.859277519309596E-1    2.796952464092216E-2    1.425143712614108E-2   -2.841276787691804E-2    1.429228108965562E-2   -2.848008236257018E-2    9.859876689079606E-1    2.807256693133440E-2
 1.046661332349037E5     9.859234715851656E-1    2.779359032645585E-2    1.423669391750573E-2   -2.821552772808024E-2    1.427876356274798E-2   -2.828576066746249E-2    9.859995332882387E-1    2.787025503154487E-2
 1.054647214552430E5     9.859222488859755E-1    2.759148726796608E-2    1.421588395343127E-2   -2.802400473512189E-2    1.425959142820406E-2   -2.809282745419922E-2    9.860228658782692E-1    2.767929426318295E-2
 1.062694027940149E5     9.859554991556942E-1    2.738556371926446E-2    1.419859133613411E-2   -2.783468187334808E-2    1.424543415692858E-2   -2.790239162509770E-2    9.860435839203904E-1    2.748640724789689E-2
 1.070802237408760E5     9.859878305563370E-1    2.719163709381319E-2    1.418461624280414E-2   -2.764509788080280E-2    1.422740982769973E-2   -2.771202491522226E-2    9.860615203896970E-1    2.730253726087860E-2
 1.078972311401927E5     9.860042658633477E-1    2.700644697105286E-2    1.416903483028316E-2   -2.745647268534125E-2    1.420938970457854E-2   -2.752321953659263E-2    9.860527593058981E-1    2.710034033064191E-2
 1.087204721937475E5     9.859965672821610E-1    2.682556464411542E-2    1.415305171341357E-2   -2.727152113295498E-2    1.419398399323243E-2   -2.733531916380390E-2    9.860670768060005E-1    2.693267361061054E-2
 1.095499944634658E5     9.860012614237148E-1    2.661882936042988E-2    1.413657924769918E-2   -2.708611709365182E-2    1.418090172805988E-2   -2.714762642766820E-2    9.860425585467061E-1    2.671441414598158E-2
 1.103858458741646E5     9.860370250943713E-1    2.643984752066915E-2    1.411985833926124E-2   -2.690345904656147E-2    1.416345077769402E-2   -2.696331053638567E-2    9.860992163269429E-1    2.654885131928177E-2
 1.112280747163201E5     9.860344519249764E-1    2.624611646846768E-2    1.410504165794781E-2   -2.671893901831118E-2    1.414433430746543E-2   -2.678097537932772E-2    9.861044818134016E-1    2.635415920424602E-2
 1.120767296488583E5     9.860688688366238E-1    2.608352894561246E-2    1.408723299549021E-2   -2.653595286026253E-2    1.413127536572203E-2   -2.660125487206226E-2    9.861461308349385E-1    2.615639502012805E-2
 1.129318597019661E5     9.860500022037725E-1    2.589334127624738E-2    1.406971384634145E-2   -2.636048412312002E-2    1.411537685134306E-2   -2.642453130051832E-2    9.861226445187951E-1    2.596458402198301E-2
 1.137935142799240E5     9.861074518852884E-1    2.571208134311140E-2    1.405681948261592E-2   -2.617909432260125E-2    1.409696204373343E-2   -2.624143529163712E-2    9.861083368557830E-1    2.581856368514457E-2
 1.146617431639607E5     9.861020596450256E-1    2.552698816901150E-2    1.404088709890743E-2   -2.600610326298463E-2    1.408534268659188E-2   -2.606489200721403E-2    9.861364217313787E-1    2.562747072815745E-2
 1.155365965151286E5     9.861349667972693E-1    2.536602271063195E-2    1.402594658512199E-2   -2.583045754548895E-2    1.406569248513375E-2   -2.589125264702460E-2    9.861805405963339E-1    2.545432382708241E-2
 1.164181248772018E5     9.861038358829194E-1    2.518720595544616E-2    1.401109578754769E-2   -2.565741268066224E-2    1.405036732942024E-2   -2.572125290603572E-2    9.861922486628238E-1    2.528439375250783E-2
 1.173063791795965E5     9.861246842022917E-1    2.500288495342990E-2    1.399555299846879E-2   -2.548797158665921E-2    1.403784490080690E-2   -2.554763894305699E-2    9.862107910118777E-1    2.510810019763964E-2
 1.182014107403141E5     9.861450316843314E-1    2.484217142565470E-2    1.398143424732943E-2   -2.531549354453198E-2    1.402279742529666E-2   -2.537658593943822E-2    9.862252281901073E-1    2.494171552746768E-2
 1.191032712689044E5     9.861629867570343E-1    2.464616308407821E-2    1.396619606286941E-2   -2.514525751652410E-2    1.400933059151800E-2   -2.520483480532816E-2    9.862722340121896E-1    2.476912174552989E-2
 1.200120128694542E5     9.861297823070981E-1    2.448985056744624E-2    1.395059290607319E-2   -2.497620655290584E-2    1.398922657458256E-2   -2.503687166274246E-2    9.862834706409459E-1    2.459196523473842E-2
 1.209276880435975E5     9.861538366280166E-1    2.433467985443348E-2    1.393634602789306E-2   -2.481350219177593E-2    1.397930089677251E-2   -2.487581374250919E-2    9.863070522299692E-1    2.443794863892079E-2
 1.218503496935483E5     9.862046046634555E-1    2.417272662013479E-2    1.392431717943857E-2   -2.464912400847506E-2    1.396054110068674E-2   -2.470395513473659E-2    9.862930175324932E-1    2.426266124964295E-2
 1.227800511251578E5     9.862148146899806E-1    2.400596815440251E-2    1.391108190797531E-2   -2.448518512627523E-2    1.394586815747670E-2   -2.454404482333630E-2    9.862997083858555E-1    2.409367323853770E-2
 1.237168460509929E5     9.862316844741055E-1    2.382948433292371E-2    1.389158942526982E-2   -2.432141833290502E-2    1.393132310378399E-2   -2.437953698707802E-2    9.863239606126207E-1    2.393536007122946E-2
 1.246607885934402E5     9.862131082765662E-1    2.366485613850722E-2    1.387860258712895E-2   -2.416430289136352E-2    1.391712325729786E-2   -2.421701154151884E-2    9.863488320054314E-1    2.376611777074916E-2
 1.256119332878327E5     9.862759960724644E-1    2.351072236850868E-2    1.385839919636717E-2   -2.400348483096720E-2    1.390082723248049E-2   -2.405787172016273E-2    9.863546688905631E-1    2.359335626659194E-2
 1.265703350856002E5     9.862590724583198E-1    2.333174842620366E-2    1.384929004311867E-2   -2.384310175313457E-2    1.388665740580798E-2   -2.390086430884747E-2    9.863945696318650E-1    2.345388479500002E-2
 1.275360493574453E5     9.862940449735229E-1    2.317026504519807E-2    1.383421238223357E-2   -2.368733285393751E-2    1.387188818430097E-2   -2.373910216213558E-2    9.863868279667309E-1    2.328609569278012E-2
 1.285091318965405E5     9.862988758588281E-1    2.302337194766799E-2    1.381730558681935E-2   -2.353283467808701E-2    1.385673176006716E-2   -2.358704018999401E-2    9.864119132714720E-1    2.313907518520470E-2
 1.294896389217529E5     9.862908016182043E-1    2.285824195861285E-2    1.380356172188672E-2   -2.337333430539631E-2    1.384432224379389E-2   -2.343123385312038E-2    9.864418217580201E-1    2.298312601141235E-2
 1.304776270808914E5     9.863106419330275E-1    2.269352994534221E-2    1.378644937834745E-2   -2.322454061395719E-2    1.382621298870300E-2   -2.327800138793418E-2    9.864470149377190E-1    2.283540745726991E-2
 1.314731534539810E5     9.863343768434084E-1    2.254797850164742E-2    1.377655887223220E-2   -2.307389361395475E-2    1.381362424536335E-2   -2.312597465865599E-2    9.864396558543558E-1    2.266766914989823E-2
 1.324762755565583E5     9.863681105473936E-1    2.240226879642820E-2    1.376195709514579E-2   -2.292351489096076E-2    1.379714430034317E-2   -2.297752293529095E-2    9.864630421294819E-1    2.252921518640631E-2
 1.334870513429962E5     9.863343499942794E-1    2.224300805571586E-2    1.374606497232102E-2   -2.277081752835553E-2    1.378504826572449E-2   -2.282699078379905E-2    9.864749956741717E-1    2.238163681547682E-2
 1.345055392098512E5     9.863464876739499E-1    2.209664728328772E-2    1.373272745215544E-2   -2.262308653743415E-2    1.376988405244354E-2   -2.267962534997714E-2    9.865264522658134E-1    2.221165236416927E-2
 1.355317979992373E5     9.863723649498036E-1    2.196770844529874E-2    1.371318743767561E-2   -2.248017240452026E-2    1.375688778309073E-2   -2.253145434860611E-2    9.864902445308545E-1    2.210010967995234E-2
 1.365658870022265E5     9.863842930935518E-1    2.180014568967089E-2    1.370142817505212E-2   -2.233427081301873E-2    1.373618248292222E-2   -2.238479584032560E-2    9.864978507264125E-1    2.193416794649089E-2
 1.376078659622731E5     9.864021739888448E-1    2.165969512253946E-2    1.368838120725371E-2   -2.219429342850638E-2    1.372925974022774E-2   -2.224414316551711E-2    9.865380179163143E-1    2.178552761115141E-2
 1.386577950786655E5     9.864246076950530E-1    2.153138780809648E-2    1.367096128413274E-2   -2.204675582467583E-2    1.370975533988670E-2   -2.209606840656561E-2    9.865536740523748E-1    2.163739339151826E-2
 1.397157350100044E5     9.864217513074728E-1    2.137538294229782E-2    1.365630688063056E-2   -2.190462634861211E-2    1.370038597966328E-2   -2.195466463719509E-2    9.865836100637052E-1    2.149740894482544E-2
 1.407817468777081E5     9.864522711561763E-1    2.123875986581651E-2    1.364598515666495E-2   -2.176426802835128E-2    1.368379346945810E-2   -2.181328395796538E-2    9.866117113286188E-1    2.135188500530684E-2
 1.418558922695422E5     9.864665216919298E-1    2.109716074693718E-2    1.363143024283677E-2   -2.162689572113516E-2    1.366574582204979E-2   -2.167328133189072E-2    9.866064151207528E-1    2.120611720989721E-2
 1.429382332431784E5     9.864906080815502E-1    2.096389013656354E-2    1.361769387331491E-2   -2.148603053289102E-2    1.365130999210216E-2   -2.153708036706565E-2    9.866392476361454E-1    2.107324935379381E-2
 1.440288323297804E5     9.864824449357132E-1    2.083688993848964E-2    1.360038776622844E-2   -2.134819742631484E-2    1.363575037912020E-2   -2.140221701596270E-2    9.866649953454454E-1    2.093916219897335E-2
 1.451277525376154E5     9.864644382782314E-1    2.067682038213012E-2    1.358271943858668E-2   -2.121536073884009E-2    1.362461286231123E-2   -2.126307244398247E-2    9.866774621610630E-1    2.080298709377153E-2
 1.462350573556962E5     9.864899588064686E-1    2.053606526773078E-2    1.357013264868962E-2   -2.108228352354773E-2    1.360815844718110E-2   -2.112780754364880E-2    9.866849764607633E-1    2.065716063905744E-2
 1.473508107574468E5     9.865230524620892E-1    2.041445708155476E-2    1.355588459091616E-2   -2.094446167551598E-2    1.359454452584220E-2   -2.099342441922472E-2    9.866960214395226E-1    2.051753752412751E-2
 1.484750772044004E5     9.865270705170619E-1    2.026961863380114E-2    1.354259359424770E-2   -2.081368281666027E-2    1.358301052971571E-2   -2.085982871630614E-2    9.867125629790875E-1    2.039070413662299E-2
 1.496079216499225E5     9.865352706844988E-1    2.013812801725874E-2    1.353092996766348E-2   -2.068112961460895E-2    1.357029710557778E-2   -2.072551049025247E-2    9.867067886199778E-1    2.025616377608206E-2
 1.507494095429637E5     9.865801830083788E-1    2.001563720884982E-2    1.351447562556546E-2   -2.055589543280868E-2    1.355563990436276E-2   -2.060129772424301E-2    9.867290316079814E-1    2.012685705486492E-2
 1.518996068318418E5     9.866112312095837E-1    1.988506451650138E-2    1.350098884924050E-2   -2.042209032777252E-2    1.353766895453992E-2   -2.047433120680065E-2    9.867435990661345E-1    1.998050289889181E-2
 1.530585799680507E5     9.866038868922131E-1    1.975272531595126E-2    1.348382810001009E-2   -2.029325976215572E-2    1.352369038494127E-2   -2.034306674079145E-2    9.867866176656295E-1    1.985929694919826E-2
 1.542263959101001E5     9.865986200300800E-1    1.959884771315034E-2    1.346882469879293E-2   -2.016468421248031E-2    1.350910000733399E-2   -2.021543112026098E-2    9.868024263535422E-1    1.973399134271659E-2
 1.554031221273835E5     9.866140956273501E-1    1.947981493895178E-2    1.345587613544504E-2   -2.003863803877484E-2    1.349257864444911E-2   -2.008785394995178E-2    9.868062144442463E-1    1.960309532937491E-2
 1.565888266040779E5     9.866321683811802E-1    1.937412596638508E-2    1.344187365263222E-2   -1.991373087349595E-2    1.347891275138179E-2   -1.996183755131537E-2    9.868264343775178E-1    1.947209667530709E-2
 1.577835778430689E5     9.866727656535129E-1    1.923436323422661E-2    1.342387292103733E-2   -1.978936605930784E-2    1.346518655472267E-2   -1.983958973464956E-2    9.868307963955281E-1    1.934637870978601E-2
 1.589874448699104E5     9.866624111163483E-1    1.912711913565172E-2    1.341180810947373E-2   -1.966918693458996E-2    1.344970264715700E-2   -1.971401791861045E-2    9.868313386334160E-1    1.920657194513228E-2
 1.602004972368116E5     9.867228624013668E-1    1.899486836984906E-2    1.340100754157551E-2   -1.954620254835140E-2    1.343821619470455E-2   -1.959652918902054E-2    9.869049617080717E-1    1.909016014292366E-2
 1.614228050266550E5     9.867106404974195E-1    1.886996659638165E-2    1.338254724871567E-2   -1.942446162929743E-2    1.342023720764081E-2   -1.947337831871420E-2    9.868980173400546E-1    1.895585751748187E-2
 1.626544388570473E5     9.867120977446387E-1    1.874687270127122E-2    1.336965122187261E-2   -1.930737026350805E-2    1.340726668697346E-2   -1.935301061115819E-2    9.869032989017936E-1    1.883022653781627E-2
 1.638954698843964E5     9.867466969639345E-1    1.862522965755032E-2    1.335607661843337E-2   -1.918873421783590E-2    1.339284461616217E-2   -1.923308964645928E-2    9.869243254984086E-1    1.872263665267572E-2
 1.651459698080244E5     9.867624372681016E-1    1.850853176122482E-2    1.333763554430589E-2   -1.906682428869822E-2    1.337906337927920E-2   -1.911769463179380E-2    9.869412793236668E-1    1.860611492597550E-2
 1.664060108743095E5     9.867551625258791E-1    1.838970439653801E-2    1.332286434259109E-2   -1.895589953920793E-2    1.336039466387980E-2   -1.899735166711478E-2    9.869535345302504E-1    1.847742351705661E-2
 1.676756658808590E5     9.867959738776722E-1    1.825964186759827E-2    1.330960877942954E-2   -1.883931689013088E-2    1.334988943429749E-2   -1.888120858994938E-2    9.869525077055188E-1    1.836917881852123E-2
 1.689550081807175E5     9.867629967111301E-1    1.812453288414874E-2    1.329482271576973E-2   -1.872393079399058E-2    1.333420419728983E-2   -1.876646539556156E-2    9.869459858096258E-1    1.823349221290282E-2
 1.702441116866020E5     9.867851819467431E-1    1.801478570057066E-2    1.327614637443517E-2   -1.860747301908194E-2    1.331618953788405E-2   -1.865331682062968E-2    9.869769421092257E-1    1.813355363064139E-2
 1.715430508751738E5     9.868178045731246E-1    1.792094338114202E-2    1.326356565036968E-2   -1.849626841057949E-2    1.330412130419232E-2   -1.854006372947475E-2    9.869585136012519E-1    1.800456381895562E-2
 1.728519007913403E5     9.868352781738370E-1    1.780381624283045E-2    1.325051166804921E-2   -1.838100708860692E-2    1.328622755187331E-2   -1.842898362358383E-2    9.870299430661514E-1    1.789317952783366E-2
 1.741707370525927E5     9.868666075030723E-1    1.769188082863425E-2    1.323100309742086E-2   -1.827283209777951E-2    1.327093226708230E-2   -1.831655763927230E-2    9.870183212668738E-1    1.778594970773985E-2
 1.754996358533718E5     9.868811921019304E-1    1.757742577173771E-2    1.321767218171265E-2   -1.816573520497802E-2    1.325866289448385E-2   -1.820519749729201E-2    9.869883752693963E-1    1.767825251520413E-2
 1.768386739694722E5     9.868734336875016E-1    1.747044378917740E-2    1.320145020918772E-2   -1.805585987576152E-2    1.324205983809646E-2   -1.809507417659707E-2    9.870569724812678E-1    1.756044184196542E-2
 1.781879287624771E5     9.868828576187972E-1    1.735440676954302E-2    1.318726717649847E-2   -1.794489054541747E-2    1.322772129510435E-2   -1.798939889517328E-2    9.870755133852814E-1    1.744836843265391E-2
 1.795474781842276E5     9.869008902467032E-1    1.724174517246256E-2    1.317367901882679E-2   -1.783773300790042E-2    1.321080594247326E-2   -1.788116517365312E-2    9.870437642911856E-1    1.733516190086465E-2
 1.809174007813277E5     9.869332176188296E-1    1.712309501275052E-2    1.315955021349911E-2   -1.773422963955425E-2    1.319829464214977E-2   -1.777495463554146E-2    9.870480039154673E-1    1.722692864357790E-2
 1.822977756996804E5     9.869106044296884E-1    1.702379564137666E-2    1.314369955548017E-2   -1.762618300721086E-2    1.318076847092983E-2   -1.767073174583616E-2    9.870944728211627E-1    1.712002342531842E-2
 1.836886826890609E5     9.869498523997402E-1    1.692012869160619E-2    1.312757099641571E-2   -1.752446298115181E-2    1.316619508781318E-2   -1.756111051336386E-2    9.871024683381635E-1    1.701276087635907E-2
 1.850902021077247E5     9.869580277711666E-1    1.680611315429476E-2    1.311496297832942E-2   -1.741884977821482E-2    1.315139132462122E-2   -1.745743424470566E-2    9.871111595256524E-1    1.690618877034682E-2
 1.865024149270491E5     9.869698700371513E-1    1.668891209787765E-2    1.310027691708695E-2   -1.731873547509470E-2    1.313286769052076E-2   -1.735543993369600E-2    9.871307703326144E-1    1.681404891853433E-2
 1.879254027362132E5     9.870170308812493E-1    1.658830758337921E-2    1.308333830625019E-2   -1.721624512351554E-2    1.311850188982127E-2   -1.725429878803797E-2    9.871482076175124E-1    1.669330058727787E-2
 1.893592477469092E5     9.869983977810951E-1    1.644686623092971E-2    1.306169762742117E-2   -1.710765316522307E-2    1.309856125257406E-2   -1.716126158419253E-2    9.871973992148854E-1    1.656423708244285E-2
 1.908040327980933E5     9.870032002342811E-1    1.639438808440375E-2    1.304769066539802E-2   -1.701416493593045E-2    1.308708725063120E-2   -1.705364062528084E-2    9.872296236662731E-1    1.649750345817846E-2
 1.922598413607715E5     9.870055972715182E-1    1.627581391566388E-2    1.303723799855161E-2   -1.691283308415374E-2    1.306943364397322E-2   -1.694961091792617E-2    9.872326135368373E-1    1.637757745465319E-2
 1.937267575428232E5     9.870314900676140E-1    1.618137643018461E-2    1.301624968719924E-2   -1.681437577800084E-2    1.305733397098523E-2   -1.685182118597982E-2    9.872208556639027E-1    1.629076422457687E-2
 1.952048660938581E5     9.870859282968474E-1    1.607392549924338E-2    1.300249784093974E-2   -1.671748562212482E-2    1.303845984637736E-2   -1.675571853214096E-2    9.872437366080410E-1    1.617403635378937E-2
 1.966942524101142E5     9.870841201450836E-1    1.596908455224411E-2    1.298914795342546E-2   -1.661942203956928E-2    1.302410357155975E-2   -1.665648701628031E-2    9.872452655535752E-1    1.607594902963000E-2
 1.981950025393913E5     9.870846094345047E-1    1.588584702764929E-2    1.297006114209059E-2   -1.652512181666445E-2    1.300924860347738E-2   -1.655865930864952E-2    9.872704130889532E-1    1.597317189657581E-2
