#  HZ   S   RI   R     50.00 
! Rohde & Schwarz Vector Network Analyzer 
! Rohde-Schwarz,ZNLE6-2Port,1323001256200024,1.71.1.10-23.02.1.238
! Created: UTC 4/7/2025, 6:34:20 AM
! freq[Hz]                re:S11                  im:S11                  re:S21                  im:S21                  re:S12                  im:S12                  re:S22                  im:S22
 1.000000000000000E5     9.870660977259859E-1    2.678107711285074E-2    1.311088535484262E-2   -2.711554221322380E-2    1.315296470797509E-2   -2.717805596096596E-2    9.871041300253592E-1    2.680080979327062E-2
 1.007629862646662E5     9.870875688491878E-1    2.654176888209776E-2    1.309347860426542E-2   -2.692554015827998E-2    1.313261506481102E-2   -2.699679960103350E-2    9.871073774309711E-1    2.661783844734245E-2
 1.015317940097331E5     9.870921616193580E-1    2.636648007991649E-2    1.307943935035868E-2   -2.673814367934444E-2    1.311939897533186E-2   -2.680800616704996E-2    9.871056906137067E-1    2.640469529804679E-2
 1.023064676522963E5     9.870988566194101E-1    2.617168396332072E-2    1.306705519947476E-2   -2.655602931542268E-2    1.310425301126822E-2   -2.662350162991183E-2    9.871418911448004E-1    2.622879918354743E-2
 1.030870519483485E5     9.870697877151567E-1    2.597977429904301E-2    1.304861423076446E-2   -2.637123183610693E-2    1.308845289515644E-2   -2.643676880715960E-2    9.871525469105396E-1    2.603708125838581E-2
 1.038735919953636E5     9.871315395192621E-1    2.579313737814976E-2    1.303723300615814E-2   -2.619240479238637E-2    1.307608463052721E-2   -2.625527069972214E-2    9.871694534293123E-1    2.586275061922938E-2
 1.046661332349037E5     9.871166723315485E-1    2.562147899670822E-2    1.302241280375335E-2   -2.601170819582991E-2    1.306093378256714E-2   -2.607718066835740E-2    9.871791039550752E-1    2.567335273278360E-2
 1.054647214552430E5     9.871171295274828E-1    2.542892215375148E-2    1.300395787261212E-2   -2.583560150256757E-2    1.304582017509692E-2   -2.589877546780760E-2    9.872106397761190E-1    2.549318462436272E-2
 1.062694027940149E5     9.871522694021024E-1    2.524588566797253E-2    1.299510845315410E-2   -2.565870055490981E-2    1.303308622889392E-2   -2.571965625660648E-2    9.872240491889968E-1    2.532754993842595E-2
 1.070802237408760E5     9.871587172761803E-1    2.506013915998320E-2    1.297766735354002E-2   -2.548154631136104E-2    1.301759961993470E-2   -2.554614801817669E-2    9.872300219682870E-1    2.514724920139135E-2
 1.078972311401927E5     9.871635706111831E-1    2.489259641169587E-2    1.296506748451085E-2   -2.530796523218853E-2    1.300176884591042E-2   -2.537187626117457E-2    9.872362576292152E-1    2.496214222313027E-2
 1.087204721937475E5     9.871581214552186E-1    2.472333093494558E-2    1.294953721573445E-2   -2.513987147120492E-2    1.298863462865792E-2   -2.519993368322859E-2    9.872851379396064E-1    2.481128387695834E-2
 1.095499944634658E5     9.872047172499716E-1    2.451919647433682E-2    1.293861283426962E-2   -2.496675020728270E-2    1.297323935461057E-2   -2.502291044676747E-2    9.872198051687641E-1    2.461992301003615E-2
 1.103858458741646E5     9.871844834748531E-1    2.436604368125074E-2    1.292122772846534E-2   -2.479515179195152E-2    1.296057586157169E-2   -2.485599723515317E-2    9.872673999704445E-1    2.444007146734655E-2
 1.112280747163201E5     9.871726188157507E-1    2.418653999408194E-2    1.291140833001786E-2   -2.462559187202806E-2    1.294660198569062E-2   -2.469054729362807E-2    9.872616420023174E-1    2.428672881263765E-2
 1.120767296488583E5     9.871970086134546E-1    2.402218844920457E-2    1.289384653282846E-2   -2.446043366435850E-2    1.293300382720654E-2   -2.451955958055878E-2    9.873032071046772E-1    2.410085795409680E-2
 1.129318597019661E5     9.872105738602451E-1    2.385009537740871E-2    1.288108592187549E-2   -2.429677953337366E-2    1.291697994420857E-2   -2.435358961747886E-2    9.872988632745832E-1    2.391671749722698E-2
 1.137935142799240E5     9.872305195485822E-1    2.369418451403940E-2    1.286868348735580E-2   -2.413120517218939E-2    1.290072500819871E-2   -2.418684064365396E-2    9.873016939390705E-1    2.378120180994862E-2
 1.146617431639607E5     9.872219677577002E-1    2.351456589882582E-2    1.285292893457093E-2   -2.396696365803271E-2    1.289512733710157E-2   -2.402415704102205E-2    9.873216092585787E-1    2.361865969120078E-2
 1.155365965151286E5     9.872408563495516E-1    2.336335415745241E-2    1.283921341273161E-2   -2.380496540015266E-2    1.287605968035637E-2   -2.386579014147992E-2    9.873493060176696E-1    2.346815875823954E-2
 1.164181248772018E5     9.872417395865589E-1    2.319514769053667E-2    1.282625372022176E-2   -2.364687203885463E-2    1.286232591727190E-2   -2.370223604982110E-2    9.873175312845272E-1    2.328682616765073E-2
 1.173063791795965E5     9.872771302021356E-1    2.303118952638027E-2    1.281213733408483E-2   -2.348748936903542E-2    1.284997261959910E-2   -2.354712249605831E-2    9.873731168668688E-1    2.313145460062675E-2
 1.182014107403141E5     9.872804045368861E-1    2.287541145831779E-2    1.280295675721361E-2   -2.333506721704501E-2    1.283576641872774E-2   -2.338861584343556E-2    9.873701299008910E-1    2.295472988414666E-2
 1.191032712689044E5     9.872873363223142E-1    2.270073873554846E-2    1.278824476465527E-2   -2.317440894517329E-2    1.282562072955730E-2   -2.323061785447701E-2    9.874224020429833E-1    2.281373493674464E-2
 1.200120128694542E5     9.872528553902631E-1    2.255284480354149E-2    1.277248318834554E-2   -2.301843408152289E-2    1.281207130469179E-2   -2.307706553709472E-2    9.874300363677244E-1    2.265814072968384E-2
 1.209276880435975E5     9.873010516904592E-1    2.239819124884436E-2    1.276091588074099E-2   -2.286608253585934E-2    1.279690784621225E-2   -2.292136454242519E-2    9.874261844363735E-1    2.250803143636263E-2
 1.218503496935483E5     9.873092606541455E-1    2.224305303815852E-2    1.274399185970846E-2   -2.271437944036782E-2    1.278264866065544E-2   -2.276935193389919E-2    9.874441374761744E-1    2.234979513421938E-2
 1.227800511251578E5     9.873477900654856E-1    2.209707879583577E-2    1.273404643658975E-2   -2.256084686221633E-2    1.277029889163701E-2   -2.261781218529319E-2    9.874388761516453E-1    2.218786423690513E-2
 1.237168460509929E5     9.873269867372964E-1    2.193521613888708E-2    1.272297395282704E-2   -2.241106279683969E-2    1.275672148065418E-2   -2.246803890904141E-2    9.874871045317910E-1    2.204869911045268E-2
 1.246607885934402E5     9.873224552699431E-1    2.178695088201744E-2    1.270753404409471E-2   -2.226594543418495E-2    1.274312301794883E-2   -2.231919060844989E-2    9.874901584323007E-1    2.189237335566176E-2
 1.256119332878327E5     9.873795062174676E-1    2.165960730708122E-2    1.269792800570698E-2   -2.211874162705225E-2    1.272946069907817E-2   -2.217014433382478E-2    9.874833387221915E-1    2.172951153093529E-2
 1.265703350856002E5     9.873895562687645E-1    2.148092411310852E-2    1.267956689811665E-2   -2.197196694418370E-2    1.271922913492816E-2   -2.202503173494488E-2    9.875252585665307E-1    2.158304114236942E-2
 1.275360493574453E5     9.873653532537608E-1    2.133438959555915E-2    1.266675703037328E-2   -2.182238999069072E-2    1.270374651887761E-2   -2.188143607001916E-2    9.875448821784669E-1    2.144586659192521E-2
 1.285091318965405E5     9.874082687973502E-1    2.118416817084872E-2    1.265123964212334E-2   -2.168100640729733E-2    1.269228005630666E-2   -2.173503911452190E-2    9.875430263730741E-1    2.129797212671429E-2
 1.294896389217529E5     9.874081011412027E-1    2.104864997579802E-2    1.264153715403549E-2   -2.153912573103448E-2    1.267750792259868E-2   -2.159553738675659E-2    9.875883717118011E-1    2.116637268011741E-2
 1.304776270808914E5     9.874091084813661E-1    2.089708598567489E-2    1.263153044823523E-2   -2.139611074275283E-2    1.266694842824253E-2   -2.144995041590815E-2    9.875826115685785E-1    2.103421256184050E-2
 1.314731534539810E5     9.874015683943953E-1    2.077348415147204E-2    1.262074663593983E-2   -2.125858960268908E-2    1.265451912955130E-2   -2.130917617030210E-2    9.875751650648475E-1    2.087169970960709E-2
 1.324762755565583E5     9.874401048806226E-1    2.061389757319067E-2    1.260661484377010E-2   -2.112246194029377E-2    1.264184057933318E-2   -2.117375573015134E-2    9.876211275581742E-1    2.073536405387210E-2
 1.334870513429962E5     9.874165457590839E-1    2.049345960522316E-2    1.259128807616068E-2   -2.098236013677492E-2    1.262628524257551E-2   -2.103509989604678E-2    9.876551929231152E-1    2.060789564338545E-2
 1.345055392098512E5     9.874691742918675E-1    2.034853364545883E-2    1.257721202670445E-2   -2.084530368451803E-2    1.261515523830115E-2   -2.090036515146526E-2    9.876416651747576E-1    2.045588540510543E-2
 1.355317979992373E5     9.874908899918707E-1    2.020833834520417E-2    1.256831414759312E-2   -2.070785945727514E-2    1.260486374956305E-2   -2.076146719962662E-2    9.876877176346519E-1    2.034112180614402E-2
 1.365658870022265E5     9.874932500711633E-1    2.008202122099370E-2    1.255614607226091E-2   -2.057402635561304E-2    1.258860969055674E-2   -2.062540618565583E-2    9.876847053961415E-1    2.019546879501384E-2
 1.376078659622731E5     9.875329224044442E-1    1.994035114267470E-2    1.254464571780051E-2   -2.044138889215642E-2    1.257358839396362E-2   -2.049221268404185E-2    9.876816000620958E-1    2.005296724210929E-2
 1.386577950786655E5     9.875482139667061E-1    1.982559525623221E-2    1.253045873972041E-2   -2.030991694319899E-2    1.256405457846134E-2   -2.036198791193938E-2    9.876754362819834E-1    1.992647770242673E-2
 1.397157350100044E5     9.875659280147840E-1    1.967998335405869E-2    1.251471724106009E-2   -2.017864467181059E-2    1.255264296724130E-2   -2.022758815657177E-2    9.877186283105732E-1    1.979616912091406E-2
 1.407817468777081E5     9.875860502890407E-1    1.954981290328938E-2    1.250381533459258E-2   -2.004699663575577E-2    1.253471121108238E-2   -2.009810659241104E-2    9.877264719060085E-1    1.966164990395140E-2
 1.418558922695422E5     9.875835271273363E-1    1.941103158071909E-2    1.248873128809623E-2   -1.991900292802213E-2    1.252460400338044E-2   -1.997048917070604E-2    9.877360813680868E-1    1.952083724547176E-2
 1.429382332431784E5     9.875780480518593E-1    1.929079443688283E-2    1.247870115492901E-2   -1.979066586769343E-2    1.251259403265481E-2   -1.984159490331216E-2    9.877371623171851E-1    1.939257417506272E-2
 1.440288323297804E5     9.875681567177862E-1    1.916478465551633E-2    1.246530942103088E-2   -1.966814802756732E-2    1.250006300439602E-2   -1.971452260102162E-2    9.877664978795319E-1    1.926758461507713E-2
 1.451277525376154E5     9.875736428287445E-1    1.901695502861944E-2    1.244914521299868E-2   -1.954344092535178E-2    1.248687725664315E-2   -1.958951904948801E-2    9.877914756153184E-1    1.914653951718889E-2
 1.462350573556962E5     9.875964260699196E-1    1.889582000185473E-2    1.243562945041476E-2   -1.941514909376403E-2    1.247548906679610E-2   -1.946692286537640E-2    9.878071256357582E-1    1.901644936639737E-2
 1.473508107574468E5     9.876154456550142E-1    1.879025808349818E-2    1.242784292449825E-2   -1.929296172435000E-2    1.246256744177400E-2   -1.933984142950997E-2    9.878114934849360E-1    1.890036886147162E-2
 1.484750772044004E5     9.876351355917634E-1    1.864193023223033E-2    1.241342854828115E-2   -1.917060980776015E-2    1.244877893068867E-2   -1.921494375306801E-2    9.877936017342461E-1    1.876492217741034E-2
 1.496079216499225E5     9.876494281081917E-1    1.853972921063871E-2    1.240070288562995E-2   -1.905310867092125E-2    1.243586517550050E-2   -1.909569064687086E-2    9.878212696079296E-1    1.865226159971087E-2
 1.507494095429637E5     9.876542035116496E-1    1.842116203548065E-2    1.238571658874021E-2   -1.892865128430227E-2    1.242217220149504E-2   -1.897258476482684E-2    9.878263902374862E-1    1.853086923769953E-2
 1.518996068318418E5     9.876848010766126E-1    1.829040613290393E-2    1.237457846687760E-2   -1.881124127768123E-2    1.240931368815186E-2   -1.885424084442965E-2    9.878632670424145E-1    1.839433798400355E-2
 1.530585799680507E5     9.877063815904704E-1    1.816700972683046E-2    1.235779211632215E-2   -1.869277879380545E-2    1.239279785050208E-2   -1.873603040361406E-2    9.878670078838787E-1    1.826516568423216E-2
 1.542263959101001E5     9.877034552069958E-1    1.803456016978810E-2    1.234835606351694E-2   -1.857315290541618E-2    1.238257034038558E-2   -1.861640912652201E-2    9.879022487965982E-1    1.815740063106505E-2
 1.554031221273835E5     9.877089163906494E-1    1.792378217922490E-2    1.233309522057523E-2   -1.845513979870635E-2    1.237018387111206E-2   -1.850012701930299E-2    9.879058424637510E-1    1.803574424381475E-2
 1.565888266040779E5     9.877136507479500E-1    1.781815693419451E-2    1.232487473209914E-2   -1.834002223054950E-2    1.235777222220442E-2   -1.838446440130780E-2    9.879096239329058E-1    1.791063603851480E-2
 1.577835778430689E5     9.877354550520675E-1    1.769269985588096E-2    1.231381092110250E-2   -1.822398599553233E-2    1.234534696085409E-2   -1.827111734401195E-2    9.879252708005106E-1    1.779524426441394E-2
 1.589874448699104E5     9.877353461388249E-1    1.758157753345679E-2    1.229365681020080E-2   -1.811341884480308E-2    1.233025273659792E-2   -1.815238578433830E-2    9.879386069174703E-1    1.766677322499807E-2
 1.602004972368116E5     9.877690711847243E-1    1.746768727185257E-2    1.228184347737966E-2   -1.799796221535662E-2    1.231835963377092E-2   -1.804471695179887E-2    9.879863180838423E-1    1.755513186954259E-2
 1.614228050266550E5     9.877958734027473E-1    1.735880736279907E-2    1.226832322216161E-2   -1.788690519310206E-2    1.230818588237953E-2   -1.793177009396342E-2    9.880024333271118E-1    1.743268148038295E-2
 1.626544388570473E5     9.878113403537151E-1    1.724796279590930E-2    1.225754731571373E-2   -1.777600273473544E-2    1.229083156202773E-2   -1.782051596881851E-2    9.879688198895653E-1    1.732526645892701E-2
 1.638954698843964E5     9.878189386196707E-1    1.712930741948184E-2    1.224298299337240E-2   -1.766668885885256E-2    1.227704922122295E-2   -1.771010298226716E-2    9.879591831587766E-1    1.721150960100438E-2
 1.651459698080244E5     9.878374996705740E-1    1.701963818907409E-2    1.222983184733722E-2   -1.755783102791283E-2    1.226520799270358E-2   -1.760206428026873E-2    9.879673326388532E-1    1.710647617678415E-2
 1.664060108743095E5     9.878342574282056E-1    1.690522979147529E-2    1.221583464488994E-2   -1.744950972790937E-2    1.225506830869772E-2   -1.749229337046045E-2    9.880293996969237E-1    1.698882282359020E-2
 1.676756658808590E5     9.878560640178389E-1    1.678637526337950E-2    1.220742625718999E-2   -1.734251919159847E-2    1.223897147908006E-2   -1.738590900113341E-2    9.880281907731175E-1    1.688115272297468E-2
 1.689550081807175E5     9.878498490766411E-1    1.666884387684320E-2    1.218926896133227E-2   -1.723739587350893E-2    1.222295027713349E-2   -1.728042398163378E-2    9.880369709771033E-1    1.676250228823714E-2
 1.702441116866020E5     9.878442481444663E-1    1.657026768104840E-2    1.217564974165146E-2   -1.713067909097683E-2    1.221036144882494E-2   -1.717207124942175E-2    9.880461994903554E-1    1.666689886923540E-2
 1.715430508751738E5     9.878912488143911E-1    1.645304604348188E-2    1.216399353716579E-2   -1.702644949928264E-2    1.220013193835372E-2   -1.706795005007908E-2    9.880422378221274E-1    1.653624891313555E-2
 1.728519007913403E5     9.879180226388339E-1    1.636711062218129E-2    1.215415598977847E-2   -1.692085587619567E-2    1.218305094513464E-2   -1.696582268449798E-2    9.880699160132000E-1    1.644465154960031E-2
 1.741707370525927E5     9.878978409004259E-1    1.624304766555522E-2    1.213721438657515E-2   -1.682227521166895E-2    1.217224671435596E-2   -1.686286802904890E-2    9.880820202312343E-1    1.635769628603394E-2
 1.754996358533718E5     9.879234139653613E-1    1.614843927815156E-2    1.212558336323593E-2   -1.672323340384834E-2    1.215765951975453E-2   -1.675943112579149E-2    9.880663243210769E-1    1.623584895591751E-2
 1.768386739694722E5     9.879351467988164E-1    1.604328720273958E-2    1.211345916493156E-2   -1.661874585770708E-2    1.214562553090267E-2   -1.665760759433478E-2    9.881312136508493E-1    1.615190719020759E-2
 1.781879287624771E5     9.879548877314187E-1    1.593644896182196E-2    1.209879995296525E-2   -1.651830825757024E-2    1.213398060388824E-2   -1.655904958392421E-2    9.881306003395506E-1    1.603929082745386E-2
 1.795474781842276E5     9.879573739207885E-1    1.583318450881023E-2    1.208253683540398E-2   -1.642094577543642E-2    1.211740504868154E-2   -1.645864060655234E-2    9.881242991769262E-1    1.592788826937073E-2
 1.809174007813277E5     9.879761863475653E-1    1.572750734250513E-2    1.206871162889284E-2   -1.632341151998267E-2    1.210553925660313E-2   -1.636090377870555E-2    9.881130734690740E-1    1.584637720340322E-2
 1.822977756996804E5     9.879670634558050E-1    1.564572929733148E-2    1.205964309846197E-2   -1.622562635675311E-2    1.209168347194080E-2   -1.626284157579079E-2    9.881592211580686E-1    1.575627946442259E-2
 1.836886826890609E5     9.879863328451223E-1    1.555403320345642E-2    1.204236766827014E-2   -1.612407254721367E-2    1.207540797672884E-2   -1.616370174986130E-2    9.881504926678888E-1    1.563307578776895E-2
 1.850902021077247E5     9.880254808749248E-1    1.544812936675539E-2    1.202681273347517E-2   -1.603002610283279E-2    1.206260543122125E-2   -1.606910659745171E-2    9.881505321749452E-1    1.553266065772280E-2
 1.865024149270491E5     9.880532866483850E-1    1.534314916092303E-2    1.201095020772702E-2   -1.593796917933231E-2    1.204572776025520E-2   -1.597299435903563E-2    9.881885776881884E-1    1.544183912095795E-2
 1.879254027362132E5     9.880603655785259E-1    1.523613798433960E-2    1.200192982083871E-2   -1.584227097630707E-2    1.203356427750964E-2   -1.588127739978528E-2    9.882299458990828E-1    1.533351597483366E-2
 1.893592477469092E5     9.880881609674506E-1    1.507390463143248E-2    1.197179411697751E-2   -1.574576848292411E-2    1.203401969242940E-2   -1.576981164177502E-2    9.882575260433211E-1    1.525466585807349E-2
 1.908040327980933E5     9.880494985723902E-1    1.504529168438969E-2    1.197064392803774E-2   -1.565648872714269E-2    1.200389531309716E-2   -1.569452532021150E-2    9.882682581283712E-1    1.515311604520531E-2
 1.922598413607715E5     9.880699446275184E-1    1.494167662828705E-2    1.195968224740961E-2   -1.556339741186900E-2    1.199063650234748E-2   -1.559979802011184E-2    9.882893805260660E-1    1.503635133350896E-2
 1.937267575428232E5     9.880972885295994E-1    1.485671160057431E-2    1.194614936066530E-2   -1.547383660204730E-2    1.197962911179886E-2   -1.550994005908390E-2    9.883263836895781E-1    1.494323800643943E-2
 1.952048660938581E5     9.881095650829373E-1    1.475208184905334E-2    1.192960190047599E-2   -1.538493765604407E-2    1.196366826070259E-2   -1.541776981616634E-2    9.882910357655802E-1    1.484748100142552E-2
 1.966942524101142E5     9.881168563550580E-1    1.466331279320973E-2    1.191897731142133E-2   -1.529302703854603E-2    1.194951154622130E-2   -1.533075309728030E-2    9.883102253291945E-1    1.476058678481425E-2
 1.981950025393913E5     9.880978733628655E-1    1.458795392678697E-2    1.190376185751356E-2   -1.520199785631022E-2    1.193655387109457E-2   -1.523602804085979E-2    9.883017076160466E-1    1.467407804340014E-2
