#  HZ   S   RI   R     50.00 
! Rohde & Schwarz Vector Network Analyzer 
! Rohde-Schwarz,ZNLE6-2Port,1323001256200024,1.71.1.10-23.02.1.238
! Created: UTC 4/7/2025, 6:25:13 AM
! freq[Hz]                re:S11                  im:S11                  re:S21                  im:S21                  re:S12                  im:S12                  re:S22                  im:S22
 1.000000000000000E5     9.881237999070283E-1    2.466740099038632E-2    1.203756618190109E-2   -2.501717289726933E-2    1.207764969656915E-2   -2.507856488139652E-2    9.881744150239427E-1    2.470051771880713E-2
 1.007629862646662E5     9.881434246438107E-1    2.447271474088793E-2    1.202605648058844E-2   -2.484102064371378E-2    1.206494495938411E-2   -2.490281323218862E-2    9.881785216060874E-1    2.453095201147405E-2
 1.015317940097331E5     9.881391047419549E-1    2.430131446662408E-2    1.201540426588323E-2   -2.467360755546868E-2    1.205023851246963E-2   -2.472698028814998E-2    9.881974468226206E-1    2.433716730441551E-2
 1.023064676522963E5     9.881685286894600E-1    2.412028843699066E-2    1.199706331308656E-2   -2.450138214531085E-2    1.203652247459850E-2   -2.455885360149778E-2    9.882185719836025E-1    2.415806145206391E-2
 1.030870519483485E5     9.881433671005841E-1    2.393602544627235E-2    1.198623293311856E-2   -2.433288613117379E-2    1.202859723675401E-2   -2.439090069659361E-2    9.881978112765929E-1    2.398903683860418E-2
 1.038735919953636E5     9.881832766445702E-1    2.376127138598522E-2    1.197107713531631E-2   -2.416475917333905E-2    1.201253222282857E-2   -2.422345418170590E-2    9.882124790748581E-1    2.383515921435825E-2
 1.046661332349037E5     9.881628516673495E-1    2.360065354954853E-2    1.196227358387004E-2   -2.399853614667936E-2    1.199532618293627E-2   -2.406003576409041E-2    9.882328368003592E-1    2.365882178994178E-2
 1.054647214552430E5     9.881626825022425E-1    2.343033679897476E-2    1.194964512985933E-2   -2.383026063927294E-2    1.198346363879295E-2   -2.389117243218356E-2    9.882362824136577E-1    2.350237929381523E-2
 1.062694027940149E5     9.881812228945365E-1    2.327586245206202E-2    1.193600482673989E-2   -2.367093834645141E-2    1.197073134553133E-2   -2.372768972910019E-2    9.882406053801404E-1    2.333860779340760E-2
 1.070802237408760E5     9.882135074137322E-1    2.310102286821570E-2    1.192175499386515E-2   -2.350620177790394E-2    1.195921460873221E-2   -2.356825248416343E-2    9.882965268884687E-1    2.318234034423119E-2
 1.078972311401927E5     9.882271360342072E-1    2.294928034802832E-2    1.191251939223281E-2   -2.334666348923945E-2    1.194666539170699E-2   -2.340751423723305E-2    9.882880719722160E-1    2.300699518826790E-2
 1.087204721937475E5     9.882674833077283E-1    2.278722651772393E-2    1.190143448767200E-2   -2.318809439534748E-2    1.193334162791355E-2   -2.324530058172586E-2    9.883079028805122E-1    2.285839195417062E-2
 1.095499944634658E5     9.882642169432386E-1    2.260518605406187E-2    1.188418281664426E-2   -2.302962520751357E-2    1.192199297076708E-2   -2.308984051978175E-2    9.882539497264350E-1    2.268901622993073E-2
 1.103858458741646E5     9.882502715189899E-1    2.244917325686789E-2    1.187437290574873E-2   -2.286898653760648E-2    1.191013655593663E-2   -2.292934537779958E-2    9.883253531626990E-1    2.252414332749201E-2
 1.112280747163201E5     9.882832902328822E-1    2.227941756501313E-2    1.186068371797038E-2   -2.271682652697949E-2    1.189790865087565E-2   -2.277661213197261E-2    9.883479025848717E-1    2.237408837494438E-2
 1.120767296488583E5     9.882953090161239E-1    2.215142984202845E-2    1.184871273933017E-2   -2.256307854562672E-2    1.188606095383500E-2   -2.261825347606352E-2    9.883337994916462E-1    2.221573272034077E-2
 1.129318597019661E5     9.882748504015494E-1    2.196713620844214E-2    1.183899559533982E-2   -2.240956280848555E-2    1.187671851728204E-2   -2.246534514626081E-2    9.883193423590475E-1    2.205101495885307E-2
 1.137935142799240E5     9.883310123590668E-1    2.182592112646812E-2    1.182556408964021E-2   -2.225943935584131E-2    1.186195896373544E-2   -2.231282936396031E-2    9.883218411806985E-1    2.191279496626463E-2
 1.146617431639607E5     9.882907721872315E-1    2.166194406578154E-2    1.181579258978431E-2   -2.210898176600111E-2    1.185158890354548E-2   -2.216568523064450E-2    9.883275755468086E-1    2.175045443409947E-2
 1.155365965151286E5     9.882947760932821E-1    2.152949323681776E-2    1.180198394966606E-2   -2.195733240235988E-2    1.183492108688169E-2   -2.201284158059106E-2    9.883662541241675E-1    2.160546442228369E-2
 1.164181248772018E5     9.883066483260692E-1    2.136508260388416E-2    1.179209346639815E-2   -2.180881020653963E-2    1.182675922090909E-2   -2.186616342953054E-2    9.883919418635306E-1    2.145652100425503E-2
 1.173063791795965E5     9.883166297536449E-1    2.120843408851069E-2    1.177856682837650E-2   -2.166397421435038E-2    1.181720274073229E-2   -2.172083924854380E-2    9.883860749310256E-1    2.129832251805452E-2
 1.182014107403141E5     9.883296902508317E-1    2.108774501177161E-2    1.176849775292733E-2   -2.151581209752019E-2    1.180206297565776E-2   -2.157321745867243E-2    9.884246854381250E-1    2.116204364038545E-2
 1.191032712689044E5     9.883550445701074E-1    2.091701569113429E-2    1.175393446853409E-2   -2.137520486073655E-2    1.178946856001429E-2   -2.142815010191969E-2    9.884480782661708E-1    2.102457464541406E-2
 1.200120128694542E5     9.883517789644196E-1    2.076247875752724E-2    1.174345903520429E-2   -2.123147987764828E-2    1.177803172849487E-2   -2.128477379120824E-2    9.884586570231849E-1    2.086250463688987E-2
 1.209276880435975E5     9.883570223472250E-1    2.063384770074862E-2    1.173043268154491E-2   -2.109123374297238E-2    1.176759996535291E-2   -2.114150611704809E-2    9.884566943859346E-1    2.073571697896892E-2
 1.218503496935483E5     9.883731366118618E-1    2.049826518458565E-2    1.171942768997616E-2   -2.095188486374704E-2    1.175500007167041E-2   -2.100113518131923E-2    9.884496348517579E-1    2.059220694924028E-2
 1.227800511251578E5     9.884033832071242E-1    2.035251785629358E-2    1.171059424056469E-2   -2.080973831072036E-2    1.174044012142598E-2   -2.086206165861946E-2    9.884713330224850E-1    2.045136131790376E-2
 1.237168460509929E5     9.883839671177670E-1    2.020730063530378E-2    1.169756357236376E-2   -2.067060027528437E-2    1.173018497893333E-2   -2.072216707502763E-2    9.884836413115209E-1    2.032395891906465E-2
 1.246607885934402E5     9.883944412730017E-1    2.006063400303054E-2    1.168772299831544E-2   -2.053469829162977E-2    1.171950895822641E-2   -2.058353533748882E-2    9.884788745038969E-1    2.017757565682888E-2
 1.256119332878327E5     9.884358596524985E-1    1.994014167870877E-2    1.167072834007442E-2   -2.039717897406672E-2    1.170688600578680E-2   -2.044593341373420E-2    9.884932077689093E-1    2.001065134488307E-2
 1.265703350856002E5     9.884369208460975E-1    1.978850244384788E-2    1.166038794087984E-2   -2.026233674709321E-2    1.169622515878430E-2   -2.030984368032571E-2    9.885265197454867E-1    1.987666354544190E-2
 1.275360493574453E5     9.884380985981867E-1    1.965076374389209E-2    1.165205347841896E-2   -2.012523378790372E-2    1.168772338748623E-2   -2.017573823101448E-2    9.885163715878442E-1    1.973531614594603E-2
 1.285091318965405E5     9.884627723696400E-1    1.951224516014246E-2    1.163736441542465E-2   -1.999614465454569E-2    1.167504279023576E-2   -2.004225634638309E-2    9.885312207647609E-1    1.961835064818408E-2
 1.294896389217529E5     9.884342224407217E-1    1.936024986010558E-2    1.162270673436617E-2   -1.986277104786337E-2    1.166012645509342E-2   -1.991361984792666E-2    9.885457338928892E-1    1.947697019640977E-2
 1.304776270808914E5     9.884314756636002E-1    1.922958866276045E-2    1.161257677069296E-2   -1.973176062433685E-2    1.164759586489053E-2   -1.977768276748333E-2    9.885122748284898E-1    1.934979987745698E-2
 1.314731534539810E5     9.884380889135058E-1    1.909870068304261E-2    1.160642162757486E-2   -1.960286824078454E-2    1.163683494071847E-2   -1.965119882865095E-2    9.885232977384965E-1    1.920207989395943E-2
 1.324762755565583E5     9.884751086091524E-1    1.897183222309297E-2    1.159703176386086E-2   -1.947117713053606E-2    1.162763304293569E-2   -1.952315496975903E-2    9.885430386866851E-1    1.910472196152636E-2
 1.334870513429962E5     9.884651271835808E-1    1.884647504518541E-2    1.158263835094966E-2   -1.934872023421772E-2    1.161497458424663E-2   -1.939432344342968E-2    9.885931038190501E-1    1.898043268488693E-2
 1.345055392098512E5     9.885182310485751E-1    1.872125684016293E-2    1.156854860146937E-2   -1.922245705364658E-2    1.160466353592392E-2   -1.926822857450890E-2    9.886012962212203E-1    1.882914591292699E-2
 1.355317979992373E5     9.885405143786697E-1    1.860610555711785E-2    1.155811740989551E-2   -1.909456412497892E-2    1.159382040440175E-2   -1.914046380418608E-2    9.885993088886127E-1    1.871019729019693E-2
 1.365658870022265E5     9.885576569767078E-1    1.847898316771989E-2    1.154744163752070E-2   -1.897083498195215E-2    1.157953524896677E-2   -1.901743002587332E-2    9.885926222509160E-1    1.857179313595078E-2
 1.376078659622731E5     9.885310671917806E-1    1.834601082505379E-2    1.153803613954585E-2   -1.884650409669699E-2    1.156965435819698E-2   -1.889332211028593E-2    9.886289981687925E-1    1.845581759643847E-2
 1.386577950786655E5     9.885202580581741E-1    1.823356598005082E-2    1.152561321794171E-2   -1.872598846176760E-2    1.155830603145819E-2   -1.877044706133734E-2    9.886417942469139E-1    1.832524469271099E-2
 1.397157350100044E5     9.885463773381485E-1    1.810759357854386E-2    1.151442712573259E-2   -1.860384434430684E-2    1.154870231944548E-2   -1.864662252908915E-2    9.886778116707617E-1    1.819492358934353E-2
 1.407817468777081E5     9.886032056493043E-1    1.797967053147316E-2    1.150557200956942E-2   -1.848588872225726E-2    1.153786570806493E-2   -1.852593269087248E-2    9.886838883313539E-1    1.806713589800820E-2
 1.418558922695422E5     9.886040855004621E-1    1.785721178317278E-2    1.149288096525547E-2   -1.836827341848182E-2    1.152457649983370E-2   -1.840642022048204E-2    9.886809116609385E-1    1.796257100557957E-2
 1.429382332431784E5     9.885758560101543E-1    1.773901882875193E-2    1.147606337495747E-2   -1.824666966761886E-2    1.151443601860233E-2   -1.829448871739822E-2    9.886832919332381E-1    1.784821593674481E-2
 1.440288323297804E5     9.885672209582924E-1    1.762929086338794E-2    1.147076231477630E-2   -1.812797668991058E-2    1.149977185774913E-2   -1.817397497716347E-2    9.886908226902712E-1    1.772825686051603E-2
 1.451277525376154E5     9.885734792926660E-1    1.750517488484983E-2    1.145506398218640E-2   -1.801348792364869E-2    1.148965030564853E-2   -1.805571768512414E-2    9.887191121657262E-1    1.761023627194385E-2
 1.462350573556962E5     9.885812546589722E-1    1.738046033448255E-2    1.144658425990346E-2   -1.789743571433381E-2    1.147807251161697E-2   -1.793838264910580E-2    9.887196094744540E-1    1.749433030651448E-2
 1.473508107574468E5     9.885971624519766E-1    1.727145429953557E-2    1.143271065341250E-2   -1.778457627512590E-2    1.146699725204740E-2   -1.782169578334179E-2    9.887499783955017E-1    1.738292556710003E-2
 1.484750772044004E5     9.886168310909810E-1    1.714228459850844E-2    1.142111271114187E-2   -1.766714533226755E-2    1.145177261920466E-2   -1.771030609486506E-2    9.887454544238111E-1    1.726639928379860E-2
 1.496079216499225E5     9.886008948273751E-1    1.702813769094827E-2    1.140811823925651E-2   -1.755704223845253E-2    1.144627953537051E-2   -1.759975038205367E-2    9.887240542464456E-1    1.714145629916794E-2
 1.507494095429637E5     9.886091422713865E-1    1.693094588750682E-2    1.139679066781175E-2   -1.744584768293109E-2    1.143094174196199E-2   -1.748843067820702E-2    9.887548757532707E-1    1.703667970446329E-2
 1.518996068318418E5     9.886583162502556E-1    1.681653060222537E-2    1.138826688707475E-2   -1.733608507462104E-2    1.142037694628683E-2   -1.737593760487193E-2    9.887646875972697E-1    1.692253992425226E-2
 1.530585799680507E5     9.886469160450113E-1    1.669753297870088E-2    1.137131853912211E-2   -1.722679414655323E-2    1.140779542420481E-2   -1.726413592375322E-2    9.888044927143266E-1    1.678743570182011E-2
 1.542263959101001E5     9.886426745477284E-1    1.658251284323797E-2    1.136483499906202E-2   -1.711922690214529E-2    1.139992082771363E-2   -1.715709144591752E-2    9.888070420992253E-1    1.670082631243228E-2
 1.554031221273835E5     9.886955622151355E-1    1.647785347251958E-2    1.135323360741344E-2   -1.700954230743817E-2    1.138284380170796E-2   -1.705213565232335E-2    9.888219085036402E-1    1.659046733192544E-2
 1.565888266040779E5     9.886845758768260E-1    1.637479969690734E-2    1.134228973902840E-2   -1.690332987165244E-2    1.137498397786620E-2   -1.694302650100180E-2    9.888293843054350E-1    1.647971491615752E-2
 1.577835778430689E5     9.887062237551560E-1    1.625630171950208E-2    1.132850973373491E-2   -1.679445968951915E-2    1.135967359305252E-2   -1.683636090709613E-2    9.888468130617869E-1    1.636452732652121E-2
 1.589874448699104E5     9.887169907088528E-1    1.617040004194523E-2    1.131849795746745E-2   -1.668911405411770E-2    1.134912723379957E-2   -1.672972204765729E-2    9.888673008916798E-1    1.623854147997080E-2
 1.602004972368116E5     9.887530303438310E-1    1.605583383805066E-2    1.130201955471649E-2   -1.658928799847294E-2    1.133980924125538E-2   -1.662751582840079E-2    9.888963111088300E-1    1.614232271334733E-2
 1.614228050266550E5     9.887389150662976E-1    1.593603479044132E-2    1.129349270843411E-2   -1.648280463113074E-2    1.132747816331004E-2   -1.652291045129324E-2    9.889012396728278E-1    1.603681442271039E-2
 1.626544388570473E5     9.887756151411834E-1    1.584656521361913E-2    1.128475112002490E-2   -1.638502835890540E-2    1.131018595346618E-2   -1.641894167920390E-2    9.888940298287300E-1    1.593992439271200E-2
 1.638954698843964E5     9.887952422263029E-1    1.573717533646397E-2    1.126963217514090E-2   -1.628345568761411E-2    1.130459339425080E-2   -1.631739808319076E-2    9.888762706658702E-1    1.581660601651768E-2
 1.651459698080244E5     9.887971854443619E-1    1.562767541687324E-2    1.125752549504626E-2   -1.618042390387132E-2    1.129118959073956E-2   -1.621523119031867E-2    9.889289718464123E-1    1.571296977169450E-2
 1.664060108743095E5     9.888265166069762E-1    1.552877985845355E-2    1.124619631659676E-2   -1.608133950320431E-2    1.127740547207135E-2   -1.611615026636940E-2    9.889317406907878E-1    1.561852207041457E-2
 1.676756658808590E5     9.888337755462534E-1    1.542611872802270E-2    1.123405446422385E-2   -1.598121677616102E-2    1.126830513266997E-2   -1.601568787892071E-2    9.889139361118040E-1    1.553037298293606E-2
 1.689550081807175E5     9.888228847293832E-1    1.531550741232096E-2    1.122368293904807E-2   -1.588166194957966E-2    1.125439466162576E-2   -1.591621953913750E-2    9.889702774304816E-1    1.540881624557583E-2
 1.702441116866020E5     9.888397602734313E-1    1.521655309334122E-2    1.121170956205464E-2   -1.578462157501037E-2    1.124135108085156E-2   -1.582268717281192E-2    9.889591899716708E-1    1.532084889581355E-2
 1.715430508751738E5     9.888424999605431E-1    1.512904128079716E-2    1.119837284265088E-2   -1.568841725325222E-2    1.122710303725764E-2   -1.572384128163161E-2    9.889726030470298E-1    1.522493114855471E-2
 1.728519007913403E5     9.888696160781215E-1    1.503451265291811E-2    1.118783035285307E-2   -1.559219001670224E-2    1.121845575661386E-2   -1.562935564827996E-2    9.889976438526134E-1    1.511940808524840E-2
 1.741707370525927E5     9.888687653248771E-1    1.493117185673841E-2    1.117589136070311E-2   -1.549768173506511E-2    1.120753711513853E-2   -1.553397666897145E-2    9.890289208547179E-1    1.503129919709467E-2
 1.754996358533718E5     9.888955030200755E-1    1.483340282626685E-2    1.116310128151934E-2   -1.540106923517448E-2    1.118903642481349E-2   -1.543871387231324E-2    9.889942333279597E-1    1.492661399308135E-2
 1.768386739694722E5     9.888757386689742E-1    1.472990801088467E-2    1.115136171272738E-2   -1.531209230651391E-2    1.118142643581830E-2   -1.534412917446508E-2    9.890459666181149E-1    1.483627013086828E-2
 1.781879287624771E5     9.888693339217633E-1    1.463978550085769E-2    1.113892858464212E-2   -1.521888501784911E-2    1.116833169908266E-2   -1.525381939434263E-2    9.890983127107615E-1    1.474687464603382E-2
 1.795474781842276E5     9.889005501374495E-1    1.453485417896876E-2    1.112567053213344E-2   -1.512265117216158E-2    1.115529366727905E-2   -1.516160128791426E-2    9.890608939237689E-1    1.464643355699715E-2
 1.809174007813277E5     9.888963216486667E-1    1.443612240518421E-2    1.111057776911254E-2   -1.503528572973386E-2    1.114367290105225E-2   -1.506471296048749E-2    9.890624116429179E-1    1.455380961820441E-2
 1.822977756996804E5     9.888914163238935E-1    1.433838669802451E-2    1.110005405285180E-2   -1.494276901710215E-2    1.113128989352334E-2   -1.497669738961770E-2    9.891248364103418E-1    1.447219565668390E-2
 1.836886826890609E5     9.889228378046448E-1    1.426466133613890E-2    1.108785142527369E-2   -1.485378672400059E-2    1.111905394373567E-2   -1.488778666535949E-2    9.890932609254696E-1    1.436523832061089E-2
 1.850902021077247E5     9.889709978450424E-1    1.415560894995930E-2    1.107624930676818E-2   -1.476374283985629E-2    1.110488448676015E-2   -1.479678947824706E-2    9.891086471156738E-1    1.427458464692238E-2
 1.865024149270491E5     9.889694851506297E-1    1.408224437549562E-2    1.106730472709470E-2   -1.467409051861535E-2    1.109602715728795E-2   -1.471287366728812E-2    9.891158028558783E-1    1.419459454690897E-2
 1.879254027362132E5     9.889826143015206E-1    1.399629003132745E-2    1.105218223929428E-2   -1.458821064627406E-2    1.108101758931229E-2   -1.462227383458177E-2    9.891382889546413E-1    1.408317792855072E-2
 1.893592477469092E5     9.890056969377402E-1    1.382751387096272E-2    1.102562488556330E-2   -1.449701912406577E-2    1.106168188163845E-2   -1.452477405471904E-2    9.891801871155387E-1    1.400671319035764E-2
 1.908040327980933E5     9.890329364785365E-1    1.382073872646536E-2    1.102391169577427E-2   -1.441743663746829E-2    1.105639340013422E-2   -1.445133630240983E-2    9.891707321869241E-1    1.391770257491804E-2
 1.922598413607715E5     9.890367336961636E-1    1.372025908275821E-2    1.101169149078185E-2   -1.433140107401730E-2    1.104084638503315E-2   -1.436522220835747E-2    9.891917789288035E-1    1.382023123937275E-2
 1.937267575428232E5     9.890462687027000E-1    1.364141190276863E-2    1.099969354029047E-2   -1.424430577906957E-2    1.103105122016234E-2   -1.428040697649412E-2    9.892404331403426E-1    1.373163830040191E-2
 1.952048660938581E5     9.890551007645282E-1    1.356366497742256E-2    1.098642431431962E-2   -1.416545908882301E-2    1.101966554592971E-2   -1.419765837678349E-2    9.892095956538181E-1    1.363418095327756E-2
 1.966942524101142E5     9.890475333345204E-1    1.346352285651565E-2    1.097317394434150E-2   -1.407987269277161E-2    1.100161227343013E-2   -1.411274326668563E-2    9.892221063561016E-1    1.355603126334851E-2
 1.981950025393913E5     9.890369527864997E-1    1.338522688302416E-2    1.096299303866041E-2   -1.399598727406357E-2    1.099336496333365E-2   -1.403111637281112E-2    9.892320985308209E-1    1.348121967919261E-2
