#  HZ   S   RI   R     50.00 
! Rohde & Schwarz Vector Network Analyzer 
! Rohde-Schwarz,ZNLE6-2Port,1323001256200024,1.71.1.10-23.02.1.238
! Created: UTC 4/7/2025, 6:15:56 AM
! freq[Hz]                re:S11                  im:S11                  re:S21                  im:S21                  re:S12                  im:S12                  re:S22                  im:S22
 1.000000000000000E5     9.890496958786086E-1    2.281273527867216E-2    1.109834547532924E-2   -2.314216420917756E-2    1.113244876408877E-2   -2.320149818841231E-2    9.890963442726775E-1    2.284484585700025E-2
 1.007629862646662E5     9.890748158031600E-1    2.261248753073622E-2    1.108551604166056E-2   -2.298722330688472E-2    1.112105797138471E-2   -2.304392605902961E-2    9.890967798363168E-1    2.267400135027392E-2
 1.015317940097331E5     9.890825382974244E-1    2.246829264215642E-2    1.107902166591923E-2   -2.282882357142851E-2    1.110731143958465E-2   -2.288454332214477E-2    9.891042855097050E-1    2.249581557318649E-2
 1.023064676522963E5     9.890923049256023E-1    2.230212032572157E-2    1.106639513641656E-2   -2.266990735752339E-2    1.109795857120330E-2   -2.272332755800034E-2    9.891234024252177E-1    2.233824115681097E-2
 1.030870519483485E5     9.890728892929497E-1    2.213411374683822E-2    1.105314795513264E-2   -2.250912093950212E-2    1.108389754001468E-2   -2.256620969545319E-2    9.891503457234306E-1    2.218364734210597E-2
 1.038735919953636E5     9.890734666518028E-1    2.196126374680512E-2    1.104357802039876E-2   -2.235760678467266E-2    1.107350966132842E-2   -2.241091470529030E-2    9.891268651057923E-1    2.203559286636121E-2
 1.046661332349037E5     9.890669149348756E-1    2.181601873330011E-2    1.103055602460795E-2   -2.220405693741328E-2    1.106323032971504E-2   -2.225824151912501E-2    9.891148233936902E-1    2.187403106694557E-2
 1.054647214552430E5     9.890498772785770E-1    2.164074916406800E-2    1.101973074129839E-2   -2.204792865105054E-2    1.105163738839519E-2   -2.210652609033987E-2    9.891637049834243E-1    2.172980171228074E-2
 1.062694027940149E5     9.890890471705771E-1    2.148539213394738E-2    1.100976307187788E-2   -2.189988854418528E-2    1.104123487178487E-2   -2.195265372496437E-2    9.891419091846891E-1    2.158314575024435E-2
 1.070802237408760E5     9.891143490901164E-1    2.133587115374798E-2    1.099743292878512E-2   -2.175010051722550E-2    1.103123476376716E-2   -2.180038107157433E-2    9.891887106975910E-1    2.142701102901688E-2
 1.078972311401927E5     9.891089196810674E-1    2.117963855145915E-2    1.098852533536413E-2   -2.159786576431285E-2    1.102019895046074E-2   -2.165405540315621E-2    9.891897130256401E-1    2.126965800021477E-2
 1.087204721937475E5     9.891250138076839E-1    2.103229680734735E-2    1.097549214504696E-2   -2.145566578790493E-2    1.100788709562029E-2   -2.150626218684501E-2    9.892145982377669E-1    2.113832079585801E-2
 1.095499944634658E5     9.891348388057274E-1    2.087003653743405E-2    1.096191608704270E-2   -2.130720749092741E-2    1.099878434321220E-2   -2.136157713898559E-2    9.891949931451667E-1    2.097752146775124E-2
 1.103858458741646E5     9.891583257571998E-1    2.073494188524965E-2    1.095575311192149E-2   -2.116442542021131E-2    1.098742113299596E-2   -2.121213846729974E-2    9.892229044769368E-1    2.083437458943476E-2
 1.112280747163201E5     9.891745657362897E-1    2.057109752578019E-2    1.094415715816045E-2   -2.101718078385142E-2    1.097449977423329E-2   -2.107132665581726E-2    9.892479926597902E-1    2.068191323219092E-2
 1.120767296488583E5     9.891701816089243E-1    2.043663869576251E-2    1.093468097248652E-2   -2.087285634611601E-2    1.096239446619536E-2   -2.092858062551318E-2    9.892555562132773E-1    2.052195118521774E-2
 1.129318597019661E5     9.891495115877348E-1    2.028067322112047E-2    1.091997026575980E-2   -2.072971938929124E-2    1.095460537715671E-2   -2.078702996015930E-2    9.892448448891704E-1    2.036878574430227E-2
 1.137935142799240E5     9.891798431312163E-1    2.013936154811409E-2    1.090928345071153E-2   -2.059444496084306E-2    1.094175662234159E-2   -2.064492953262919E-2    9.892661017308367E-1    2.026380775128308E-2
 1.146617431639607E5     9.892086610102695E-1    1.999128470825097E-2    1.090299704051845E-2   -2.045238651169288E-2    1.093213545887162E-2   -2.050180779568892E-2    9.892554773584694E-1    2.011132967905509E-2
 1.155365965151286E5     9.892166133961332E-1    1.988170786900028E-2    1.088980016395938E-2   -2.031480129617943E-2    1.092352565601683E-2   -2.036345906064292E-2    9.892688980331850E-1    1.997202293022668E-2
 1.164181248772018E5     9.892045791869658E-1    1.972550816417694E-2    1.088134866907462E-2   -2.017533450690414E-2    1.091019006829244E-2   -2.022558986953239E-2    9.892635776380775E-1    1.983887968180257E-2
 1.173063791795965E5     9.892179870104054E-1    1.959155842174300E-2    1.086811887224059E-2   -2.004126771563671E-2    1.090071267125902E-2   -2.008943489228164E-2    9.893054712442495E-1    1.969174117781871E-2
 1.182014107403141E5     9.892216934235446E-1    1.946612433827995E-2    1.085962976802456E-2   -1.990510155003947E-2    1.088711689069178E-2   -1.995503112861079E-2    9.892913322760808E-1    1.955379054406672E-2
 1.191032712689044E5     9.892308271099605E-1    1.930776695897430E-2    1.084868778774775E-2   -1.977414313304228E-2    1.088112920794881E-2   -1.982053633972868E-2    9.893275674117382E-1    1.940852559179986E-2
 1.200120128694542E5     9.892039923686267E-1    1.916990620953595E-2    1.083767977487475E-2   -1.964003488573590E-2    1.086931043706695E-2   -1.968605086705564E-2    9.893196706119030E-1    1.927131431337596E-2
 1.209276880435975E5     9.892487248981979E-1    1.906854650601569E-2    1.082909872836688E-2   -1.950824197577240E-2    1.085985345433346E-2   -1.955165765508406E-2    9.893087921270464E-1    1.914850564142361E-2
 1.218503496935483E5     9.893056858451956E-1    1.891882847238941E-2    1.081684598660017E-2   -1.937891158769927E-2    1.084795699106987E-2   -1.942326248645668E-2    9.893322929907673E-1    1.901446604920113E-2
 1.227800511251578E5     9.892964790157086E-1    1.879298434778695E-2    1.080716901559999E-2   -1.925154550225790E-2    1.083624594535711E-2   -1.929486558594919E-2    9.893325764862877E-1    1.887463679921214E-2
 1.237168460509929E5     9.892969003340566E-1    1.865103140205960E-2    1.079683174466700E-2   -1.911926435545920E-2    1.082659506288181E-2   -1.916673244146215E-2    9.893457887169448E-1    1.876742318802507E-2
 1.246607885934402E5     9.892795800983619E-1    1.851880531532729E-2    1.078342404080103E-2   -1.899346261425044E-2    1.081277860248379E-2   -1.903835785245928E-2    9.893341664680100E-1    1.862229840781746E-2
 1.256119332878327E5     9.893297891162139E-1    1.841198842733858E-2    1.077428260746321E-2   -1.886743174526813E-2    1.080502239276172E-2   -1.890929982483968E-2    9.893787659421019E-1    1.849034093582221E-2
 1.265703350856002E5     9.893185436012844E-1    1.825688582372032E-2    1.076400503218610E-2   -1.874045528175594E-2    1.079518141415651E-2   -1.878484939894300E-2    9.894127116582199E-1    1.837403873724857E-2
 1.275360493574453E5     9.892919510210203E-1    1.812326624710460E-2    1.075240518370347E-2   -1.861877490860383E-2    1.078407928647435E-2   -1.865932316676912E-2    9.893923541341947E-1    1.824803577806212E-2
 1.285091318965405E5     9.893516753233187E-1    1.800651506450340E-2    1.074346724905786E-2   -1.849319820819558E-2    1.077519610254295E-2   -1.853610493374206E-2    9.894084271904295E-1    1.811853159250175E-2
 1.294896389217529E5     9.893121723861888E-1    1.788323712965452E-2    1.073247281869133E-2   -1.837287695675744E-2    1.076377464111561E-2   -1.841536691396455E-2    9.894331608617986E-1    1.799625558021969E-2
 1.304776270808914E5     9.893218430060819E-1    1.774934587915468E-2    1.072505947857607E-2   -1.825291179580937E-2    1.075565390808760E-2   -1.829458866290092E-2    9.894489838381906E-1    1.789145339233326E-2
 1.314731534539810E5     9.893326352530010E-1    1.764158803432759E-2    1.071441114190019E-2   -1.812821512691696E-2    1.074514234931291E-2   -1.817147064888667E-2    9.894544601652479E-1    1.774438362348391E-2
 1.324762755565583E5     9.893387638921693E-1    1.749535276616693E-2    1.070574719430815E-2   -1.801056175781135E-2    1.073709523397796E-2   -1.805534952105886E-2    9.894780377520740E-1    1.764428369294924E-2
 1.334870513429962E5     9.893228881246513E-1    1.739450908701956E-2    1.069484371805507E-2   -1.789184298443866E-2    1.072303609636511E-2   -1.793624136626566E-2    9.894775719151641E-1    1.751229692965855E-2
 1.345055392098512E5     9.893629082629097E-1    1.726830983880126E-2    1.068467452525267E-2   -1.777589826500965E-2    1.071784146830804E-2   -1.781892827859073E-2    9.894950359585815E-1    1.739886544818696E-2
 1.355317979992373E5     9.893743747735629E-1    1.715829363351200E-2    1.067577049409449E-2   -1.766206454474989E-2    1.070047177501249E-2   -1.770308138785631E-2    9.894915966398017E-1    1.729585606556600E-2
 1.365658870022265E5     9.893742053747213E-1    1.704741389512841E-2    1.066383786726403E-2   -1.754504495959212E-2    1.069459174415539E-2   -1.758643574787473E-2    9.894950559848971E-1    1.717649804833800E-2
 1.376078659622731E5     9.893991127549774E-1    1.692070838187008E-2    1.065201769316764E-2   -1.743550028376950E-2    1.068534138511761E-2   -1.747118807952804E-2    9.895106762514014E-1    1.705203175355859E-2
 1.386577950786655E5     9.894037474001821E-1    1.682535600926414E-2    1.064155828796334E-2   -1.731821985148788E-2    1.067181132134357E-2   -1.735793303512180E-2    9.895133157411802E-1    1.694045878913848E-2
 1.397157350100044E5     9.894409860145512E-1    1.669345722762061E-2    1.063411993894054E-2   -1.720555804290354E-2    1.066329936296357E-2   -1.724547320800166E-2    9.895415895412280E-1    1.681382875577846E-2
 1.407817468777081E5     9.894585309351959E-1    1.658273836935818E-2    1.062090651609074E-2   -1.709365033415267E-2    1.065012325087025E-2   -1.713515870540598E-2    9.895838368664511E-1    1.669781060407218E-2
 1.418558922695422E5     9.894714434677895E-1    1.649763806592389E-2    1.060854333334087E-2   -1.698364976984152E-2    1.063879206654252E-2   -1.702424611477540E-2    9.895640055852892E-1    1.657975360084856E-2
 1.429382332431784E5     9.894610064872303E-1    1.637739243173255E-2    1.060152924914473E-2   -1.687274981405198E-2    1.063395367557058E-2   -1.691342451114225E-2    9.895974635065202E-1    1.648035843463633E-2
 1.440288323297804E5     9.894682229577196E-1    1.627373038095089E-2    1.058940509890483E-2   -1.676557856233045E-2    1.062142102243516E-2   -1.680129644046040E-2    9.896016197023536E-1    1.636769021742703E-2
 1.451277525376154E5     9.894646636042488E-1    1.614825041540867E-2    1.058156357567899E-2   -1.665916076081170E-2    1.061002661791117E-2   -1.669871428280218E-2    9.895918184533616E-1    1.625978722462328E-2
 1.462350573556962E5     9.894707615694209E-1    1.603636479914901E-2    1.056981505344949E-2   -1.655240339775111E-2    1.059827724098585E-2   -1.658645279302920E-2    9.896202406957237E-1    1.615567843781565E-2
 1.473508107574468E5     9.894832823247148E-1    1.592996132327384E-2    1.055670891512149E-2   -1.644353935217152E-2    1.058958756760268E-2   -1.648259993524364E-2    9.896278583326384E-1    1.604333955952376E-2
 1.484750772044004E5     9.894867355875767E-1    1.580359888705727E-2    1.054849069134689E-2   -1.633954299433165E-2    1.057821013852204E-2   -1.637636506048115E-2    9.896175686158760E-1    1.593816351675239E-2
 1.496079216499225E5     9.894855314126535E-1    1.571341527244846E-2    1.053873424548467E-2   -1.623558598582256E-2    1.057076105727931E-2   -1.627229335829107E-2    9.896280069899432E-1    1.582582498561773E-2
 1.507494095429637E5     9.894854197886048E-1    1.561464102172999E-2    1.052944641467627E-2   -1.613362681677666E-2    1.056098268195606E-2   -1.617053039734677E-2    9.896171436625439E-1    1.573787771668084E-2
 1.518996068318418E5     9.895293186169029E-1    1.550961378825657E-2    1.051516212008157E-2   -1.602801036702557E-2    1.055072514007098E-2   -1.606804060962751E-2    9.896631636376486E-1    1.562595910289156E-2
 1.530585799680507E5     9.895406219267447E-1    1.540475066513318E-2    1.050717117647063E-2   -1.592876813941776E-2    1.053749227202077E-2   -1.596679720968444E-2    9.896502254136144E-1    1.550204557343275E-2
 1.542263959101001E5     9.895210932244951E-1    1.528032799886452E-2    1.049636039177159E-2   -1.582866273325971E-2    1.053015593827812E-2   -1.586247043997040E-2    9.896776240846856E-1    1.541876627934989E-2
 1.554031221273835E5     9.895387245444168E-1    1.519805556039785E-2    1.048958085072038E-2   -1.572925082268585E-2    1.051635488748909E-2   -1.576426115903388E-2    9.896703315381449E-1    1.530159182009318E-2
 1.565888266040779E5     9.895627687719897E-1    1.510798705297125E-2    1.047481916110765E-2   -1.562800077904993E-2    1.050671356230094E-2   -1.566300438782796E-2    9.896959268071794E-1    1.520264427638028E-2
 1.577835778430689E5     9.895474978576233E-1    1.500336857056902E-2    1.046532612665524E-2   -1.552558208004455E-2    1.049664645892095E-2   -1.556453908100367E-2    9.896890482803576E-1    1.510036366453361E-2
 1.589874448699104E5     9.895312566900168E-1    1.490917029978222E-2    1.045479153001938E-2   -1.543060451811862E-2    1.048608536538273E-2   -1.546797287057496E-2    9.897443230673717E-1    1.498854048260963E-2
 1.602004972368116E5     9.895706426767130E-1    1.480302455924396E-2    1.044418971200266E-2   -1.533729210488858E-2    1.047379040159495E-2   -1.537148700966135E-2    9.897911041064472E-1    1.489737634152303E-2
 1.614228050266550E5     9.895970147317025E-1    1.470201711077725E-2    1.043416193190653E-2   -1.523827755523069E-2    1.046401093498902E-2   -1.527465501357404E-2    9.897715882372498E-1    1.479383157592855E-2
 1.626544388570473E5     9.896311193360146E-1    1.460910798185608E-2    1.042114593518678E-2   -1.514566166558651E-2    1.045387091519333E-2   -1.517759919877446E-2    9.897485936211585E-1    1.468723517939900E-2
 1.638954698843964E5     9.896529272529370E-1    1.451682996496048E-2    1.041186756753892E-2   -1.504786897539924E-2    1.044068718880464E-2   -1.508555236915683E-2    9.897695194712701E-1    1.460906857921188E-2
 1.651459698080244E5     9.896718810321311E-1    1.441205540045033E-2    1.040349252056170E-2   -1.495223463652489E-2    1.043349933412850E-2   -1.498789444593616E-2    9.897890125073896E-1    1.450412907444482E-2
 1.664060108743095E5     9.896464921936844E-1    1.431798699273560E-2    1.039242701537749E-2   -1.485845425081257E-2    1.042360120287673E-2   -1.489782882494367E-2    9.897971228100306E-1    1.441806237914745E-2
 1.676756658808590E5     9.896718180192062E-1    1.422279798906377E-2    1.037830476476156E-2   -1.476876301713978E-2    1.040999035357853E-2   -1.480614054973952E-2    9.898205590030122E-1    1.432139458942980E-2
 1.689550081807175E5     9.896586307489391E-1    1.411787133536680E-2    1.036786504834081E-2   -1.467974030201192E-2    1.039763558710801E-2   -1.471443910081930E-2    9.898148147503867E-1    1.422259181977131E-2
 1.702441116866020E5     9.896952366883272E-1    1.402269831306797E-2    1.036076716515801E-2   -1.458767328725421E-2    1.038846480891529E-2   -1.462199804472264E-2    9.898446830653314E-1    1.415174616448121E-2
 1.715430508751738E5     9.897079638310783E-1    1.392968504356623E-2    1.034826338644555E-2   -1.449782037892063E-2    1.037902120771211E-2   -1.453172668502777E-2    9.898512521469103E-1    1.404150131657772E-2
 1.728519007913403E5     9.897282402364548E-1    1.385795280492794E-2    1.033541305763930E-2   -1.440974062649276E-2    1.036951902762034E-2   -1.444532603810528E-2    9.898772844075049E-1    1.394435880567384E-2
 1.741707370525927E5     9.897238454200490E-1    1.374415663098745E-2    1.032737994577148E-2   -1.432365370804528E-2    1.035359545445172E-2   -1.435489844599467E-2    9.898806141831032E-1    1.385356121346753E-2
 1.754996358533718E5     9.897309989527099E-1    1.366438789863871E-2    1.031318136111867E-2   -1.423617578767548E-2    1.034620237973948E-2   -1.426766423171551E-2    9.898645102818046E-1    1.376362691572509E-2
 1.768386739694722E5     9.897034454027549E-1    1.357204419131719E-2    1.030617066981489E-2   -1.414886452265867E-2    1.033525285630892E-2   -1.418060160178879E-2    9.899175764120343E-1    1.367454861032947E-2
 1.781879287624771E5     9.897276789388033E-1    1.347199868248741E-2    1.029219614967192E-2   -1.406295274556954E-2    1.032069203697537E-2   -1.409645858330724E-2    9.899205200502821E-1    1.358345880969174E-2
 1.795474781842276E5     9.897518387656074E-1    1.339967687629161E-2    1.027911451582455E-2   -1.397703693843112E-2    1.031186813108909E-2   -1.401289664557455E-2    9.898745547537439E-1    1.348969050728900E-2
 1.809174007813277E5     9.897690325996551E-1    1.330668250693657E-2    1.027094403430431E-2   -1.389156108198962E-2    1.029756335326441E-2   -1.392652725024253E-2    9.898851900736315E-1    1.341448111247994E-2
 1.822977756996804E5     9.897613233319030E-1    1.321332508910827E-2    1.025518796870062E-2   -1.381024701216963E-2    1.028638657582128E-2   -1.384268307176625E-2    9.899155687780400E-1    1.333458258997871E-2
 1.836886826890609E5     9.897880466549164E-1    1.314307456211196E-2    1.024515813841417E-2   -1.372428908233545E-2    1.027561322587978E-2   -1.375818792199211E-2    9.899199760369399E-1    1.323442225198938E-2
 1.850902021077247E5     9.898015151793182E-1    1.305004515327989E-2    1.023512042555843E-2   -1.364086320423410E-2    1.026152466932452E-2   -1.367488808722857E-2    9.899285397307463E-1    1.315891803522738E-2
 1.865024149270491E5     9.898257554206039E-1    1.296882292274313E-2    1.022191320078180E-2   -1.355925442722250E-2    1.025267762594098E-2   -1.359065688049868E-2    9.899540867189119E-1    1.308549041828234E-2
 1.879254027362132E5     9.898281048078966E-1    1.289077025218615E-2    1.020897712499253E-2   -1.347843904159512E-2    1.023881225823594E-2   -1.351105719111069E-2    9.899627917819906E-1    1.297797345545998E-2
 1.893592477469092E5     9.898122206366597E-1    1.277191952685925E-2    1.019531405234970E-2   -1.338433985264548E-2    1.023580306026599E-2   -1.341435556402624E-2    9.900016041866031E-1    1.291237596777996E-2
 1.908040327980933E5     9.898491941304962E-1    1.273085659979131E-2    1.018809057108517E-2   -1.331921991764531E-2    1.021691491648390E-2   -1.334741769556352E-2    9.899917656372210E-1    1.282091339634373E-2
 1.922598413607715E5     9.898337244308171E-1    1.263783966791992E-2    1.017562899829676E-2   -1.323978158238994E-2    1.020347861409434E-2   -1.327259447797820E-2    9.900297931648367E-1    1.273001393360091E-2
 1.937267575428232E5     9.898337335986591E-1    1.255172005389862E-2    1.016073570675017E-2   -1.316278693892324E-2    1.019463586151694E-2   -1.319349135936517E-2    9.899858773380003E-1    1.264038154044517E-2
 1.952048660938581E5     9.898985587297365E-1    1.247540972438288E-2    1.015406043022200E-2   -1.308469479777556E-2    1.018139431192492E-2   -1.311360102187078E-2    9.899893274839360E-1    1.255233816448516E-2
 1.966942524101142E5     9.898730154175084E-1    1.238830608550485E-2    1.013874934939695E-2   -1.300608814681413E-2    1.016950376350642E-2   -1.303685428553493E-2    9.900068418653539E-1    1.247846303199463E-2
 1.981950025393913E5     9.898532499351970E-1    1.230780494477237E-2    1.013059377331695E-2   -1.292976154926542E-2    1.015626624617914E-2   -1.296159931055292E-2    9.900610669863775E-1    1.240549151355684E-2
