#  HZ   S   RI   R     50.00 
! Rohde & Schwarz Vector Network Analyzer 
! Rohde-Schwarz,ZNLE6-2Port,1323001256200024,1.71.1.10-23.02.1.238
! Created: UTC 4/7/2025, 6:07:33 AM
! freq[Hz]                re:S11                  im:S11                  re:S21                  im:S21                  re:S12                  im:S12                  re:S22                  im:S22
 1.000000000000000E5     9.899085117632862E-1    2.118265645261776E-2    1.026319731438200E-2   -2.150038532984206E-2    1.029321318505928E-2   -2.155370785585989E-2    9.899852185631215E-1    2.118800809204026E-2
 1.007629862646662E5     9.899156292000580E-1    2.100460999526915E-2    1.025116591625781E-2   -2.135102526386751E-2    1.028476255663019E-2   -2.140772221748729E-2    9.900005927297039E-1    2.103493659567066E-2
 1.015317940097331E5     9.899257081537426E-1    2.086005706058485E-2    1.024306769982812E-2   -2.120105286963172E-2    1.027023256663845E-2   -2.125747571679797E-2    9.900005752334977E-1    2.087334829047173E-2
 1.023064676522963E5     9.899569261118150E-1    2.070414707655232E-2    1.023369963283506E-2   -2.105820770949232E-2    1.026067319116476E-2   -2.110842080095738E-2    9.899957531083741E-1    2.072844760485637E-2
 1.030870519483485E5     9.899440479076704E-1    2.054668056051010E-2    1.022321911733490E-2   -2.091052236622160E-2    1.025127628693682E-2   -2.096384755947541E-2    9.899994556634327E-1    2.057524060142990E-2
 1.038735919953636E5     9.899873638470370E-1    2.039177007765212E-2    1.021105766678293E-2   -2.076897790616722E-2    1.024052432073351E-2   -2.081730952871809E-2    9.900051559561210E-1    2.044592782428068E-2
 1.046661332349037E5     9.899406861800096E-1    2.024512670628023E-2    1.020238834012618E-2   -2.062459344975680E-2    1.022982289786380E-2   -2.067562630613825E-2    9.900066870916550E-1    2.029469765282666E-2
 1.054647214552430E5     9.899139059684536E-1    2.009233162386838E-2    1.019042462031026E-2   -2.048101393973556E-2    1.022415574913992E-2   -2.053100659333819E-2    9.900195193014379E-1    2.014808657956072E-2
 1.062694027940149E5     9.899232170000529E-1    1.994518030353289E-2    1.018167034768323E-2   -2.034033644286839E-2    1.021473818297708E-2   -2.039179125323453E-2    9.900168173440785E-1    1.999880775164480E-2
 1.070802237408760E5     9.899444513282822E-1    1.980495914221974E-2    1.017190609493022E-2   -2.020265026314292E-2    1.020299229449190E-2   -2.025176421961367E-2    9.900068950342160E-1    1.987285556052409E-2
 1.078972311401927E5     9.899699359632826E-1    1.966474626164531E-2    1.016079032772572E-2   -2.005829004113194E-2    1.019231018273909E-2   -2.011123940203148E-2    9.899922643681911E-1    1.972959861272244E-2
 1.087204721937475E5     9.899523109833727E-1    1.953886390345934E-2    1.015389955009524E-2   -1.992702797742998E-2    1.018385623203323E-2   -1.997664961889375E-2    9.900346151679994E-1    1.960077342003854E-2
 1.095499944634658E5     9.899506694724292E-1    1.936855479159737E-2    1.013945892893703E-2   -1.979181090128644E-2    1.017158190827338E-2   -1.983598372850707E-2    9.900099173300227E-1    1.944590676275660E-2
 1.103858458741646E5     9.899747489151748E-1    1.924716959807719E-2    1.013174331995305E-2   -1.965266429949160E-2    1.016389004129041E-2   -1.969788521693028E-2    9.900451807307918E-1    1.931404080974564E-2
 1.112280747163201E5     9.899724734058590E-1    1.910068945174056E-2    1.012000154011129E-2   -1.952392248785036E-2    1.015394387253259E-2   -1.956449190178100E-2    9.900897210731028E-1    1.917479726844107E-2
 1.120767296488583E5     9.899683408123925E-1    1.897603989175567E-2    1.011336767834546E-2   -1.938858721532999E-2    1.014358900815538E-2   -1.943724291212907E-2    9.900924910047050E-1    1.903282715125579E-2
 1.129318597019661E5     9.899751701460188E-1    1.883078408600556E-2    1.010454146937904E-2   -1.925437250699144E-2    1.013431879549063E-2   -1.930039571345860E-2    9.900605930161227E-1    1.888737377456594E-2
 1.137935142799240E5     9.900150189945013E-1    1.869228830562380E-2    1.009004607332978E-2   -1.912574554665388E-2    1.012285396646769E-2   -1.917684590693106E-2    9.900889362484135E-1    1.878844096659111E-2
 1.146617431639607E5     9.900282537916820E-1    1.856111312839745E-2    1.008447799900380E-2   -1.899472282945563E-2    1.011287304990853E-2   -1.904465255193706E-2    9.900783751489057E-1    1.866242211053541E-2
 1.155365965151286E5     9.900358853064211E-1    1.843288707725393E-2    1.007443800471576E-2   -1.887159415635148E-2    1.010832747957137E-2   -1.891509855562251E-2    9.901216592200849E-1    1.852192633449871E-2
 1.164181248772018E5     9.900158193316171E-1    1.830373511853873E-2    1.006660468841944E-2   -1.873780263217677E-2    1.009237252244431E-2   -1.878608528727967E-2    9.900967228999896E-1    1.838758379949815E-2
 1.173063791795965E5     9.900280143827235E-1    1.817676627752718E-2    1.005825676875782E-2   -1.861087009632042E-2    1.008623192732202E-2   -1.865875332539772E-2    9.901377077816994E-1    1.826271609638255E-2
 1.182014107403141E5     9.900546976165997E-1    1.803975254717792E-2    1.004522694769735E-2   -1.849186010277166E-2    1.007662908026042E-2   -1.853223024883167E-2    9.901463148240927E-1    1.813982297789684E-2
 1.191032712689044E5     9.900693455242151E-1    1.789806272735033E-2    1.003963303144074E-2   -1.836557511219856E-2    1.006582136577938E-2   -1.840773617716743E-2    9.902153547336583E-1    1.801209974570893E-2
 1.200120128694542E5     9.900279564549210E-1    1.778902961448129E-2    1.003173134967870E-2   -1.823980135354529E-2    1.006108435637467E-2   -1.828530673936454E-2    9.902150617719451E-1    1.788538227190675E-2
 1.209276880435975E5     9.900110558848743E-1    1.765700041944804E-2    1.001915568181590E-2   -1.811674959905096E-2    1.004782961403734E-2   -1.815986492147691E-2    9.901908444688683E-1    1.776500045135111E-2
 1.218503496935483E5     9.900560989737385E-1    1.754655237218759E-2    1.001449928768285E-2   -1.799656406946092E-2    1.004082811269986E-2   -1.804114274348690E-2    9.902188969103888E-1    1.764787176652323E-2
 1.227800511251578E5     9.900727274598922E-1    1.742867089102942E-2    1.000268947171268E-2   -1.787790533093805E-2    1.002920951705928E-2   -1.791831747438034E-2    9.901975219580664E-1    1.750980504847591E-2
 1.237168460509929E5     9.900581253877496E-1    1.729949358242991E-2    9.990089836121518E-3   -1.776023434473337E-2    1.002283253216223E-2   -1.779883333042875E-2    9.902483107835831E-1    1.739894775657455E-2
 1.246607885934402E5     9.900498524658591E-1    1.716538634383048E-2    9.983138035692112E-3   -1.763753988799569E-2    1.001177068678063E-2   -1.768120436279624E-2    9.902377973120552E-1    1.727536016500131E-2
 1.256119332878327E5     9.901019063584796E-1    1.706056299080350E-2    9.974867519543875E-3   -1.751965120001252E-2    1.000210422308527E-2   -1.756130007969890E-2    9.902360513496266E-1    1.715067464309402E-2
 1.265703350856002E5     9.901094196595589E-1    1.692125584072918E-2    9.963524314723551E-3   -1.740437285907181E-2    9.994596849668117E-3   -1.744604527756713E-2    9.902536900212012E-1    1.702950647520275E-2
 1.275360493574453E5     9.901078659758520E-1    1.679107213881646E-2    9.951066503103767E-3   -1.729126513320295E-2    9.985125473378200E-3   -1.733095565313896E-2    9.902589526875870E-1    1.692250015532983E-2
 1.285091318965405E5     9.901006511726625E-1    1.668801750623786E-2    9.947421939586958E-3   -1.717448881400508E-2    9.976645383693980E-3   -1.721227681035049E-2    9.902530055881367E-1    1.679617289518020E-2
 1.294896389217529E5     9.900937238371605E-1    1.656541922344887E-2    9.938392685831139E-3   -1.705919886124234E-2    9.964527097858869E-3   -1.710286748831503E-2    9.902943605718116E-1    1.670298997117833E-2
 1.304776270808914E5     9.901272652190559E-1    1.645271231315028E-2    9.927132709709541E-3   -1.694577939292451E-2    9.958614646554675E-3   -1.698792295166427E-2    9.902888755683724E-1    1.659618493161749E-2
 1.314731534539810E5     9.901214514487414E-1    1.633684237182453E-2    9.915738422451938E-3   -1.683356173744041E-2    9.952921307675345E-3   -1.687447376682123E-2    9.902921875495923E-1    1.647544447598955E-2
 1.324762755565583E5     9.901473241026717E-1    1.621180102064650E-2    9.909583956963917E-3   -1.672539683943536E-2    9.937620023797538E-3   -1.676372856529367E-2    9.903197782809372E-1    1.637677345089727E-2
 1.334870513429962E5     9.901232965415095E-1    1.611866185568367E-2    9.902092024316170E-3   -1.661497145119700E-2    9.928576718784823E-3   -1.665220001535898E-2    9.903451653254329E-1    1.626480690332462E-2
 1.345055392098512E5     9.901503562086843E-1    1.600462716527075E-2    9.892197277327734E-3   -1.650383434756253E-2    9.918900148462808E-3   -1.654501249223924E-2    9.903258795680141E-1    1.612884285756846E-2
 1.355317979992373E5     9.901576969838456E-1    1.589774515669940E-2    9.881696896411406E-3   -1.639814749471790E-2    9.910317598334698E-3   -1.643453392615707E-2    9.903058146527062E-1    1.604725661258443E-2
 1.365658870022265E5     9.901462638722587E-1    1.579805956671846E-2    9.870084247201595E-3   -1.628991847694356E-2    9.899570743390053E-3   -1.632685602627897E-2    9.903122564524666E-1    1.591470793324489E-2
 1.376078659622731E5     9.901719517124482E-1    1.567601837296878E-2    9.861197231955901E-3   -1.618470102533172E-2    9.891932758786769E-3   -1.622405686796681E-2    9.903434722286701E-1    1.581069058752764E-2
 1.386577950786655E5     9.901686920199013E-1    1.557731743323788E-2    9.853481262221112E-3   -1.607965769253084E-2    9.880409400129884E-3   -1.611340822973095E-2    9.903105058568950E-1    1.569090721038448E-2
 1.397157350100044E5     9.901965747776118E-1    1.546964952680665E-2    9.846161870613275E-3   -1.597191400629588E-2    9.877751445973266E-3   -1.600920741818354E-2    9.903761907038180E-1    1.557368278870928E-2
 1.407817468777081E5     9.902434489766357E-1    1.535585759923758E-2    9.834793931812582E-3   -1.587105474228647E-2    9.863176097866954E-3   -1.590649075009012E-2    9.903624277498606E-1    1.546924994181035E-2
 1.418558922695422E5     9.902568109912498E-1    1.525789070958395E-2    9.829272573781685E-3   -1.576487853254197E-2    9.854462212058096E-3   -1.580128816111980E-2    9.903806115825453E-1    1.536917721858063E-2
 1.429382332431784E5     9.902553830947718E-1    1.516039306842695E-2    9.818062746696912E-3   -1.566084783889231E-2    9.845189675361535E-3   -1.570273565142912E-2    9.903849806812753E-1    1.526961652730579E-2
 1.440288323297804E5     9.902526999483219E-1    1.506578377226300E-2    9.809764582592589E-3   -1.556386968866951E-2    9.836102738461456E-3   -1.559951595060472E-2    9.904347309819009E-1    1.517757431238302E-2
 1.451277525376154E5     9.902296157884880E-1    1.494251995274614E-2    9.796875668067509E-3   -1.546153957778932E-2    9.825080398660849E-3   -1.550161391351007E-2    9.904613336498839E-1    1.507703800770095E-2
 1.462350573556962E5     9.902594761897224E-1    1.485521704458682E-2    9.788469178684539E-3   -1.536351798999788E-2    9.819363353894430E-3   -1.539765008177502E-2    9.904286791486830E-1    1.498003056192983E-2
 1.473508107574468E5     9.902740041566516E-1    1.475713229447846E-2    9.780111206316168E-3   -1.526401217201262E-2    9.808350155887593E-3   -1.530017966284128E-2    9.904280607096887E-1    1.486786008956432E-2
 1.484750772044004E5     9.902843940327787E-1    1.464488316193355E-2    9.767536439216653E-3   -1.516834587220276E-2    9.799203494229360E-3   -1.519866233321105E-2    9.904143409354021E-1    1.477125492152507E-2
 1.496079216499225E5     9.902952590538016E-1    1.455148954529530E-2    9.761919752009832E-3   -1.506607675378297E-2    9.789607229158869E-3   -1.510294148684503E-2    9.904218539828658E-1    1.466938657009017E-2
 1.507494095429637E5     9.903150015181036E-1    1.445980442581558E-2    9.751415143684468E-3   -1.497297843236651E-2    9.778648509782478E-3   -1.500597156267493E-2    9.904422748346452E-1    1.457270077803631E-2
 1.518996068318418E5     9.903656545038227E-1    1.436355442777163E-2    9.743405488890930E-3   -1.487607182759883E-2    9.770330004546484E-3   -1.491186504597615E-2    9.904643300927672E-1    1.446992716584099E-2
 1.530585799680507E5     9.903458998227528E-1    1.426534712190339E-2    9.729176223235556E-3   -1.478321946958633E-2    9.761239545909387E-3   -1.481606087897531E-2    9.904816975804590E-1    1.435640591437655E-2
 1.542263959101001E5     9.903156983713894E-1    1.415912563022188E-2    9.721171464823125E-3   -1.468832021798915E-2    9.751893478126905E-3   -1.472489521709992E-2    9.904987155332003E-1    1.429050138754910E-2
 1.554031221273835E5     9.903504470570197E-1    1.406657235464789E-2    9.715327368396719E-3   -1.459418125012125E-2    9.742531732299560E-3   -1.462842329662602E-2    9.904884259520237E-1    1.417574234390148E-2
 1.565888266040779E5     9.903676914384013E-1    1.398311756690764E-2    9.703687297013295E-3   -1.450454883173002E-2    9.729826604461729E-3   -1.453756754814968E-2    9.905034520573649E-1    1.408055242158848E-2
 1.577835778430689E5     9.903693498399295E-1    1.388372207810794E-2    9.696404086903632E-3   -1.441048381357960E-2    9.722317333182313E-3   -1.444573345712488E-2    9.905258297270813E-1    1.397691371255221E-2
 1.589874448699104E5     9.903718932345537E-1    1.379830366049030E-2    9.685578437198264E-3   -1.432042889340212E-2    9.713231339660976E-3   -1.435411857899621E-2    9.905683275145927E-1    1.388879077963973E-2
 1.602004972368116E5     9.904175739494060E-1    1.370524775055723E-2    9.675474438666372E-3   -1.422907963714407E-2    9.707568002762870E-3   -1.426091619991249E-2    9.906020417909026E-1    1.379068462511576E-2
 1.614228050266550E5     9.904110128024962E-1    1.361330650018945E-2    9.667384553542239E-3   -1.413990813764368E-2    9.692625939812049E-3   -1.417573546438788E-2    9.906008168021293E-1    1.369345501881196E-2
 1.626544388570473E5     9.904044275408087E-1    1.351760408387710E-2    9.654699053218927E-3   -1.405123575684472E-2    9.679598372987640E-3   -1.408605959015996E-2    9.905859823577280E-1    1.359691599824618E-2
 1.638954698843964E5     9.904240268867462E-1    1.341683728574797E-2    9.646536050931527E-3   -1.396187355240806E-2    9.678142740276457E-3   -1.399656302073759E-2    9.906125044967287E-1    1.351810607869090E-2
 1.651459698080244E5     9.903941961260969E-1    1.333065515413874E-2    9.635219366929862E-3   -1.387492495548029E-2    9.662407786141124E-3   -1.391147270036498E-2    9.906250732674899E-1    1.344461761223481E-2
 1.664060108743095E5     9.904608359136711E-1    1.324138466615685E-2    9.623968240402406E-3   -1.378922542934007E-2    9.658366783929768E-3   -1.382436834214052E-2    9.906181424201180E-1    1.334353460618677E-2
 1.676756658808590E5     9.904668990740093E-1    1.315591843350203E-2    9.617424964334820E-3   -1.371000216947207E-2    9.643662657545229E-3   -1.373661038722954E-2    9.906545690087603E-1    1.326728358682947E-2
 1.689550081807175E5     9.904364522907878E-1    1.305347436449464E-2    9.604787703368119E-3   -1.361993616881749E-2    9.637923427813682E-3   -1.365370750183545E-2    9.906756139403238E-1    1.317150201426109E-2
 1.702441116866020E5     9.904410691258753E-1    1.296435933223387E-2    9.599409705583326E-3   -1.353652111871116E-2    9.626049005021542E-3   -1.356970524539977E-2    9.906745271706774E-1    1.309328047652709E-2
 1.715430508751738E5     9.904583489490413E-1    1.288075334407476E-2    9.590252945813473E-3   -1.345111165805990E-2    9.613326300765447E-3   -1.348243579171032E-2    9.906693586705705E-1    1.299654580887961E-2
 1.728519007913403E5     9.904817491784585E-1    1.280433950744517E-2    9.576874082920687E-3   -1.337196488669815E-2    9.605231787417678E-3   -1.339881672274450E-2    9.906857352006667E-1    1.290426756823946E-2
 1.741707370525927E5     9.904855155355883E-1    1.270748351108511E-2    9.566728798425359E-3   -1.328802954850402E-2    9.595799144582548E-3   -1.331884383406392E-2    9.907144080267903E-1    1.283381588835725E-2
 1.754996358533718E5     9.905001802639313E-1    1.262549215217946E-2    9.557523864422972E-3   -1.320832001788027E-2    9.585206643720777E-3   -1.323552984300715E-2    9.906778581963840E-1    1.273727671067199E-2
 1.768386739694722E5     9.904869190736286E-1    1.253790547356177E-2    9.545005768961031E-3   -1.312552748871077E-2    9.571825828679577E-3   -1.315282382087575E-2    9.907303228920039E-1    1.265844569522876E-2
 1.781879287624771E5     9.904792058447045E-1    1.245148744877728E-2    9.536666917483914E-3   -1.304220644898811E-2    9.566011308433294E-3   -1.307283262268836E-2    9.907556415071449E-1    1.257462939129608E-2
 1.795474781842276E5     9.904720380243260E-1    1.239428048248534E-2    9.528207639214822E-3   -1.296411407239172E-2    9.552329796174496E-3   -1.299502314652991E-2    9.907264112647778E-1    1.249413901798652E-2
 1.809174007813277E5     9.905099890081345E-1    1.229207674875233E-2    9.519897664683927E-3   -1.288731046446646E-2    9.541675040997170E-3   -1.291651385823772E-2    9.907304034358734E-1    1.242106143527584E-2
 1.822977756996804E5     9.905066368077874E-1    1.221081256060844E-2    9.508342602625688E-3   -1.280967064051429E-2    9.532114673072589E-3   -1.283459804508964E-2    9.907503657135918E-1    1.234625281285291E-2
 1.836886826890609E5     9.905174791474007E-1    1.214280707896580E-2    9.493360301126472E-3   -1.272843153627604E-2    9.519751808132894E-3   -1.275974174357355E-2    9.907360105357232E-1    1.225075531961639E-2
 1.850902021077247E5     9.905257717999905E-1    1.206466039998573E-2    9.487865823248339E-3   -1.265276943448079E-2    9.510185092279496E-3   -1.268532573079339E-2    9.907429436941874E-1    1.217183696836415E-2
 1.865024149270491E5     9.905362363495483E-1    1.197967947295527E-2    9.472860889214297E-3   -1.258009914748205E-2    9.500296842843285E-3   -1.260562405259492E-2    9.907957124407694E-1    1.209846498151686E-2
 1.879254027362132E5     9.905522602863189E-1    1.190150885546743E-2    9.461121253851193E-3   -1.249972775376720E-2    9.487237733583396E-3   -1.253021185480910E-2    9.907988647484441E-1    1.199973905026776E-2
 1.893592477469092E5     9.905918286722840E-1    1.178176340243243E-2    9.457037721935655E-3   -1.244568444506739E-2    9.483548677110463E-3   -1.246660639478151E-2    9.908528849977535E-1    1.191912045763808E-2
 1.908040327980933E5     9.906009027603369E-1    1.174735906124074E-2    9.443534517370079E-3   -1.235134344445273E-2    9.464927450546130E-3   -1.238170772976643E-2    9.908301660080301E-1    1.186185316093140E-2
 1.922598413607715E5     9.906137714902812E-1    1.165638002191720E-2    9.428275840974503E-3   -1.227815741057328E-2    9.455995875739576E-3   -1.230307188971454E-2    9.908547657770785E-1    1.176647287673601E-2
 1.937267575428232E5     9.906150488672059E-1    1.159020979205615E-2    9.423108428967722E-3   -1.220423916511330E-2    9.446959419535491E-3   -1.223313381908336E-2    9.908380804931646E-1    1.169375140959489E-2
 1.952048660938581E5     9.906116171905655E-1    1.152192650450409E-2    9.410555448020417E-3   -1.213366821235780E-2    9.435614539969000E-3   -1.215938218857547E-2    9.908181449240617E-1    1.160566309646513E-2
 1.966942524101142E5     9.906208117101856E-1    1.141862850650559E-2    9.398130156562014E-3   -1.206211059581831E-2    9.422382722467069E-3   -1.208880596343529E-2    9.908214062997376E-1    1.152723669138670E-2
 1.981950025393913E5     9.906185086424687E-1    1.138451766291011E-2    9.387517005972618E-3   -1.198667513918574E-2    9.412997083321630E-3   -1.201460850577034E-2    9.908632069670791E-1    1.147850553178190E-2
