#  HZ   S   RI   R     50.00 
! Rohde & Schwarz Vector Network Analyzer 
! Rohde-Schwarz,ZNLE6-2Port,1323001256200024,1.71.1.10-23.02.1.238
! Created: UTC 4/7/2025, 5:58:38 AM
! freq[Hz]                re:S11                  im:S11                  re:S21                  im:S21                  re:S12                  im:S12                  re:S22                  im:S22
 1.000000000000000E5     9.906355754029962E-1    1.972008492917239E-2    9.514919839791896E-3   -2.001352165967866E-2    9.544391766744370E-3   -2.006250841304810E-2    9.906551865466667E-1    1.969405881142708E-2
 1.007629862646662E5     9.906804044618314E-1    1.954485758156664E-2    9.510555750238346E-3   -1.987286829549666E-2    9.538734822727324E-3   -1.992600645008032E-2    9.906649400503202E-1    1.956702114967529E-2
 1.015317940097331E5     9.906797317253515E-1    1.940285470240183E-2    9.498385539962703E-3   -1.974048358959233E-2    9.526119887108716E-3   -1.978705732658334E-2    9.906573326322675E-1    1.939638240360828E-2
 1.023064676522963E5     9.906903550503861E-1    1.925808959290840E-2    9.492316064483421E-3   -1.960303186033061E-2    9.515688615265886E-3   -1.964932302191128E-2    9.906715119585843E-1    1.927303787038511E-2
 1.030870519483485E5     9.906758915518576E-1    1.911827369825466E-2    9.483614717098774E-3   -1.946852586976320E-2    9.507262877546521E-3   -1.951070909346455E-2    9.906580339859333E-1    1.912346380452924E-2
 1.038735919953636E5     9.906869186650579E-1    1.897032338541332E-2    9.474496086357226E-3   -1.933181731820349E-2    9.500868157075728E-3   -1.937436021403218E-2    9.906658460416309E-1    1.900576992502747E-2
 1.046661332349037E5     9.906779392450614E-1    1.882409902173023E-2    9.460572366749999E-3   -1.919997999162611E-2    9.489271139288245E-3   -1.924333403995192E-2    9.906910514491650E-1    1.886478039905323E-2
 1.054647214552430E5     9.906570836983193E-1    1.868711203965484E-2    9.455292933975337E-3   -1.906440608129750E-2    9.481049110386120E-3   -1.911235128398382E-2    9.907393191091300E-1    1.873773736880461E-2
 1.062694027940149E5     9.906650661123042E-1    1.855371414337299E-2    9.444646043191847E-3   -1.893229229244370E-2    9.476056219309357E-3   -1.897959607273784E-2    9.907043252193660E-1    1.859745487611526E-2
 1.070802237408760E5     9.906807714982077E-1    1.842023510435454E-2    9.433747420459299E-3   -1.880531793820230E-2    9.466917440069632E-3   -1.885069151451994E-2    9.907274142264577E-1    1.846823493193163E-2
 1.078972311401927E5     9.906819249053563E-1    1.828857509654077E-2    9.428783594096844E-3   -1.867422146430601E-2    9.457834716494614E-3   -1.871714343905177E-2    9.906948250746878E-1    1.832290516727747E-2
 1.087204721937475E5     9.906954268020226E-1    1.814157227225106E-2    9.418725894166037E-3   -1.854737653288153E-2    9.447369407957771E-3   -1.858931017977333E-2    9.907321539885175E-1    1.820838548405606E-2
 1.095499944634658E5     9.907194879854073E-1    1.801157574882597E-2    9.408368796591564E-3   -1.841982712830416E-2    9.436723807629239E-3   -1.846075630137592E-2    9.906952630642883E-1    1.807964259654138E-2
 1.103858458741646E5     9.907335545059952E-1    1.789931172591770E-2    9.401379849061295E-3   -1.829252891918446E-2    9.430321962526824E-3   -1.833558008268774E-2    9.907309446981617E-1    1.794363358152961E-2
 1.112280747163201E5     9.907267289912013E-1    1.776437413793157E-2    9.392134085251396E-3   -1.816862825515441E-2    9.424386911590270E-3   -1.821108406579860E-2    9.907433921267578E-1    1.781768537829046E-2
 1.120767296488583E5     9.907559979947923E-1    1.764077069615929E-2    9.383569153598968E-3   -1.804102499503283E-2    9.412786442016478E-3   -1.808721894282476E-2    9.907533061435986E-1    1.768469313454419E-2
 1.129318597019661E5     9.907521275302665E-1    1.750946633025766E-2    9.374238523910451E-3   -1.792401433737018E-2    9.405603877410221E-3   -1.796140036755842E-2    9.907351280468061E-1    1.755488422988604E-2
 1.137935142799240E5     9.907652685502647E-1    1.739101666680404E-2    9.367185080462363E-3   -1.780193608054859E-2    9.396078246986104E-3   -1.783656570178335E-2    9.907529110406823E-1    1.745182246556018E-2
 1.146617431639607E5     9.907801192053207E-1    1.726231404999938E-2    9.358562678149477E-3   -1.767955325092958E-2    9.387457881921161E-3   -1.771799904597031E-2    9.907483172970648E-1    1.732301986480814E-2
 1.155365965151286E5     9.907639043592099E-1    1.714161763140471E-2    9.352989357772944E-3   -1.755562319491919E-2    9.380393280348252E-3   -1.759776000490490E-2    9.907630418778964E-1    1.719853686616490E-2
 1.164181248772018E5     9.907734840495036E-1    1.702185537771653E-2    9.343023178117988E-3   -1.744127377814312E-2    9.372724101258017E-3   -1.747777479673979E-2    9.907497397696042E-1    1.707055063060430E-2
 1.173063791795965E5     9.907853621409831E-1    1.689711200208231E-2    9.335809194200212E-3   -1.732237360452007E-2    9.361581836963706E-3   -1.736232943376124E-2    9.907900986557666E-1    1.695366407688952E-2
 1.182014107403141E5     9.907813161680125E-1    1.678729444557942E-2    9.326846672725599E-3   -1.720497341482313E-2    9.353408915543402E-3   -1.724454541948020E-2    9.908272648179172E-1    1.684452715455953E-2
 1.191032712689044E5     9.907781493355228E-1    1.663715848453795E-2    9.320172054276083E-3   -1.708961603615429E-2    9.345276472653784E-3   -1.712559278384450E-2    9.908528402838412E-1    1.671692477865909E-2
 1.200120128694542E5     9.907916850183641E-1    1.653527711451184E-2    9.307355715279303E-3   -1.697361774363808E-2    9.337496546959652E-3   -1.701105026760596E-2    9.908531620647554E-1    1.660805118695853E-2
 1.209276880435975E5     9.907847781911595E-1    1.642925168593013E-2    9.300572103403806E-3   -1.685757086702551E-2    9.329294419400957E-3   -1.689625695931486E-2    9.908328313983745E-1    1.649025322138266E-2
 1.218503496935483E5     9.908236510378731E-1    1.631667184380750E-2    9.292236705921563E-3   -1.674559317798101E-2    9.319813430502984E-3   -1.678316819733408E-2    9.908442079442351E-1    1.636840203172269E-2
 1.227800511251578E5     9.908040009477092E-1    1.619307747301249E-2    9.284236569918855E-3   -1.663285056968089E-2    9.312175665503660E-3   -1.667455783160080E-2    9.908319022802603E-1    1.624890703723674E-2
 1.237168460509929E5     9.908109755272789E-1    1.608741981555344E-2    9.277622345574813E-3   -1.652245576457283E-2    9.304334164661775E-3   -1.655727544310423E-2    9.908766562524918E-1    1.616033871889164E-2
 1.246607885934402E5     9.907989372793663E-1    1.598106145804368E-2    9.264813801205005E-3   -1.641455351608841E-2    9.294003750164837E-3   -1.644905040644149E-2    9.908836007571511E-1    1.603339547510265E-2
 1.256119332878327E5     9.908521387505311E-1    1.586420911123847E-2    9.259498396485403E-3   -1.630516014107321E-2    9.285266876257780E-3   -1.633730574221374E-2    9.908688054604138E-1    1.591496104784773E-2
 1.265703350856002E5     9.908498250143911E-1    1.573625672582407E-2    9.249209098419971E-3   -1.619463744136872E-2    9.280739685584438E-3   -1.622758673797812E-2    9.909186835870814E-1    1.581821595584738E-2
 1.275360493574453E5     9.908497014893329E-1    1.561206571983506E-2    9.244089415048643E-3   -1.608514083507910E-2    9.269342643791702E-3   -1.612008448554346E-2    9.909128235599458E-1    1.570660401759488E-2
 1.285091318965405E5     9.908580933136769E-1    1.550996115801199E-2    9.232871578359531E-3   -1.597654699923017E-2    9.264063358543408E-3   -1.601432955600963E-2    9.909128131928521E-1    1.559543036670210E-2
 1.294896389217529E5     9.908318503385712E-1    1.541347477773064E-2    9.225133030841973E-3   -1.586967473731946E-2    9.253457593427175E-3   -1.590693719300755E-2    9.909393651883284E-1    1.550327302146630E-2
 1.304776270808914E5     9.908453904414424E-1    1.529241668151442E-2    9.221213511186932E-3   -1.576429694577379E-2    9.246405391429234E-3   -1.580395261414246E-2    9.909526314216802E-1    1.539080895144449E-2
 1.314731534539810E5     9.908343450660023E-1    1.518683445361006E-2    9.208805191956609E-3   -1.566252307175561E-2    9.238268769679857E-3   -1.569528123191093E-2    9.909356242511943E-1    1.526968079155332E-2
 1.324762755565583E5     9.908517852604951E-1    1.506576597472154E-2    9.201218278742918E-3   -1.556018115466314E-2    9.228504010064484E-3   -1.559310172813493E-2    9.909589713743160E-1    1.518753430178802E-2
 1.334870513429962E5     9.908737740504170E-1    1.498568380347491E-2    9.193113542291491E-3   -1.545640843426843E-2    9.219798548342813E-3   -1.549124884644910E-2    9.909955387052214E-1    1.508617261533025E-2
 1.345055392098512E5     9.908808854760760E-1    1.487494650346823E-2    9.184133304241809E-3   -1.535199084030538E-2    9.209453524345376E-3   -1.538919388805411E-2    9.910081327787912E-1    1.497477199334322E-2
 1.355317979992373E5     9.908966263086484E-1    1.478402197504876E-2    9.179188743154135E-3   -1.525518584772746E-2    9.203622291694177E-3   -1.528700538055996E-2    9.910031456208197E-1    1.488427363658471E-2
 1.365658870022265E5     9.908902627724858E-1    1.467175149173089E-2    9.168810074920758E-3   -1.515356191301120E-2    9.192677565609682E-3   -1.518694534016757E-2    9.909779239320543E-1    1.476810370535259E-2
 1.376078659622731E5     9.909314616868276E-1    1.457227467724211E-2    9.161426900253443E-3   -1.505589186751165E-2    9.184709573577985E-3   -1.509028221180995E-2    9.909887299773760E-1    1.467079633628141E-2
 1.386577950786655E5     9.909012316463124E-1    1.447932451974297E-2    9.155232024175140E-3   -1.495504739411039E-2    9.179185100681718E-3   -1.499121396570355E-2    9.909724778427352E-1    1.456968902999999E-2
 1.397157350100044E5     9.909313567419399E-1    1.437278784683560E-2    9.141174829038071E-3   -1.485867131730625E-2    9.169843942816079E-3   -1.488949250454153E-2    9.910281024626867E-1    1.445054386271281E-2
 1.407817468777081E5     9.909800328064021E-1    1.428961272682837E-2    9.134902289718473E-3   -1.475817562636426E-2    9.159805326508062E-3   -1.479118463326237E-2    9.910398641679951E-1    1.436123056468571E-2
 1.418558922695422E5     9.909507849941437E-1    1.418230236580507E-2    9.127759563378589E-3   -1.466169326550348E-2    9.151885038113233E-3   -1.469617749509244E-2    9.910621119512018E-1    1.425503162913623E-2
 1.429382332431784E5     9.909504964320838E-1    1.408762702115175E-2    9.118422221626102E-3   -1.456952694755760E-2    9.147138296675350E-3   -1.460309774427359E-2    9.910726907789355E-1    1.416253832860636E-2
 1.440288323297804E5     9.909489500400094E-1    1.400500745130245E-2    9.107551346994598E-3   -1.447387729520937E-2    9.135915589248535E-3   -1.450951817260450E-2    9.910601991531942E-1    1.405724330480805E-2
 1.451277525376154E5     9.909428575735615E-1    1.387196731728899E-2    9.100151887260221E-3   -1.438150777545559E-2    9.126203575855030E-3   -1.441366994277949E-2    9.910992660654876E-1    1.398998443444586E-2
 1.462350573556962E5     9.909541890105812E-1    1.378706330177610E-2    9.092043887239165E-3   -1.429061800522990E-2    9.118548637307976E-3   -1.432130440548873E-2    9.910868873829594E-1    1.388435214391530E-2
 1.473508107574468E5     9.909859746586949E-1    1.370881995710576E-2    9.083166502991749E-3   -1.419417550696725E-2    9.112597572879575E-3   -1.422757734964624E-2    9.911037340672985E-1    1.379665330262109E-2
 1.484750772044004E5     9.909898354911962E-1    1.359099228619908E-2    9.074368400768976E-3   -1.410729028557271E-2    9.101688557668885E-3   -1.413765342112158E-2    9.910973481311678E-1    1.370447757877826E-2
 1.496079216499225E5     9.909956433309919E-1    1.351427927644522E-2    9.065950879541766E-3   -1.401286673329883E-2    9.094343785152080E-3   -1.404654026163962E-2    9.910885425905097E-1    1.360730579936178E-2
 1.507494095429637E5     9.910173154770819E-1    1.342624182804312E-2    9.059235569972859E-3   -1.392241781125264E-2    9.084831831739049E-3   -1.395365296396751E-2    9.911036807947260E-1    1.350830627386936E-2
 1.518996068318418E5     9.910156725843553E-1    1.333621922671361E-2    9.052523165216216E-3   -1.383461078839916E-2    9.077733305016909E-3   -1.386626316995103E-2    9.911208570070140E-1    1.343138471349154E-2
 1.530585799680507E5     9.910045821880035E-1    1.324263266127953E-2    9.042673927250193E-3   -1.374249395504656E-2    9.068426514166096E-3   -1.377661468022186E-2    9.911206856560197E-1    1.331563825023325E-2
 1.542263959101001E5     9.910288150187206E-1    1.313413757958638E-2    9.031883729230110E-3   -1.365928714474993E-2    9.058191986294123E-3   -1.369050234039827E-2    9.911292292605633E-1    1.324797102124710E-2
 1.554031221273835E5     9.910379149730010E-1    1.305522435311731E-2    9.022018337247193E-3   -1.356879073931347E-2    9.048338627350267E-3   -1.360236580426465E-2    9.911200314280002E-1    1.314271949925381E-2
 1.565888266040779E5     9.910646934611989E-1    1.297991431452098E-2    9.014725446729566E-3   -1.348433596562132E-2    9.038528125121429E-3   -1.351528767883864E-2    9.911391837731538E-1    1.305133583282568E-2
 1.577835778430689E5     9.910775130754004E-1    1.288013625784356E-2    9.006775779499265E-3   -1.340073479021431E-2    9.031627500890108E-3   -1.342976541034016E-2    9.911331497195150E-1    1.296196869427093E-2
 1.589874448699104E5     9.910638246080952E-1    1.280447932129667E-2    8.996894038458068E-3   -1.331501365745221E-2    9.022177960857490E-3   -1.334533945371075E-2    9.911323038788695E-1    1.286566148417826E-2
 1.602004972368116E5     9.911083931891395E-1    1.272315940739959E-2    8.988949715933121E-3   -1.322848429850760E-2    9.012727109083343E-3   -1.326041679973133E-2    9.911996263952628E-1    1.277370466575731E-2
 1.614228050266550E5     9.911082021745981E-1    1.261705748763500E-2    8.978855166277168E-3   -1.314585103836290E-2    9.002654370795964E-3   -1.317525125122552E-2    9.911994597679201E-1    1.269347488849387E-2
 1.626544388570473E5     9.911242028662044E-1    1.254081939602373E-2    8.972430767737353E-3   -1.306733327717023E-2    8.997015093003097E-3   -1.309430746301682E-2    9.911677406761319E-1    1.261616180453483E-2
 1.638954698843964E5     9.911524817001350E-1    1.247051985457676E-2    8.961620800798197E-3   -1.298407575005536E-2    8.988161439978637E-3   -1.301044485681898E-2    9.911810529641678E-1    1.252868463659607E-2
 1.651459698080244E5     9.911324843149685E-1    1.237768848497909E-2    8.957658753663901E-3   -1.290215156823882E-2    8.976298513801485E-3   -1.293428115784217E-2    9.911906610725043E-1    1.244035128484140E-2
 1.664060108743095E5     9.911562728072072E-1    1.229686214327999E-2    8.942029954454806E-3   -1.282060139675590E-2    8.966003231200828E-3   -1.284885273100848E-2    9.912191662299350E-1    1.235541247552569E-2
 1.676756658808590E5     9.911713880921574E-1    1.220726318026745E-2    8.938430021794985E-3   -1.273921123754376E-2    8.961910675022720E-3   -1.276836591618886E-2    9.912178888523618E-1    1.227229216414338E-2
 1.689550081807175E5     9.911404505424861E-1    1.211526832189446E-2    8.927953114683610E-3   -1.266123305709055E-2    8.951724422879488E-3   -1.269199567656251E-2    9.912296864961702E-1    1.219632386896644E-2
 1.702441116866020E5     9.911297158380122E-1    1.202436388821404E-2    8.916728945603265E-3   -1.258125034866107E-2    8.941424694167057E-3   -1.261207844341905E-2    9.912360177183088E-1    1.211603162840835E-2
 1.715430508751738E5     9.911841096152747E-1    1.195303104713536E-2    8.908567011424191E-3   -1.250534975216195E-2    8.930203161587543E-3   -1.253327166387460E-2    9.912353413109057E-1    1.203805364538138E-2
 1.728519007913403E5     9.911940387082583E-1    1.188526353016866E-2    8.900185882983046E-3   -1.242780230019032E-2    8.919693985573683E-3   -1.245611997501064E-2    9.912560041102944E-1    1.196589306007370E-2
 1.741707370525927E5     9.912001707503936E-1    1.180604416920014E-2    8.888619768288164E-3   -1.235050482008279E-2    8.911636649344376E-3   -1.237775250193660E-2    9.912471464370612E-1    1.187773776674395E-2
 1.754996358533718E5     9.912042289980635E-1    1.171871234086891E-2    8.879817397425121E-3   -1.227541620240928E-2    8.904791118504401E-3   -1.230221600918127E-2    9.912500977075778E-1    1.178201956448332E-2
 1.768386739694722E5     9.912049838055718E-1    1.164124880816076E-2    8.868045518737114E-3   -1.219694553625900E-2    8.893444098072429E-3   -1.222664850196249E-2    9.913284702066378E-1    1.173917596537854E-2
 1.781879287624771E5     9.911952598331484E-1    1.155430052500488E-2    8.864812082051447E-3   -1.212245229166261E-2    8.885877903921983E-3   -1.215372166216747E-2    9.913235149125169E-1    1.165212344635392E-2
 1.795474781842276E5     9.912045972303301E-1    1.148501416872203E-2    8.854308970239635E-3   -1.205032192579522E-2    8.876085821468510E-3   -1.207822710925171E-2    9.913162383763934E-1    1.157006385551011E-2
 1.809174007813277E5     9.912358088960295E-1    1.140073925800073E-2    8.843355743234086E-3   -1.197445585790354E-2    8.866076814952835E-3   -1.200377035430370E-2    9.913122933362531E-1    1.149710711322378E-2
 1.822977756996804E5     9.912173651513938E-1    1.132276180807494E-2    8.834795691051030E-3   -1.190261034425853E-2    8.858378156827084E-3   -1.193199251389089E-2    9.913572076331498E-1    1.142185743911295E-2
 1.836886826890609E5     9.912374649378015E-1    1.126190309688905E-2    8.823977156280464E-3   -1.183280563227204E-2    8.849025086524258E-3   -1.185812062068939E-2    9.913436025497605E-1    1.133973514757439E-2
 1.850902021077247E5     9.912730967307715E-1    1.118904056605619E-2    8.814256655078165E-3   -1.175937173867894E-2    8.837833280546095E-3   -1.178594958388916E-2    9.913643389550580E-1    1.127235331571983E-2
 1.865024149270491E5     9.912621252934486E-1    1.110523954529142E-2    8.805205998720101E-3   -1.168464829502969E-2    8.825561677953314E-3   -1.171376300709379E-2    9.913838131801069E-1    1.120707187826475E-2
 1.879254027362132E5     9.912902495245992E-1    1.104135489139030E-2    8.793609556272756E-3   -1.162006381503233E-2    8.817678051361657E-3   -1.164395683703463E-2    9.914160082876877E-1    1.111964336317524E-2
 1.893592477469092E5     9.913036129592764E-1    1.096351532198056E-2    8.797148138146799E-3   -1.153140049470054E-2    8.811991897847340E-3   -1.158549557276110E-2    9.914201937933165E-1    1.103232603803893E-2
 1.908040327980933E5     9.913283607851729E-1    1.090822548345329E-2    8.775928845050797E-3   -1.147816364750618E-2    8.798813143675241E-3   -1.150438802561207E-2    9.914088426515527E-1    1.097690086619452E-2
 1.922598413607715E5     9.913354773860362E-1    1.081897856325016E-2    8.765340929007598E-3   -1.140718203539249E-2    8.788140105977399E-3   -1.143831998312830E-2    9.914356020429449E-1    1.088716412175426E-2
 1.937267575428232E5     9.913348769115016E-1    1.075006857165956E-2    8.757556794301380E-3   -1.133883840433566E-2    8.778751177384334E-3   -1.136719995682818E-2    9.914468449950677E-1    1.082951025997055E-2
 1.952048660938581E5     9.913627860421705E-1    1.067671268236744E-2    8.746539881711896E-3   -1.127407742091333E-2    8.770304297334136E-3   -1.129768426061166E-2    9.914370930073694E-1    1.074032695157531E-2
 1.966942524101142E5     9.913779722985765E-1    1.061171580919878E-2    8.737184017089726E-3   -1.120595530269507E-2    8.760228380380495E-3   -1.123167666227301E-2    9.914505863711912E-1    1.067684198036887E-2
 1.981950025393913E5     9.913474266250467E-1    1.054886674230462E-2    8.724743021989686E-3   -1.113935366287685E-2    8.748087208533708E-3   -1.116481117447948E-2    9.914546041531528E-1    1.061183143631368E-2
