#  HZ   S   RI   R     50.00 
! Rohde & Schwarz Vector Network Analyzer 
! Rohde-Schwarz,ZNLE6-2Port,1323001256200024,1.71.1.10-23.02.1.238
! Created: UTC 4/7/2025, 5:48:44 AM
! freq[Hz]                re:S11                  im:S11                  re:S21                  im:S21                  re:S12                  im:S12                  re:S22                  im:S22
 1.000000000000000E5     9.912869056030651E-1    1.835816822780292E-2    8.855244872718040E-3   -1.866036907124854E-2    8.883185046549799E-3   -1.870371787515233E-2    9.913316710813921E-1    1.835825661782407E-2
 1.007629862646662E5     9.912805585204161E-1    1.818316960694064E-2    8.846724537412693E-3   -1.852966207909590E-2    8.872645833479444E-3   -1.857068251895906E-2    9.913465217630206E-1    1.821816198447551E-2
 1.015317940097331E5     9.912786097067909E-1    1.805423666639712E-2    8.840884127286803E-3   -1.840277814237588E-2    8.868547885629813E-3   -1.844156476716737E-2    9.913176163850526E-1    1.807251396458893E-2
 1.023064676522963E5     9.912787690201563E-1    1.792650206843870E-2    8.831821598332875E-3   -1.827307378047346E-2    8.858507684622364E-3   -1.831594380719167E-2    9.913142179858627E-1    1.794368017822857E-2
 1.030870519483485E5     9.912958566070436E-1    1.778878523610073E-2    8.823581071063373E-3   -1.814764501426318E-2    8.850839504657865E-3   -1.818872053111307E-2    9.913333267358728E-1    1.782167935909906E-2
 1.038735919953636E5     9.913166887011600E-1    1.764113985494493E-2    8.818034533767742E-3   -1.802117542385588E-2    8.841657523698492E-3   -1.806246254963977E-2    9.913166011613768E-1    1.769781587318626E-2
 1.046661332349037E5     9.912980417723598E-1    1.752084035020136E-2    8.807430255627859E-3   -1.789840752291494E-2    8.832112160929320E-3   -1.793857691416615E-2    9.913107459215484E-1    1.756408737573268E-2
 1.054647214552430E5     9.913244085493912E-1    1.738921764083629E-2    8.803380340350504E-3   -1.777353428716086E-2    8.823988674677083E-3   -1.781262888682946E-2    9.913539476736171E-1    1.743252054510297E-2
 1.062694027940149E5     9.913126898433826E-1    1.725992660451844E-2    8.792062719586937E-3   -1.764961528533992E-2    8.818312752467146E-3   -1.769022749552720E-2    9.913808575663108E-1    1.731928073572600E-2
 1.070802237408760E5     9.913395744668561E-1    1.712803368405429E-2    8.784632104820047E-3   -1.752559015133177E-2    8.809134617047732E-3   -1.756533097037111E-2    9.913687430500256E-1    1.719453729225695E-2
 1.078972311401927E5     9.913387735551947E-1    1.700964560423072E-2    8.780311422006812E-3   -1.740651973225470E-2    8.801865360173265E-3   -1.744960029045250E-2    9.913889866302434E-1    1.706202168185948E-2
 1.087204721937475E5     9.913349846881808E-1    1.688332795644088E-2    8.766336557818126E-3   -1.729055215055030E-2    8.794557147128370E-3   -1.732676256492221E-2    9.913701234993806E-1    1.696133070405430E-2
 1.095499944634658E5     9.913366990453116E-1    1.674740110746785E-2    8.760912093457064E-3   -1.717340755013912E-2    8.789040687536009E-3   -1.720652453889332E-2    9.913621672378540E-1    1.681741396666332E-2
 1.103858458741646E5     9.913563893766782E-1    1.664138783736540E-2    8.750818957778603E-3   -1.704858897244255E-2    8.778960260089652E-3   -1.708853580977237E-2    9.913921567559154E-1    1.670531981402125E-2
 1.112280747163201E5     9.913610931462570E-1    1.652337545129108E-2    8.745619208206611E-3   -1.693495253448245E-2    8.770847306642040E-3   -1.697312558993804E-2    9.913759208152251E-1    1.657740861110945E-2
 1.120767296488583E5     9.913686893687060E-1    1.640624211923660E-2    8.738589785191778E-3   -1.681938707329911E-2    8.764287575122641E-3   -1.685594739732059E-2    9.913826765930933E-1    1.646732743523456E-2
 1.129318597019661E5     9.913556520762190E-1    1.628134593311844E-2    8.728802092947253E-3   -1.670591657101053E-2    8.755579945442940E-3   -1.674128384349217E-2    9.913577792115230E-1    1.632149547644938E-2
 1.137935142799240E5     9.913714419206547E-1    1.616464148368974E-2    8.722011551571181E-3   -1.659352215776253E-2    8.746507776135891E-3   -1.662759778804732E-2    9.914058373136164E-1    1.624518200924600E-2
 1.146617431639607E5     9.913769543319100E-1    1.604803089591113E-2    8.714840730904054E-3   -1.647185341118531E-2    8.740027862436628E-3   -1.651219008429261E-2    9.914227559307752E-1    1.611992834856836E-2
 1.155365965151286E5     9.913968111827666E-1    1.594898564712519E-2    8.708186388823959E-3   -1.636616916334604E-2    8.733223897620882E-3   -1.640184294211864E-2    9.914540059659536E-1    1.600880398441793E-2
 1.164181248772018E5     9.913612006248458E-1    1.582347940097414E-2    8.700155976271976E-3   -1.625398844791016E-2    8.726339274372639E-3   -1.629042293468796E-2    9.914392924215824E-1    1.588933739001257E-2
 1.173063791795965E5     9.914077362598616E-1    1.572308017471781E-2    8.691661017457499E-3   -1.614475871592091E-2    8.718748636551980E-3   -1.618187225669473E-2    9.914676237197462E-1    1.578034186186941E-2
 1.182014107403141E5     9.914007218529690E-1    1.561620445819569E-2    8.684104025866382E-3   -1.603578366041474E-2    8.709691638461331E-3   -1.607095603131803E-2    9.914465603494239E-1    1.567184011153255E-2
 1.191032712689044E5     9.914068722054639E-1    1.548394944641973E-2    8.677995196745973E-3   -1.592397922829818E-2    8.704936158933913E-3   -1.596304397297467E-2    9.915073108845891E-1    1.556056047499028E-2
 1.200120128694542E5     9.913899478455324E-1    1.537079449291199E-2    8.671223258393302E-3   -1.581988071111082E-2    8.697459512280585E-3   -1.585117987291969E-2    9.914896426841231E-1    1.544449560551629E-2
 1.209276880435975E5     9.914131477662282E-1    1.528193637651793E-2    8.662309826046828E-3   -1.571256290195852E-2    8.687980773958081E-3   -1.574795846390038E-2    9.914733192393966E-1    1.534352217189989E-2
 1.218503496935483E5     9.914357386766306E-1    1.518027503194699E-2    8.654364688054490E-3   -1.560580548624633E-2    8.680480755503575E-3   -1.564113916501005E-2    9.914492360058996E-1    1.524674212886036E-2
 1.227800511251578E5     9.914247686499181E-1    1.507055732350632E-2    8.647446117833558E-3   -1.550053761121202E-2    8.674131645944359E-3   -1.553680795084692E-2    9.914616818784956E-1    1.512257495849583E-2
 1.237168460509929E5     9.914637121681048E-1    1.494563311765258E-2    8.638928250319467E-3   -1.539428166458367E-2    8.662615037484262E-3   -1.543181117188947E-2    9.914812704031739E-1    1.502665652736695E-2
 1.246607885934402E5     9.914248720843097E-1    1.484626861345504E-2    8.637150532474007E-3   -1.529019099189563E-2    8.656899832137167E-3   -1.532769430915598E-2    9.914690987338471E-1    1.492753439959235E-2
 1.256119332878327E5     9.914516997932743E-1    1.474874635869091E-2    8.625410588172745E-3   -1.519013629429756E-2    8.647357621441022E-3   -1.522355084624333E-2    9.914866036024437E-1    1.480986433562976E-2
 1.265703350856002E5     9.914521640311110E-1    1.462150912195657E-2    8.616070290306119E-3   -1.508822863833824E-2    8.640299328538957E-3   -1.512372581864137E-2    9.915267369627399E-1    1.471112446272233E-2
 1.275360493574453E5     9.914770609030834E-1    1.452548946146191E-2    8.607420377620675E-3   -1.498576150796749E-2    8.633188659287463E-3   -1.502278386008929E-2    9.915157480369001E-1    1.460497089946354E-2
 1.285091318965405E5     9.915106226677193E-1    1.442567725017851E-2    8.599153864159347E-3   -1.488417430750836E-2    8.628564734326494E-3   -1.492255013235474E-2    9.915213147443501E-1    1.451790143348731E-2
 1.294896389217529E5     9.914697212099008E-1    1.432119199999156E-2    8.596055033571798E-3   -1.478444813512076E-2    8.616542909410677E-3   -1.482239095634979E-2    9.915653275499438E-1    1.439570248669000E-2
 1.304776270808914E5     9.914521575938394E-1    1.421620548734276E-2    8.584338617713216E-3   -1.469101519734573E-2    8.612035515274176E-3   -1.472540443593733E-2    9.915552370285307E-1    1.431211461252969E-2
 1.314731534539810E5     9.914825210461744E-1    1.411333539441793E-2    8.579153863624766E-3   -1.458990561323807E-2    8.606004862940268E-3   -1.462265626065040E-2    9.915545619095532E-1    1.420732875844417E-2
 1.324762755565583E5     9.914902694958913E-1    1.400674486910663E-2    8.574334262517691E-3   -1.449420368901168E-2    8.595747520617307E-3   -1.452751658109166E-2    9.915402746448873E-1    1.412026913935220E-2
 1.334870513429962E5     9.915005244793631E-1    1.391963662563422E-2    8.565699251294894E-3   -1.439650093914335E-2    8.587710209900094E-3   -1.443140644217993E-2    9.915620061274062E-1    1.402883729013440E-2
 1.345055392098512E5     9.914856294067531E-1    1.382517574041235E-2    8.553760360072193E-3   -1.430519405294172E-2    8.581603261322596E-3   -1.433691369890547E-2    9.915740992627564E-1    1.392278994134706E-2
 1.355317979992373E5     9.915081177092049E-1    1.374842640611379E-2    8.550548393693099E-3   -1.420985675469920E-2    8.571359436636655E-3   -1.424293964136773E-2    9.915654700188565E-1    1.384229366695924E-2
 1.365658870022265E5     9.915080924395920E-1    1.363085112166326E-2    8.545629032548168E-3   -1.411525548712399E-2    8.565231373063063E-3   -1.414767801486861E-2    9.915812151683809E-1    1.372408565523463E-2
 1.376078659622731E5     9.915690023326489E-1    1.353214856370226E-2    8.535507004202334E-3   -1.402364348850294E-2    8.558690550239750E-3   -1.405449480689911E-2    9.915869609230387E-1    1.363486136600070E-2
 1.386577950786655E5     9.915556614140654E-1    1.346972483940567E-2    8.529940944488494E-3   -1.392979389426884E-2    8.550287508142755E-3   -1.396303023411814E-2    9.915804322344777E-1    1.353584823986379E-2
 1.397157350100044E5     9.915407225065457E-1    1.335554893563847E-2    8.521194050345253E-3   -1.383962518223429E-2    8.542166790435216E-3   -1.386991727250910E-2    9.916458126234150E-1    1.345383770321860E-2
 1.407817468777081E5     9.915695697858344E-1    1.326809095420552E-2    8.513544494397170E-3   -1.375152461218690E-2    8.534326266084210E-3   -1.377923993042626E-2    9.916258853084552E-1    1.335321309894847E-2
 1.418558922695422E5     9.915401102900246E-1    1.316809873016938E-2    8.501128234423857E-3   -1.365638234579354E-2    8.527910448053070E-3   -1.368815200202049E-2    9.916386404838484E-1    1.324573728771579E-2
 1.429382332431784E5     9.915678838526389E-1    1.307485995271700E-2    8.496985176328525E-3   -1.356882067873370E-2    8.518402263621350E-3   -1.360291607022524E-2    9.916401472491259E-1    1.316739874004017E-2
 1.440288323297804E5     9.915386728599289E-1    1.300116109954652E-2    8.487694122335810E-3   -1.348211479978240E-2    8.512050843113897E-3   -1.351392000227076E-2    9.916723207638914E-1    1.308396401620964E-2
 1.451277525376154E5     9.915370641692650E-1    1.289950203058822E-2    8.481934513290570E-3   -1.339369930210172E-2    8.502423149136662E-3   -1.342582410157053E-2    9.917088412686365E-1    1.299988833353322E-2
 1.462350573556962E5     9.915699600857739E-1    1.281361756908887E-2    8.473082808627873E-3   -1.331018927122578E-2    8.493151595893502E-3   -1.333876215890469E-2    9.916886846484181E-1    1.290279580690416E-2
 1.473508107574468E5     9.915879192955229E-1    1.273685795643789E-2    8.467398319354488E-3   -1.322359688481414E-2    8.489157433040843E-3   -1.325364514168911E-2    9.917029630278239E-1    1.281699968820204E-2
 1.484750772044004E5     9.915791984906138E-1    1.262865075791026E-2    8.457946225708815E-3   -1.313538182656641E-2    8.479717942704640E-3   -1.316124493387266E-2    9.916773486207505E-1    1.272958184281324E-2
 1.496079216499225E5     9.915843740620981E-1    1.254034473592344E-2    8.453057072763434E-3   -1.305315685325813E-2    8.469842031225088E-3   -1.308690507197051E-2    9.916975166433627E-1    1.264863842608034E-2
 1.507494095429637E5     9.915785788183435E-1    1.247510570856517E-2    8.442176142584135E-3   -1.296643040046320E-2    8.462054758340248E-3   -1.299797381614040E-2    9.916854886945308E-1    1.256950293877035E-2
 1.518996068318418E5     9.916259812495779E-1    1.238646994312020E-2    8.437054710597329E-3   -1.288458090518515E-2    8.453110462743616E-3   -1.291122619621597E-2    9.917297738368164E-1    1.247485057318409E-2
 1.530585799680507E5     9.916118924477277E-1    1.229598916994531E-2    8.426620538175607E-3   -1.279984108977658E-2    8.448359278485047E-3   -1.282915586285084E-2    9.917282130818054E-1    1.237841510850077E-2
 1.542263959101001E5     9.916008483260397E-1    1.220032557884084E-2    8.419980059324440E-3   -1.271811725793513E-2    8.439666973376760E-3   -1.274631718663142E-2    9.917398155963736E-1    1.231047628680711E-2
 1.554031221273835E5     9.916188558261747E-1    1.212572435695230E-2    8.407860898323618E-3   -1.263911863167255E-2    8.432271363415001E-3   -1.266787381142278E-2    9.917773507204054E-1    1.222002126363778E-2
 1.565888266040779E5     9.916480240138831E-1    1.204808908482656E-2    8.403221083049904E-3   -1.255963114957800E-2    8.425544274479790E-3   -1.258739290803382E-2    9.917852041952681E-1    1.212961683545412E-2
 1.577835778430689E5     9.916237513273708E-1    1.195783643588708E-2    8.394122009783530E-3   -1.247930570045704E-2    8.416732316135373E-3   -1.250566354306437E-2    9.917688912322394E-1    1.205276162647889E-2
 1.589874448699104E5     9.916349914098304E-1    1.186949689961510E-2    8.386107236524290E-3   -1.240018143712320E-2    8.408235882754512E-3   -1.242313011770955E-2    9.917841673401752E-1    1.196058091897632E-2
 1.602004972368116E5     9.916845447753488E-1    1.180060690127596E-2    8.376725731404659E-3   -1.231811995729644E-2    8.399163092733451E-3   -1.234988808078083E-2    9.918093785744257E-1    1.186618979791263E-2
 1.614228050266550E5     9.917024405630047E-1    1.172650855283237E-2    8.373560212457453E-3   -1.224338127912840E-2    8.390884238319168E-3   -1.227133884354363E-2    9.918328203130206E-1    1.178246418955417E-2
 1.626544388570473E5     9.916719497321473E-1    1.163736445224167E-2    8.360562813890953E-3   -1.216464825089379E-2    8.384763812187751E-3   -1.219464319293440E-2    9.918206029473954E-1    1.170710964909562E-2
 1.638954698843964E5     9.916997661858583E-1    1.155996236566930E-2    8.351983918718961E-3   -1.208786385032790E-2    8.379232577160460E-3   -1.211723495034138E-2    9.918222803189279E-1    1.163139283738097E-2
 1.651459698080244E5     9.917039454856662E-1    1.147899275043623E-2    8.347814851441680E-3   -1.201068858417721E-2    8.368922063292183E-3   -1.204056563630074E-2    9.918433563391815E-1    1.156756564653777E-2
 1.664060108743095E5     9.917001640840029E-1    1.140482958306218E-2    8.339920242080950E-3   -1.193914227082833E-2    8.360118255736657E-3   -1.196354576765530E-2    9.918309827669372E-1    1.147425974924728E-2
 1.676756658808590E5     9.917134677793046E-1    1.131297624235683E-2    8.330084922080308E-3   -1.186234767529589E-2    8.352851512600254E-3   -1.188896983545272E-2    9.918412820766085E-1    1.141307608359526E-2
 1.689550081807175E5     9.917237111844407E-1    1.123884214499220E-2    8.326869157081399E-3   -1.178951050840081E-2    8.344591694655836E-3   -1.181508516398232E-2    9.918607262842157E-1    1.132336405101823E-2
 1.702441116866020E5     9.917338665787188E-1    1.116791049068261E-2    8.309632020175040E-3   -1.171595139892940E-2    8.334466162820114E-3   -1.174354454263838E-2    9.918708526511357E-1    1.125075403129816E-2
 1.715430508751738E5     9.917635796019977E-1    1.109934884721167E-2    8.305403094927886E-3   -1.164527071987195E-2    8.326649707062973E-3   -1.166940583335052E-2    9.918440876628339E-1    1.117595497767724E-2
 1.728519007913403E5     9.917707776172595E-1    1.103666514598705E-2    8.294997820031869E-3   -1.156937301048297E-2    8.317100989287677E-3   -1.159499788961595E-2    9.918748161752833E-1    1.109580988764138E-2
 1.741707370525927E5     9.917608862627165E-1    1.094855160608983E-2    8.288388298141058E-3   -1.149931866010875E-2    8.306835538406224E-3   -1.152616843684179E-2    9.918904002318909E-1    1.104909813858017E-2
 1.754996358533718E5     9.917831857825397E-1    1.087616412219019E-2    8.278625561729466E-3   -1.142518356943214E-2    8.300813647850767E-3   -1.145108496531173E-2    9.918800095210525E-1    1.094760660261059E-2
 1.768386739694722E5     9.917705674215411E-1    1.078785920330718E-2    8.269205966870098E-3   -1.135589263919166E-2    8.292522777679428E-3   -1.138214114461679E-2    9.919428117737071E-1    1.089898250407859E-2
 1.781879287624771E5     9.917829215855029E-1    1.072311514532914E-2    8.262505872760404E-3   -1.128285248095286E-2    8.282929072095938E-3   -1.131314706218050E-2    9.919711760304876E-1    1.081469676811930E-2
 1.795474781842276E5     9.917884624617762E-1    1.064631978258772E-2    8.254390483637724E-3   -1.121455924503083E-2    8.273626119983241E-3   -1.124326569864258E-2    9.919428613487653E-1    1.074299782944208E-2
 1.809174007813277E5     9.918042699134154E-1    1.057090033650060E-2    8.245597770693950E-3   -1.114522727170937E-2    8.263789232283283E-3   -1.117426375154996E-2    9.918898167758670E-1    1.068230149455974E-2
 1.822977756996804E5     9.917763914824578E-1    1.049440909490124E-2    8.231802149189844E-3   -1.107798875284089E-2    8.257410033722932E-3   -1.110528503096982E-2    9.919303969055437E-1    1.060479247585455E-2
 1.836886826890609E5     9.918160799634672E-1    1.045205304027008E-2    8.231096135513647E-3   -1.101235164563195E-2    8.246505410445226E-3   -1.103767653886627E-2    9.919193972469513E-1    1.051866471839084E-2
 1.850902021077247E5     9.918232863072927E-1    1.036782712780175E-2    8.217336269170313E-3   -1.094526497638598E-2    8.237576207444060E-3   -1.097209409338185E-2    9.919331418252014E-1    1.044941152590360E-2
 1.865024149270491E5     9.918369542179347E-1    1.029035742553724E-2    8.206409321831070E-3   -1.087814760585772E-2    8.232712036523971E-3   -1.090466525638630E-2    9.919410201049474E-1    1.039439413703279E-2
 1.879254027362132E5     9.918467582011994E-1    1.023386005499852E-2    8.198945395884489E-3   -1.080860973800679E-2    8.223396674695283E-3   -1.084051493056240E-2    9.919850943759451E-1    1.030882157712167E-2
 1.893592477469092E5     9.918681028482159E-1    1.015292797106513E-2    8.209660227980677E-3   -1.075545954534815E-2    8.210251170318858E-3   -1.078035203454999E-2    9.920032674416985E-1    1.020288205263719E-2
 1.908040327980933E5     9.918449389537553E-1    1.011074058741470E-2    8.184949344383383E-3   -1.067835219452554E-2    8.202972487535024E-3   -1.070418202622516E-2    9.919900897434489E-1    1.017540020706477E-2
 1.922598413607715E5     9.918717178877751E-1    1.002054601458030E-2    8.173088677112859E-3   -1.061537252839964E-2    8.194421469419665E-3   -1.064335573381057E-2    9.919930534870889E-1    1.010083903123231E-2
 1.937267575428232E5     9.918701984307261E-1    9.955362349138254E-3    8.164829616839654E-3   -1.055182204303171E-2    8.185133334690238E-3   -1.057386716717882E-2    9.920137988397938E-1    1.003361823988058E-2
 1.952048660938581E5     9.919021337565846E-1    9.894682580458133E-3    8.154811255189090E-3   -1.048949060206816E-2    8.176515305994416E-3   -1.051324583325187E-2    9.920171287553772E-1    9.959399356933707E-3
 1.966942524101142E5     9.918867651067491E-1    9.819467157253287E-3    8.144606546779360E-3   -1.042778401041435E-2    8.164168086237048E-3   -1.045328309087620E-2    9.920080188353544E-1    9.900954971446737E-3
 1.981950025393913E5     9.918826751728884E-1    9.773845326877341E-3    8.139908835426063E-3   -1.036713319000369E-2    8.159532313261914E-3   -1.038955446151671E-2    9.920212726076537E-1    9.834403193578891E-3
