#  HZ   S   RI   R     50.00 
! Rohde & Schwarz Vector Network Analyzer 
! Rohde-Schwarz,ZNLE6-2Port,1323001256200024,1.71.1.10-23.02.1.238
! Created: UTC 4/7/2025, 5:40:18 AM
! freq[Hz]                re:S11                  im:S11                  re:S21                  im:S21                  re:S12                  im:S12                  re:S22                  im:S22
 1.000000000000000E5     9.919004989913368E-1    1.714121308013187E-2    8.261234885013173E-3   -1.743939049331846E-2    8.284853048012764E-3   -1.748496628549769E-2    9.919037081859490E-1    1.712308023615597E-2
 1.007629862646662E5     9.919120260305048E-1    1.698550822543952E-2    8.250370903120106E-3   -1.732284477523427E-2    8.278215752871135E-3   -1.736251725968670E-2    9.919172709979484E-1    1.700700070182837E-2
 1.015317940097331E5     9.918949336377527E-1    1.687374734572472E-2    8.246845938857092E-3   -1.720206621739337E-2    8.270675227967188E-3   -1.723878418066008E-2    9.919094162986321E-1    1.685961476283930E-2
 1.023064676522963E5     9.919164493227479E-1    1.674152402422279E-2    8.237579851934062E-3   -1.708050720539606E-2    8.263476771991541E-3   -1.711964672148800E-2    9.919099343461116E-1    1.675045377321996E-2
 1.030870519483485E5     9.919051666079586E-1    1.660634262643155E-2    8.227595183015449E-3   -1.696326828303063E-2    8.254517332793167E-3   -1.699909225478437E-2    9.919080160377151E-1    1.664555629358452E-2
 1.038735919953636E5     9.919272378002518E-1    1.648672513246111E-2    8.223347963165711E-3   -1.684474852481554E-2    8.248857743156103E-3   -1.687878822430131E-2    9.918889602199658E-1    1.652286007675912E-2
 1.046661332349037E5     9.919282872247732E-1    1.638158055653556E-2    8.216686986758016E-3   -1.672921074770434E-2    8.240962933450830E-3   -1.676686939338536E-2    9.919089355674914E-1    1.639137947904206E-2
 1.054647214552430E5     9.918980156026818E-1    1.622556027123690E-2    8.208032704455793E-3   -1.661203645057049E-2    8.233901872776403E-3   -1.665058296947512E-2    9.919289885305568E-1    1.627961419989991E-2
 1.062694027940149E5     9.918856484571722E-1    1.611931896512893E-2    8.201907265115618E-3   -1.649802859781678E-2    8.226857655514435E-3   -1.653900640932072E-2    9.919200971624910E-1    1.616503348885555E-2
 1.070802237408760E5     9.919202682174864E-1    1.600877240647537E-2    8.191762626917789E-3   -1.638145251090883E-2    8.218043498762453E-3   -1.642182450254458E-2    9.919586860348307E-1    1.605559918877671E-2
 1.078972311401927E5     9.919368679054875E-1    1.588586071947931E-2    8.189142408078665E-3   -1.627288023372678E-2    8.211278051529920E-3   -1.630719922132715E-2    9.919487256785504E-1    1.593842916064226E-2
 1.087204721937475E5     9.919518902114193E-1    1.577167803175789E-2    8.180387063530758E-3   -1.615718242899578E-2    8.204777146537412E-3   -1.619492572806419E-2    9.919479167382941E-1    1.583519124213803E-2
 1.095499944634658E5     9.919583663398965E-1    1.565482932980656E-2    8.174935146288006E-3   -1.604888308670240E-2    8.196101184391352E-3   -1.608480150959659E-2    9.919336261732136E-1    1.571331461842483E-2
 1.103858458741646E5     9.919659003727117E-1    1.553236799463194E-2    8.163804192387842E-3   -1.593643213136843E-2    8.191745799730666E-3   -1.597413834775859E-2    9.920040164337710E-1    1.559588890837982E-2
 1.112280747163201E5     9.919910605313588E-1    1.542809217741406E-2    8.160145097822827E-3   -1.582813048443786E-2    8.183801368433340E-3   -1.586673337412333E-2    9.920024966402732E-1    1.547800140594648E-2
 1.120767296488583E5     9.919668560900688E-1    1.531881303923024E-2    8.149544093271075E-3   -1.572012966003288E-2    8.176551743933322E-3   -1.575668732570173E-2    9.919920647698901E-1    1.536866264706480E-2
 1.129318597019661E5     9.919456083073702E-1    1.520975476155234E-2    8.147167847847232E-3   -1.561029629487565E-2    8.169502876286008E-3   -1.564639216957093E-2    9.919853775977271E-1    1.524926363603310E-2
 1.137935142799240E5     9.919658736301366E-1    1.509825274842107E-2    8.139935332458478E-3   -1.550227047499707E-2    8.164062330181767E-3   -1.553842477780754E-2    9.919926317121971E-1    1.516121194365889E-2
 1.146617431639607E5     9.919653016944964E-1    1.498359076679033E-2    8.131321226645047E-3   -1.539652033032969E-2    8.158612470595527E-3   -1.543622893879258E-2    9.919759706884547E-1    1.504755761265013E-2
 1.155365965151286E5     9.919941561492681E-1    1.488996278194726E-2    8.128088505211122E-3   -1.529288018420240E-2    8.147461724032619E-3   -1.533041374784757E-2    9.920090048240746E-1    1.494606586244764E-2
 1.164181248772018E5     9.919693216556040E-1    1.477705703939839E-2    8.118689353711343E-3   -1.518843961372406E-2    8.142839518262227E-3   -1.522564615662327E-2    9.920293951194614E-1    1.484361575554617E-2
 1.173063791795965E5     9.920070483732246E-1    1.467021961040783E-2    8.112294167792789E-3   -1.508115342756414E-2    8.135359588245643E-3   -1.512297836210943E-2    9.920184452245180E-1    1.474048246996162E-2
 1.182014107403141E5     9.920002621942802E-1    1.457765916151936E-2    8.105006916016563E-3   -1.498415751070011E-2    8.131375498582456E-3   -1.501798805606472E-2    9.920349708344096E-1    1.465456216420903E-2
 1.191032712689044E5     9.919935263412943E-1    1.445020395157232E-2    8.096237143402112E-3   -1.488247072662584E-2    8.123639116064840E-3   -1.491496268719221E-2    9.920993998733205E-1    1.454185334046691E-2
 1.200120128694542E5     9.920008214523577E-1    1.435416188794201E-2    8.091045454484112E-3   -1.477898120617462E-2    8.115065061052123E-3   -1.481738255335177E-2    9.920890506655945E-1    1.442899162292524E-2
 1.209276880435975E5     9.919981770326698E-1    1.425828231972004E-2    8.084715898270660E-3   -1.468063512977272E-2    8.107348055957878E-3   -1.471326267083233E-2    9.921052226752980E-1    1.433276586270849E-2
 1.218503496935483E5     9.920259137610762E-1    1.416887736036686E-2    8.077468681933139E-3   -1.458443981699498E-2    8.104297619126698E-3   -1.461459162368593E-2    9.920876982268256E-1    1.423641021010363E-2
 1.227800511251578E5     9.920278774785986E-1    1.405838241794281E-2    8.071986681935041E-3   -1.448257237890536E-2    8.091649350327808E-3   -1.452029673093437E-2    9.920771779336410E-1    1.412244197762981E-2
 1.237168460509929E5     9.920150507257454E-1    1.396349175452441E-2    8.063427615954267E-3   -1.438734527690945E-2    8.087683771818696E-3   -1.442004423596455E-2    9.920702377863918E-1    1.402548049175729E-2
 1.246607885934402E5     9.919676913129187E-1    1.383955981016231E-2    8.056756115934254E-3   -1.429274678313755E-2    8.080192558598192E-3   -1.432027662120302E-2    9.920819912818351E-1    1.392785177215251E-2
 1.256119332878327E5     9.919999739965963E-1    1.375394872450336E-2    8.051573055688111E-3   -1.419541792664506E-2    8.071436784814688E-3   -1.422803720457850E-2    9.920858587155464E-1    1.383407334041597E-2
 1.265703350856002E5     9.920220606534893E-1    1.362957608750008E-2    8.037833292437386E-3   -1.409848648169836E-2    8.067413063774381E-3   -1.413092218798003E-2    9.921164575191109E-1    1.372013219535508E-2
 1.275360493574453E5     9.920123131371843E-1    1.354422162502892E-2    8.037225097948939E-3   -1.400359516659471E-2    8.056829602095920E-3   -1.403511917020238E-2    9.921173999630116E-1    1.363519971862328E-2
 1.285091318965405E5     9.920427087573765E-1    1.344308069872581E-2    8.028290665634985E-3   -1.390881532087754E-2    8.052441301050725E-3   -1.394263068776534E-2    9.921177282485989E-1    1.354711721288948E-2
 1.294896389217529E5     9.920055359398406E-1    1.334339413981642E-2    8.024678699862745E-3   -1.381517837737416E-2    8.048028919650169E-3   -1.384977023678657E-2    9.921463660759612E-1    1.346018473504604E-2
 1.304776270808914E5     9.920237604133681E-1    1.324492383154268E-2    8.014690967137019E-3   -1.372432231549592E-2    8.039355268473295E-3   -1.375397559632813E-2    9.921359649716951E-1    1.337845162386965E-2
 1.314731534539810E5     9.920054754893798E-1    1.315045444987890E-2    8.011443515841283E-3   -1.363225126378774E-2    8.033862277147634E-3   -1.366597124579377E-2    9.921458541661820E-1    1.325331030878541E-2
 1.324762755565583E5     9.920262895790991E-1    1.304500203188977E-2    8.005347787530719E-3   -1.354264049748771E-2    8.024321550090210E-3   -1.357484951351425E-2    9.921759044652437E-1    1.318856480970145E-2
 1.334870513429962E5     9.920322558501197E-1    1.299262299411643E-2    7.998089804952089E-3   -1.345340471215031E-2    8.019310896060162E-3   -1.348400180854129E-2    9.921596732164270E-1    1.308541688722472E-2
 1.345055392098512E5     9.920561064819090E-1    1.288117211578418E-2    7.983800056282667E-3   -1.336211632962251E-2    8.010610626761762E-3   -1.339361995681126E-2    9.921735163458443E-1    1.299868251694959E-2
 1.355317979992373E5     9.920814970443819E-1    1.280433779842392E-2    7.984093945011855E-3   -1.327618229490966E-2    8.003620249087373E-3   -1.330753633574066E-2    9.921747621057176E-1    1.291024678313248E-2
 1.365658870022265E5     9.920867137690438E-1    1.270650932221273E-2    7.976495066730017E-3   -1.318753694262853E-2    7.994933744182198E-3   -1.321807005179579E-2    9.921609567702593E-1    1.281898386388126E-2
 1.376078659622731E5     9.921131646278858E-1    1.260795763471542E-2    7.965414835638172E-3   -1.310118325574165E-2    7.988171721242531E-3   -1.313228943169467E-2    9.921565480121928E-1    1.273416541033021E-2
 1.386577950786655E5     9.921227951031308E-1    1.254045729519786E-2    7.958608957002613E-3   -1.301660630708543E-2    7.984610979717135E-3   -1.304361758146586E-2    9.921555418918557E-1    1.262855982832290E-2
 1.397157350100044E5     9.921163302634088E-1    1.245966945219499E-2    7.953814557469772E-3   -1.293107148258212E-2    7.978569060101540E-3   -1.295862912977568E-2    9.921777442097888E-1    1.255346703086411E-2
 1.407817468777081E5     9.921599773153852E-1    1.236392015591115E-2    7.948415712183597E-3   -1.284564839431613E-2    7.969999089557369E-3   -1.287449067779437E-2    9.922319379632519E-1    1.245579718178458E-2
 1.418558922695422E5     9.921273336069391E-1    1.228199440741076E-2    7.940765066939668E-3   -1.276478645310078E-2    7.961905505589862E-3   -1.279189432326646E-2    9.922137342765415E-1    1.237039621439853E-2
 1.429382332431784E5     9.921620995081911E-1    1.220373221958483E-2    7.936971481070657E-3   -1.267599339874252E-2    7.954244032968540E-3   -1.270408337961544E-2    9.922023563247766E-1    1.229925160418825E-2
 1.440288323297804E5     9.921423003642825E-1    1.211682299190332E-2    7.928727130184329E-3   -1.259119776646942E-2    7.948199929334243E-3   -1.262593999127455E-2    9.922224744121871E-1    1.221374695403367E-2
 1.451277525376154E5     9.921215512671374E-1    1.201268923723884E-2    7.920212610450693E-3   -1.251454479943414E-2    7.939992094671246E-3   -1.254323118612111E-2    9.922677715971362E-1    1.212692863628830E-2
 1.462350573556962E5     9.921424854560947E-1    1.194128302455701E-2    7.914130727472053E-3   -1.243366715781120E-2    7.934204949474444E-3   -1.246023273064257E-2    9.922570323976215E-1    1.204625194979752E-2
 1.473508107574468E5     9.921276465533695E-1    1.186732598543590E-2    7.904858608803231E-3   -1.235111395323542E-2    7.925698958539036E-3   -1.238006991559343E-2    9.922975147988947E-1    1.196277078736508E-2
 1.484750772044004E5     9.921589703168807E-1    1.177147514385445E-2    7.899379245812884E-3   -1.226946853311728E-2    7.918670723624717E-3   -1.230045268208418E-2    9.922813602047605E-1    1.189299059631451E-2
 1.496079216499225E5     9.921595094427269E-1    1.169252007681798E-2    7.893147425483093E-3   -1.219064329825991E-2    7.911841942365673E-3   -1.221862334496224E-2    9.922730521667216E-1    1.181045195246933E-2
 1.507494095429637E5     9.921732895145003E-1    1.162389080872446E-2    7.883943035301409E-3   -1.211467517032135E-2    7.905917468123138E-3   -1.213939470828370E-2    9.922692694746923E-1    1.173576940579248E-2
 1.518996068318418E5     9.921939790605884E-1    1.154245353762127E-2    7.875968696685243E-3   -1.203801784411299E-2    7.897048476832123E-3   -1.206538932893853E-2    9.923059305487097E-1    1.164336526058023E-2
 1.530585799680507E5     9.921960428299568E-1    1.146953576318369E-2    7.868559639728177E-3   -1.195941791310659E-2    7.890230603867033E-3   -1.198220640166888E-2    9.922735569557407E-1    1.156425669650486E-2
 1.542263959101001E5     9.921694864429890E-1    1.137217740737903E-2    7.859632051791536E-3   -1.188085091367313E-2    7.882878750041795E-3   -1.190701184109934E-2    9.923187777427215E-1    1.149724088683143E-2
 1.554031221273835E5     9.922115847304956E-1    1.129429536403045E-2    7.852662989910667E-3   -1.180217557708863E-2    7.874495630661043E-3   -1.183115960369025E-2    9.923186787124486E-1    1.139813664756565E-2
 1.565888266040779E5     9.922041979535389E-1    1.123686405523050E-2    7.847400393750183E-3   -1.172672411805964E-2    7.867194688342941E-3   -1.175794622749750E-2    9.923462513346979E-1    1.131843526094596E-2
 1.577835778430689E5     9.921891990312373E-1    1.114847038454131E-2    7.839883187899108E-3   -1.165283099162044E-2    7.861344565086439E-3   -1.168202975270878E-2    9.923258516330089E-1    1.123657507992712E-2
 1.589874448699104E5     9.921824768084816E-1    1.108052305590572E-2    7.833967124822067E-3   -1.157873124851734E-2    7.851492513292379E-3   -1.160667013470486E-2    9.923646439523797E-1    1.115105298914233E-2
 1.602004972368116E5     9.922325247211402E-1    1.099722321499782E-2    7.824503250119502E-3   -1.150507801846971E-2    7.843555792532790E-3   -1.153799265979638E-2    9.923990333849839E-1    1.105420794917441E-2
 1.614228050266550E5     9.922462183673870E-1    1.093517172620407E-2    7.817756562735086E-3   -1.143379261562423E-2    7.837462352885001E-3   -1.146293333535112E-2    9.924145044730204E-1    1.098849030108401E-2
 1.626544388570473E5     9.922350509097210E-1    1.084835382692039E-2    7.809730798806870E-3   -1.136058034010528E-2    7.830929151106253E-3   -1.138822340400158E-2    9.923774093331301E-1    1.092236493458007E-2
 1.638954698843964E5     9.922478970302699E-1    1.077430946968523E-2    7.804887196123483E-3   -1.128689238784487E-2    7.821359337626822E-3   -1.131644373159649E-2    9.923828254506756E-1    1.085589244048663E-2
 1.651459698080244E5     9.922511430109210E-1    1.070623354505797E-2    7.797809164094383E-3   -1.121342521007100E-2    7.816030113704176E-3   -1.124807730872335E-2    9.924097087407596E-1    1.078586235100031E-2
 1.664060108743095E5     9.922799708180809E-1    1.061388494730898E-2    7.787192270679606E-3   -1.114542668246586E-2    7.809253651855134E-3   -1.117445785657148E-2    9.924352098756805E-1    1.071833270072275E-2
 1.676756658808590E5     9.922869714620497E-1    1.054314728703623E-2    7.778664925768352E-3   -1.107711276677535E-2    7.799743316312202E-3   -1.110440458292336E-2    9.924154249278615E-1    1.064029503867058E-2
 1.689550081807175E5     9.922809899030730E-1    1.046301160290150E-2    7.771265104556072E-3   -1.100989731245011E-2    7.792748385255703E-3   -1.103605539096407E-2    9.924234477301296E-1    1.055931118102807E-2
 1.702441116866020E5     9.922829586821330E-1    1.041286100562420E-2    7.761237901424582E-3   -1.093936596667835E-2    7.787708265006151E-3   -1.096619577754726E-2    9.924173944159509E-1    1.049687560388563E-2
 1.715430508751738E5     9.923009529523905E-1    1.033819003246520E-2    7.758476270418218E-3   -1.086817590761415E-2    7.778499607516260E-3   -1.089653447083760E-2    9.924382267299087E-1    1.041723404279700E-2
 1.728519007913403E5     9.923109436839008E-1    1.026792446418077E-2    7.752449383303034E-3   -1.080251653080129E-2    7.770141454957949E-3   -1.082821873640952E-2    9.924246469810249E-1    1.034255570173267E-2
 1.741707370525927E5     9.923181240997431E-1    1.019033227472039E-2    7.740296594721060E-3   -1.073547345788968E-2    7.762894958685032E-3   -1.076125129367053E-2    9.924824808784405E-1    1.028220001512438E-2
 1.754996358533718E5     9.923388172347070E-1    1.011608035247171E-2    7.732446595586553E-3   -1.066774560965371E-2    7.752661934674432E-3   -1.069274470271646E-2    9.924644157500938E-1    1.021246550089266E-2
 1.768386739694722E5     9.923174822716654E-1    1.004322807502872E-2    7.723851959799668E-3   -1.060310051353617E-2    7.745272349486800E-3   -1.062815046179216E-2    9.925151739252305E-1    1.014851673461302E-2
 1.781879287624771E5     9.923008092385494E-1    9.982191700357679E-3    7.717992621002544E-3   -1.053485008317321E-2    7.738236253938470E-3   -1.056529513718714E-2    9.925396419833004E-1    1.007070269268169E-2
 1.795474781842276E5     9.923181876792796E-1    9.908307649632060E-3    7.710533110611578E-3   -1.047308509176638E-2    7.728027633739395E-3   -1.049657931126357E-2    9.924839737164995E-1    1.000214002049830E-2
 1.809174007813277E5     9.923608244871632E-1    9.839802472264536E-3    7.700350321095013E-3   -1.040508617393877E-2    7.723267352013435E-3   -1.043289402110325E-2    9.924689888668866E-1    9.941023517720840E-3
 1.822977756996804E5     9.923328004215645E-1    9.775115943799161E-3    7.692994632011530E-3   -1.034233714160940E-2    7.712145377286310E-3   -1.036695385213250E-2    9.924936979845239E-1    9.877400943076858E-3
 1.836886826890609E5     9.923880823639926E-1    9.715612046439611E-3    7.687629889374745E-3   -1.028003787082260E-2    7.704872271495312E-3   -1.030598994914038E-2    9.924796837434234E-1    9.804483391068467E-3
 1.850902021077247E5     9.923692452155102E-1    9.656622363508397E-3    7.674291534469231E-3   -1.021805114462787E-2    7.697796630813438E-3   -1.024283870633799E-2    9.925102027517444E-1    9.745352772108239E-3
 1.865024149270491E5     9.923583071936635E-1    9.576286472908493E-3    7.669999827813879E-3   -1.015424918604140E-2    7.690594315704099E-3   -1.017749123306201E-2    9.925211693812722E-1    9.680113069992767E-3
 1.879254027362132E5     9.923999091955067E-1    9.508727888015244E-3    7.659202094226625E-3   -1.009294035086156E-2    7.682334480437701E-3   -1.011895780867105E-2    9.925416884496412E-1    9.599151120370613E-3
 1.893592477469092E5     9.924173832913999E-1    9.456253417825005E-3    7.669594160540416E-3   -1.003365794375763E-2    7.667696255619495E-3   -1.006473535440270E-2    9.925558477889623E-1    9.506029325064799E-3
 1.908040327980933E5     9.924327667019049E-1    9.399726503439442E-3    7.646576919808630E-3   -9.970534790873991E-3    7.664810014236217E-3   -9.997400235725970E-3    9.925502823484214E-1    9.469781780120305E-3
 1.922598413607715E5     9.924414470452692E-1    9.333815512928357E-3    7.634169027445897E-3   -9.905804577423178E-3    7.658689505871563E-3   -9.936720291946186E-3    9.925664649491351E-1    9.407004873742011E-3
 1.937267575428232E5     9.924260251948536E-1    9.258556351239941E-3    7.624843602265076E-3   -9.848222693436989E-3    7.648883397226867E-3   -9.876873559258422E-3    9.926028410361177E-1    9.342296234002876E-3
 1.952048660938581E5     9.924294335053092E-1    9.206359011694842E-3    7.617480281392581E-3   -9.788888492316863E-3    7.641189446599274E-3   -9.814550153833337E-3    9.926149367077955E-1    9.278611672507790E-3
 1.966942524101142E5     9.924262477598533E-1    9.137437467190007E-3    7.608398556050379E-3   -9.728623501407982E-3    7.631395325196248E-3   -9.754877709519565E-3    9.925926155716078E-1    9.211431937438248E-3
 1.981950025393913E5     9.924280934919901E-1    9.087527906787603E-3    7.601135706082431E-3   -9.674960366151278E-3    7.624732310547707E-3   -9.696565152080087E-3    9.926030993437647E-1    9.159331102192777E-3
