#  HZ   S   RI   R     50.00 
! Rohde & Schwarz Vector Network Analyzer 
! Rohde-Schwarz,ZNLE6-2Port,1323001256200024,1.71.1.10-23.02.1.238
! Created: UTC 4/7/2025, 5:29:59 AM
! freq[Hz]                re:S11                  im:S11                  re:S21                  im:S21                  re:S12                  im:S12                  re:S22                  im:S22
 1.000000000000000E5     9.924087638577642E-1    1.602061085355144E-2    7.725943939347672E-3   -1.629321284801817E-2    7.749440982080466E-3   -1.632721391292712E-2    9.924928353411211E-1    1.600356179257921E-2
 1.007629862646662E5     9.924127996865950E-1    1.587634815761103E-2    7.716948278835731E-3   -1.618011259720580E-2    7.743747448981283E-3   -1.621584448651198E-2    9.924958566671063E-1    1.588310044606649E-2
 1.015317940097331E5     9.924357796557235E-1    1.575869844570861E-2    7.711106528221495E-3   -1.606318801654242E-2    7.735619836859634E-3   -1.610224580737894E-2    9.924798553892449E-1    1.576979239263637E-2
 1.023064676522963E5     9.924255411413471E-1    1.563489417393397E-2    7.701727772726812E-3   -1.595388282169227E-2    7.727156263443421E-3   -1.599218856899001E-2    9.924968780246286E-1    1.563499547768305E-2
 1.030870519483485E5     9.924069573534672E-1    1.551895304322202E-2    7.696244256699606E-3   -1.584233018254426E-2    7.723278293870589E-3   -1.588211961449630E-2    9.925048075061454E-1    1.551466373590843E-2
 1.038735919953636E5     9.924374391184639E-1    1.539226462224782E-2    7.692158554863069E-3   -1.573048874582027E-2    7.711852659141281E-3   -1.576432679716145E-2    9.924999458900644E-1    1.541332052538800E-2
 1.046661332349037E5     9.924188474396287E-1    1.529353249823734E-2    7.685919414160126E-3   -1.562406224910736E-2    7.711170729020410E-3   -1.566043590712944E-2    9.924856274254789E-1    1.528825300028593E-2
 1.054647214552430E5     9.924068480979227E-1    1.515890256100631E-2    7.678812311802125E-3   -1.551255168726908E-2    7.700611348281271E-3   -1.554789037292202E-2    9.925215191817406E-1    1.519621968871271E-2
 1.062694027940149E5     9.924413567805708E-1    1.505159324733921E-2    7.670894367058730E-3   -1.540700490283340E-2    7.696265407489850E-3   -1.544283604132546E-2    9.925155474186583E-1    1.507660603277159E-2
 1.070802237408760E5     9.924496956038571E-1    1.494515235861012E-2    7.668285269405120E-3   -1.529876665166532E-2    7.690836190293466E-3   -1.533482185915908E-2    9.925154280713150E-1    1.498439930406186E-2
 1.078972311401927E5     9.924822243492367E-1    1.483820271398545E-2    7.658638640516853E-3   -1.519602937828479E-2    7.686187026175104E-3   -1.522817436169247E-2    9.924907131891154E-1    1.485853219955173E-2
 1.087204721937475E5     9.924342149715250E-1    1.473506106672139E-2    7.655063532021212E-3   -1.509119039028657E-2    7.674274263894671E-3   -1.512371792485017E-2    9.925116563718328E-1    1.477496145144688E-2
 1.095499944634658E5     9.924756536673119E-1    1.461246915318342E-2    7.649019972125279E-3   -1.498508738480223E-2    7.672731044635490E-3   -1.501910444558563E-2    9.924923387235572E-1    1.464139099009445E-2
 1.103858458741646E5     9.924514637043303E-1    1.450963115084188E-2    7.638751548726501E-3   -1.488163373724552E-2    7.661140140146185E-3   -1.491697661067865E-2    9.925373879261926E-1    1.453431546238291E-2
 1.112280747163201E5     9.924615170130833E-1    1.439931197261390E-2    7.635373672926312E-3   -1.477926227102356E-2    7.658696061245425E-3   -1.481348742739095E-2    9.925415050141096E-1    1.444630649601924E-2
 1.120767296488583E5     9.924579008199229E-1    1.429987872632661E-2    7.625883970280833E-3   -1.467437385117853E-2    7.653236503562583E-3   -1.470993156358658E-2    9.925586696895792E-1    1.432265590018816E-2
 1.129318597019661E5     9.924667793360921E-1    1.418409207223585E-2    7.622577374827836E-3   -1.457580625009845E-2    7.642721170179813E-3   -1.461035499241359E-2    9.925358081072561E-1    1.420868645826378E-2
 1.137935142799240E5     9.925206015534430E-1    1.409809869268564E-2    7.619033093582880E-3   -1.447626584782635E-2    7.638539153795798E-3   -1.450834547690318E-2    9.925204750086137E-1    1.412450780420007E-2
 1.146617431639607E5     9.924741492623128E-1    1.397231429520724E-2    7.613042487300180E-3   -1.437740419615611E-2    7.634103027696969E-3   -1.441248212039938E-2    9.925367964987334E-1    1.404063824750430E-2
 1.155365965151286E5     9.924688861899782E-1    1.389808900054714E-2    7.601807170305120E-3   -1.427919965522820E-2    7.627890415685954E-3   -1.431228787753866E-2    9.925836724261459E-1    1.393678548644648E-2
 1.164181248772018E5     9.924676743410710E-1    1.379056721584049E-2    7.596078320253111E-3   -1.418469848729072E-2    7.618332216016780E-3   -1.421790810827007E-2    9.925274198338645E-1    1.383344457019983E-2
 1.173063791795965E5     9.924816400992621E-1    1.369061627570236E-2    7.591319591431023E-3   -1.408618804569437E-2    7.613261618620195E-3   -1.411646238282904E-2    9.925706157014900E-1    1.374733170369810E-2
 1.182014107403141E5     9.924809597929801E-1    1.360302610527385E-2    7.583206181380787E-3   -1.398756440420655E-2    7.607882708921358E-3   -1.402123295631430E-2    9.925784150611423E-1    1.364210464947398E-2
 1.191032712689044E5     9.925002593175979E-1    1.348719948000208E-2    7.576826425495702E-3   -1.389596658573340E-2    7.603147388368269E-3   -1.392546315153626E-2    9.925861100115703E-1    1.353725359969264E-2
 1.200120128694542E5     9.924859184665251E-1    1.339715069960172E-2    7.572041540228815E-3   -1.379936375758690E-2    7.593481656264867E-3   -1.383281369615226E-2    9.925878897396719E-1    1.344703600936046E-2
 1.209276880435975E5     9.925141498315970E-1    1.330765396244187E-2    7.566780334650737E-3   -1.370842254772350E-2    7.588600767311887E-3   -1.373847248633239E-2    9.926047072048808E-1    1.336380339986415E-2
 1.218503496935483E5     9.925393527378218E-1    1.321814570204348E-2    7.561584678794235E-3   -1.361527024262981E-2    7.582350240333234E-3   -1.364453264537293E-2    9.925896182311528E-1    1.325708642970749E-2
 1.227800511251578E5     9.925333837807713E-1    1.313237494043384E-2    7.559060332175439E-3   -1.352250717884453E-2    7.575049221184338E-3   -1.355161887562570E-2    9.925671312259456E-1    1.315711893007207E-2
 1.237168460509929E5     9.925273279975767E-1    1.301256642987408E-2    7.552665803224123E-3   -1.343405816325813E-2    7.571886445000693E-3   -1.346168045726551E-2    9.926080628836210E-1    1.307658580119767E-2
 1.246607885934402E5     9.925102797159451E-1    1.291405128711054E-2    7.544027128094486E-3   -1.334030033164877E-2    7.563485225034790E-3   -1.337132291227652E-2    9.925920176883442E-1    1.297016793252007E-2
 1.256119332878327E5     9.925603681293244E-1    1.284466244056477E-2    7.536540711282092E-3   -1.324594707788316E-2    7.554613737569590E-3   -1.328067243729037E-2    9.925916241647664E-1    1.287208514447573E-2
 1.265703350856002E5     9.925531136559144E-1    1.271727185493901E-2    7.529296190487892E-3   -1.315987143480652E-2    7.548936620106814E-3   -1.319237036687215E-2    9.926357725539103E-1    1.278828084039406E-2
 1.275360493574453E5     9.925396667251878E-1    1.262914037737178E-2    7.524516665223874E-3   -1.307391193342884E-2    7.545995842242638E-3   -1.310171482298780E-2    9.926339454639056E-1    1.269747394042558E-2
 1.285091318965405E5     9.925569438846046E-1    1.256325711337870E-2    7.516901221986120E-3   -1.298444425406312E-2    7.538916563434037E-3   -1.301424683717560E-2    9.926530852781436E-1    1.262093377002239E-2
 1.294896389217529E5     9.925333749812673E-1    1.246021244622342E-2    7.510770217091922E-3   -1.289606077692528E-2    7.531597458538414E-3   -1.292841103610668E-2    9.926688432592322E-1    1.252937741238864E-2
 1.304776270808914E5     9.925497893712810E-1    1.236594795678317E-2    7.504226868984691E-3   -1.281225965462441E-2    7.525437765139456E-3   -1.284099364419488E-2    9.926639547110522E-1    1.243607600410836E-2
 1.314731534539810E5     9.925537611683276E-1    1.228953779113317E-2    7.500811815620091E-3   -1.272667513146484E-2    7.517193404411798E-3   -1.275389275303358E-2    9.926420546577616E-1    1.233150814468977E-2
 1.324762755565583E5     9.925596372182381E-1    1.218913151017542E-2    7.491335800283764E-3   -1.264113442926041E-2    7.510097974683266E-3   -1.266949754799570E-2    9.926452683147967E-1    1.226603030645058E-2
 1.334870513429962E5     9.925276312177176E-1    1.211352367421242E-2    7.487303039943269E-3   -1.255670276632644E-2    7.505569038127338E-3   -1.258487813843994E-2    9.926672583952152E-1    1.218237851632922E-2
 1.345055392098512E5     9.925760710960462E-1    1.201821157414733E-2    7.481496509089047E-3   -1.247169160568635E-2    7.494391686102804E-3   -1.250442244093714E-2    9.926953773795375E-1    1.208784862388388E-2
 1.355317979992373E5     9.925776912790253E-1    1.195612573184175E-2    7.472645887179575E-3   -1.239201961660060E-2    7.491713372595849E-3   -1.242423711680416E-2    9.926800697653120E-1    1.201906826741219E-2
 1.365658870022265E5     9.925661719526977E-1    1.185939747870117E-2    7.468343325687883E-3   -1.231034890344005E-2    7.486181990861915E-3   -1.233899077366812E-2    9.926695674504409E-1    1.191991260143285E-2
 1.376078659622731E5     9.925931492344083E-1    1.176429969367844E-2    7.462144464022817E-3   -1.223195480365978E-2    7.481720260138249E-3   -1.225611184103772E-2    9.926808703654962E-1    1.182562519882006E-2
 1.386577950786655E5     9.926033617400032E-1    1.171087089678006E-2    7.452691530421936E-3   -1.214751368209113E-2    7.474726915086053E-3   -1.217461767377983E-2    9.926789357137057E-1    1.176927389552572E-2
 1.397157350100044E5     9.926220824271367E-1    1.161980869546719E-2    7.448669655933452E-3   -1.206923767176923E-2    7.466079130168724E-3   -1.209376763838049E-2    9.926867630101746E-1    1.166754500187688E-2
 1.407817468777081E5     9.926426198255630E-1    1.154137978194727E-2    7.441101392911197E-3   -1.199029570221363E-2    7.459115099911417E-3   -1.201630596675972E-2    9.927187765963271E-1    1.158703235365699E-2
 1.418558922695422E5     9.926608377813881E-1    1.146417949650081E-2    7.437858411828576E-3   -1.190865099799384E-2    7.453754031909642E-3   -1.193678426969787E-2    9.927186770710562E-1    1.152305044859538E-2
 1.429382332431784E5     9.926495056456640E-1    1.137774066620539E-2    7.430448483175893E-3   -1.183020454919178E-2    7.446101399184112E-3   -1.185813411492097E-2    9.927045478509255E-1    1.143481221262760E-2
 1.440288323297804E5     9.926324807861723E-1    1.131248580984725E-2    7.422107687240932E-3   -1.175373717265157E-2    7.440258979736315E-3   -1.178274835993810E-2    9.927338752557006E-1    1.135447047893685E-2
 1.451277525376154E5     9.926391993039967E-1    1.122429035140089E-2    7.414662339050657E-3   -1.167659311749107E-2    7.432751289631121E-3   -1.170887136806040E-2    9.927533177402279E-1    1.128297471653699E-2
 1.462350573556962E5     9.926494566711167E-1    1.114424026299907E-2    7.409783029946696E-3   -1.160003710615405E-2    7.426039407380661E-3   -1.163165853872038E-2    9.927606847211607E-1    1.120983687771931E-2
 1.473508107574468E5     9.926536341537479E-1    1.107885447301479E-2    7.404756499610390E-3   -1.152329496707845E-2    7.419630250800198E-3   -1.155212739218891E-2    9.927645314452278E-1    1.111991041603702E-2
 1.484750772044004E5     9.926628631557355E-1    1.098987011496006E-2    7.400639131315648E-3   -1.145147261733597E-2    7.414122682791942E-3   -1.147607710925193E-2    9.927486961110080E-1    1.104574013855568E-2
 1.496079216499225E5     9.926645543894371E-1    1.090631201685614E-2    7.390487810827473E-3   -1.137497090327034E-2    7.407926302196419E-3   -1.140274715516471E-2    9.927596093720780E-1    1.098190167094582E-2
 1.507494095429637E5     9.926585241282919E-1    1.083722055904435E-2    7.383927045883133E-3   -1.129897529932836E-2    7.398780943763717E-3   -1.132771060962118E-2    9.927652046366213E-1    1.090662121634689E-2
 1.518996068318418E5     9.927063228441211E-1    1.076416857500916E-2    7.376811316372077E-3   -1.122782705713302E-2    7.392077618798718E-3   -1.125032496810590E-2    9.927925532545377E-1    1.082144968548665E-2
 1.530585799680507E5     9.927049496093954E-1    1.069232956745035E-2    7.370636169877489E-3   -1.115680699873800E-2    7.386847299990323E-3   -1.118496632835183E-2    9.927682332825366E-1    1.073853087006734E-2
 1.542263959101001E5     9.926837889999466E-1    1.058571564326530E-2    7.360515637741833E-3   -1.108364187114600E-2    7.379678067323403E-3   -1.111082514276906E-2    9.927989107451340E-1    1.067242586975004E-2
 1.554031221273835E5     9.927179031962111E-1    1.051648451869994E-2    7.356355391028406E-3   -1.101065574182782E-2    7.373885078211992E-3   -1.104153976102484E-2    9.928203996579745E-1    1.059397822021740E-2
 1.565888266040779E5     9.927320269214475E-1    1.047565654418921E-2    7.348276698093791E-3   -1.094151586225632E-2    7.366728799610138E-3   -1.096941417489615E-2    9.928168079827208E-1    1.052042297817505E-2
 1.577835778430689E5     9.927349663466813E-1    1.039261901235679E-2    7.339750959090360E-3   -1.087564661791629E-2    7.360792966776367E-3   -1.090017747337491E-2    9.928440709459778E-1    1.044235725709190E-2
 1.589874448699104E5     9.927286892223265E-1    1.033312400012606E-2    7.336593271288947E-3   -1.080150668240710E-2    7.353537550972566E-3   -1.082909403572238E-2    9.928475866667036E-1    1.036141344105650E-2
 1.602004972368116E5     9.927695975568854E-1    1.026398854683782E-2    7.330265263588946E-3   -1.073443357246628E-2    7.347652913404732E-3   -1.076319400161498E-2    9.928862443589104E-1    1.027745402366054E-2
 1.614228050266550E5     9.927664986343624E-1    1.018477843398879E-2    7.318041574930800E-3   -1.066491985041869E-2    7.341583635859251E-3   -1.068987327593985E-2    9.928592173385179E-1    1.022070382832127E-2
 1.626544388570473E5     9.927891541237905E-1    1.011385386328522E-2    7.310615633903583E-3   -1.059621696998546E-2    7.331100260437604E-3   -1.062404511443774E-2    9.928483036307260E-1    1.013996135601949E-2
 1.638954698843964E5     9.928003981562510E-1    1.004504535753633E-2    7.307237987472231E-3   -1.052844697120761E-2    7.327437241580049E-3   -1.055852923402192E-2    9.928989412608353E-1    1.007752855127292E-2
 1.651459698080244E5     9.927841532629700E-1    9.975127745203885E-3    7.302224820566747E-3   -1.046212050341910E-2    7.320244618406344E-3   -1.049071348473862E-2    9.929032384544788E-1    1.000674166273878E-2
 1.664060108743095E5     9.927960159317606E-1    9.897894304716852E-3    7.291985523923465E-3   -1.039653287732816E-2    7.314762039768461E-3   -1.042516788131898E-2    9.929084871930084E-1    9.932558662891519E-3
 1.676756658808590E5     9.927981157177536E-1    9.817894306812536E-3    7.284222861993122E-3   -1.033087575545001E-2    7.306214674042837E-3   -1.035755799095379E-2    9.928962416559207E-1    9.868797563880453E-3
 1.689550081807175E5     9.927711895630539E-1    9.740860775887946E-3    7.276205180951292E-3   -1.026677559514877E-2    7.298209785652381E-3   -1.029689128257338E-2    9.929042378744840E-1    9.798576390743021E-3
 1.702441116866020E5     9.928020640007660E-1    9.690882470935436E-3    7.269592225678578E-3   -1.019953500925039E-2    7.292467042579790E-3   -1.022818947903666E-2    9.929428364514278E-1    9.747725456110917E-3
 1.715430508751738E5     9.928109414069953E-1    9.624671961465917E-3    7.265771365799888E-3   -1.013551317968127E-2    7.287180356523953E-3   -1.016388476465500E-2    9.929138887809602E-1    9.665928364115456E-3
 1.728519007913403E5     9.928428588102002E-1    9.562993652358430E-3    7.258322898402335E-3   -1.007107485535293E-2    7.274290501637514E-3   -1.010214892214013E-2    9.929290961404713E-1    9.598937356281000E-3
 1.741707370525927E5     9.928454293628219E-1    9.498810052060928E-3    7.248017128491489E-3   -1.001318972542524E-2    7.268035134682194E-3   -1.003702658665824E-2    9.929245900165694E-1    9.543591939675343E-3
 1.754996358533718E5     9.928413084841126E-1    9.417934705438663E-3    7.241752049015494E-3   -9.946865652613995E-3    7.261686482407018E-3   -9.974717021353940E-3    9.929275084555635E-1    9.467849290397538E-3
 1.768386739694722E5     9.928191486784428E-1    9.352834314076909E-3    7.232631783953497E-3   -9.888757207712503E-3    7.255325822305920E-3   -9.910643121906091E-3    9.929818331132442E-1    9.412024732105876E-3
 1.781879287624771E5     9.928374908259463E-1    9.280823734229922E-3    7.225621073677161E-3   -9.822768352787318E-3    7.247877635286183E-3   -9.849628788913104E-3    9.930294118101360E-1    9.344569918037454E-3
 1.795474781842276E5     9.928348405388309E-1    9.232246452614511E-3    7.217757100263959E-3   -9.762336873330311E-3    7.240037619018483E-3   -9.791909194925043E-3    9.929730458712159E-1    9.280024288085255E-3
 1.809174007813277E5     9.928397455399972E-1    9.165259003793771E-3    7.211897084438760E-3   -9.703371480545809E-3    7.232299209891183E-3   -9.728173885774653E-3    9.929566947086774E-1    9.211790340628689E-3
 1.822977756996804E5     9.928486670505864E-1    9.095310170857343E-3    7.207071395227475E-3   -9.643225432186585E-3    7.225027875492083E-3   -9.670378414280320E-3    9.929757725521980E-1    9.155772313919605E-3
 1.836886826890609E5     9.928664260898575E-1    9.038312634344832E-3    7.196483702502803E-3   -9.582128135043647E-3    7.216824429226857E-3   -9.611020636512398E-3    9.929772533619143E-1    9.083459767323778E-3
 1.850902021077247E5     9.929044901106999E-1    8.978951055201195E-3    7.189134426086953E-3   -9.525196062567246E-3    7.208907865277303E-3   -9.549975748318158E-3    9.930094665564766E-1    9.041052131710636E-3
 1.865024149270491E5     9.928998482087024E-1    8.925554619671837E-3    7.181523342960795E-3   -9.464351783914502E-3    7.204283226854625E-3   -9.491768988434578E-3    9.930268093901647E-1    8.970365366224807E-3
 1.879254027362132E5     9.929274946246971E-1    8.852890117388457E-3    7.174739682001037E-3   -9.407475579154129E-3    7.195887719094206E-3   -9.433057845045221E-3    9.930356594144338E-1    8.890095898133278E-3
 1.893592477469092E5     9.929166429632463E-1    8.783907198912243E-3    7.170225630187117E-3   -9.335154221512059E-3    7.188670311586388E-3   -9.386683199218608E-3    9.930602203205365E-1    8.829101327698605E-3
 1.908040327980933E5     9.929332666746338E-1    8.751278158518803E-3    7.156201375171409E-3   -9.291822604251702E-3    7.176436954492477E-3   -9.317905841847855E-3    9.930402465068086E-1    8.792298664380282E-3
 1.922598413607715E5     9.929439464809812E-1    8.681855637443166E-3    7.151169161386036E-3   -9.235625748256395E-3    7.170562670395712E-3   -9.260260159334647E-3    9.930542010109478E-1    8.724270900868818E-3
 1.937267575428232E5     9.929241709759253E-1    8.606424452790999E-3    7.142275125091472E-3   -9.180292670058234E-3    7.161593571196733E-3   -9.204467096744906E-3    9.930448194846148E-1    8.657159998442798E-3
 1.952048660938581E5     9.929551651031430E-1    8.556917927430125E-3    7.134289656699479E-3   -9.122954483189102E-3    7.153945204468467E-3   -9.148178580965293E-3    9.930653641291346E-1    8.583105119409688E-3
 1.966942524101142E5     9.929477003312001E-1    8.493899611867570E-3    7.125591160924599E-3   -9.067469080798680E-3    7.147604027357505E-3   -9.091415232042554E-3    9.930591545634561E-1    8.527099633044100E-3
 1.981950025393913E5     9.929409878334483E-1    8.449140314009730E-3    7.117891924244276E-3   -9.012133701090830E-3    7.138951306372343E-3   -9.039139738312585E-3    9.930858302858288E-1    8.474340786395968E-3
