#  HZ   S   RI   R     50.00 
! Rohde & Schwarz Vector Network Analyzer 
! Rohde-Schwarz,ZNLE6-2Port,1323001256200024,1.71.1.10-23.02.1.238
! Created: UTC 4/7/2025, 5:16:14 AM
! freq[Hz]                re:S11                  im:S11                  re:S21                  im:S21                  re:S12                  im:S12                  re:S22                  im:S22
 1.000000000000000E5     9.929146731395940E-1    1.504196975572137E-2    7.240887077912717E-3   -1.531163905607971E-2    7.258017031465087E-3   -1.534723963499109E-2    9.929949825554480E-1    1.501985313295424E-2
 1.007629862646662E5     9.929339532992684E-1    1.491354214156463E-2    7.229488772315603E-3   -1.520711411137755E-2    7.252510919108233E-3   -1.523984736975935E-2    9.929962145715044E-1    1.490299370863571E-2
 1.015317940097331E5     9.929031338366588E-1    1.480233511455676E-2    7.223041193489948E-3   -1.509500556724945E-2    7.245274421298673E-3   -1.513567590114102E-2    9.929829836181515E-1    1.478921990095714E-2
 1.023064676522963E5     9.929167050324140E-1    1.468114496174064E-2    7.217506084786995E-3   -1.499281803755183E-2    7.242460807881673E-3   -1.502757189534735E-2    9.930106493474580E-1    1.468264695007505E-2
 1.030870519483485E5     9.929104075307308E-1    1.457793659365950E-2    7.212918944687167E-3   -1.488681575774045E-2    7.233476987761014E-3   -1.492196440009870E-2    9.929989888428505E-1    1.457344668003693E-2
 1.038735919953636E5     9.929379866026125E-1    1.444812413702641E-2    7.206478959913571E-3   -1.478586553380219E-2    7.227479514251622E-3   -1.481859402982912E-2    9.929994008275683E-1    1.448315989833240E-2
 1.046661332349037E5     9.928904188493551E-1    1.435254992675367E-2    7.202789691453841E-3   -1.467905657970594E-2    7.224746717321138E-3   -1.471532727638509E-2    9.930052099176115E-1    1.435783443057428E-2
 1.054647214552430E5     9.928617053840575E-1    1.423740979462533E-2    7.194325563378745E-3   -1.457997382159913E-2    7.216145139592048E-3   -1.461350562234750E-2    9.930586941575031E-1    1.428256890109071E-2
 1.062694027940149E5     9.928991710091580E-1    1.413720146572177E-2    7.192656676570088E-3   -1.447649487117992E-2    7.214587177808963E-3   -1.451129571577346E-2    9.930362329625534E-1    1.417858491896332E-2
 1.070802237408760E5     9.929096201054852E-1    1.403188359386860E-2    7.181946525037874E-3   -1.438017555812600E-2    7.208211300122841E-3   -1.441206829035752E-2    9.930325061405215E-1    1.406939343757032E-2
 1.078972311401927E5     9.929382423000243E-1    1.392813070616140E-2    7.177047333280099E-3   -1.427814112090676E-2    7.197623407032630E-3   -1.431184934415962E-2    9.930290396343250E-1    1.396308181676505E-2
 1.087204721937475E5     9.929345663817560E-1    1.382239405664747E-2    7.172526737585014E-3   -1.418398843998275E-2    7.194458798746133E-3   -1.421147177744685E-2    9.930514113269394E-1    1.388005633806281E-2
 1.095499944634658E5     9.929443142319428E-1    1.369795727415337E-2    7.167927668529541E-3   -1.408105749520218E-2    7.187995689203003E-3   -1.411483246274375E-2    9.930202242074513E-1    1.375545528060226E-2
 1.103858458741646E5     9.929465511667841E-1    1.361578092862375E-2    7.161832998323212E-3   -1.398343298667179E-2    7.182908482861514E-3   -1.401352717166627E-2    9.930744129086708E-1    1.366343112765224E-2
 1.112280747163201E5     9.929443027492311E-1    1.352029251377561E-2    7.157066105971678E-3   -1.388924111267387E-2    7.176976262982097E-3   -1.391890833917685E-2    9.930649628718782E-1    1.355822094013213E-2
 1.120767296488583E5     9.929359200834585E-1    1.342720009797472E-2    7.149672412970163E-3   -1.379013340595655E-2    7.169736605070583E-3   -1.382480043704891E-2    9.931125267785633E-1    1.346881459300053E-2
 1.129318597019661E5     9.929223319625483E-1    1.331674782008182E-2    7.143955683385614E-3   -1.369919561505971E-2    7.164940285355917E-3   -1.373022356996866E-2    9.930710220592712E-1    1.335334516386360E-2
 1.137935142799240E5     9.929752445024052E-1    1.324344616415677E-2    7.139097138253345E-3   -1.360425416361112E-2    7.157398480580278E-3   -1.363313268543679E-2    9.930531092745101E-1    1.327504170621710E-2
 1.146617431639607E5     9.929609160564143E-1    1.313993950264891E-2    7.131326332723706E-3   -1.350923667540976E-2    7.153938889511999E-3   -1.353977375486512E-2    9.930661933398082E-1    1.317886373331283E-2
 1.155365965151286E5     9.929579429786509E-1    1.305116807292486E-2    7.128382153102740E-3   -1.341883739755718E-2    7.148600864481202E-3   -1.344585659354343E-2    9.930579945736550E-1    1.308558535156017E-2
 1.164181248772018E5     9.929600866317873E-1    1.294325606048475E-2    7.123716659945997E-3   -1.332581857325370E-2    7.138876866097952E-3   -1.335705784153417E-2    9.930548160522439E-1    1.298973674332105E-2
 1.173063791795965E5     9.929650738231122E-1    1.284482109727096E-2    7.112997584720560E-3   -1.323954057924684E-2    7.133013523467304E-3   -1.326602562290838E-2    9.930717844647368E-1    1.288784391303959E-2
 1.182014107403141E5     9.929811695801364E-1    1.276471806912670E-2    7.113407953598941E-3   -1.314499864463509E-2    7.130033798403363E-3   -1.317434134250605E-2    9.930677355035284E-1    1.279395913474865E-2
 1.191032712689044E5     9.929564512797863E-1    1.265104978555688E-2    7.105677756787459E-3   -1.305660555279804E-2    7.123323524561213E-3   -1.308305217098576E-2    9.930879241491680E-1    1.269839201150026E-2
 1.200120128694542E5     9.929648520857737E-1    1.256519814677992E-2    7.096240989472260E-3   -1.296946090189776E-2    7.118722492547175E-3   -1.299841310286688E-2    9.931052800692457E-1    1.260267856837956E-2
 1.209276880435975E5     9.929790189787192E-1    1.249813576028131E-2    7.094314590813158E-3   -1.287983991809506E-2    7.112582840217698E-3   -1.290572617151026E-2    9.930929627692054E-1    1.252749326099555E-2
 1.218503496935483E5     9.930062925845377E-1    1.241387208090232E-2    7.089122788968919E-3   -1.278867622285871E-2    7.105802521152784E-3   -1.282039056548034E-2    9.930937011164177E-1    1.243775088648683E-2
 1.227800511251578E5     9.929872476397866E-1    1.232171756919486E-2    7.079972763545743E-3   -1.270346112922344E-2    7.105045940632377E-3   -1.273423648449722E-2    9.930753669002821E-1    1.234452261140350E-2
 1.237168460509929E5     9.929914483690545E-1    1.222163616904979E-2    7.073315513630426E-3   -1.261839860120785E-2    7.095632072560955E-3   -1.264594126850800E-2    9.931035966774509E-1    1.226863063676234E-2
 1.246607885934402E5     9.929706780586097E-1    1.212707556025883E-2    7.071885229825783E-3   -1.253541944273179E-2    7.089878302222258E-3   -1.255955949444919E-2    9.931107481346119E-1    1.217171707306864E-2
 1.256119332878327E5     9.930128731192900E-1    1.204475023173133E-2    7.064369459575812E-3   -1.244852347866135E-2    7.082583968865586E-3   -1.247614768134927E-2    9.931291085984962E-1    1.208087091377483E-2
 1.265703350856002E5     9.929989328729238E-1    1.195250764551423E-2    7.063416409787652E-3   -1.236111266980331E-2    7.078265356486442E-3   -1.239333939562878E-2    9.931744332294880E-1    1.200420911893621E-2
 1.275360493574453E5     9.930176147014806E-1    1.184761725817066E-2    7.054495175656984E-3   -1.228016972711863E-2    7.069598174754116E-3   -1.230854839921753E-2    9.931596212501878E-1    1.190761797916429E-2
 1.285091318965405E5     9.930029847486852E-1    1.177585162773222E-2    7.048174865908452E-3   -1.220015976409573E-2    7.067758953906702E-3   -1.222361336206170E-2    9.931528301316368E-1    1.183865992371258E-2
 1.294896389217529E5     9.929762655837964E-1    1.168018312085581E-2    7.039896099634247E-3   -1.211724093489594E-2    7.058431983310014E-3   -1.214478272185082E-2    9.931690831977403E-1    1.175887262454332E-2
 1.304776270808914E5     9.929925649206448E-1    1.158888079993852E-2    7.037263673276213E-3   -1.203760146632036E-2    7.055207082871541E-3   -1.206192752268159E-2    9.931846095514085E-1    1.169265944099550E-2
 1.314731534539810E5     9.929899341910896E-1    1.151850882733756E-2    7.033386852738657E-3   -1.195625872690281E-2    7.048650544242251E-3   -1.198215485332656E-2    9.931550373740663E-1    1.159137809109093E-2
 1.324762755565583E5     9.930090089617667E-1    1.142247361407989E-2    7.022398301739577E-3   -1.187377801963816E-2    7.042732467652222E-3   -1.189962162621112E-2    9.931647637268075E-1    1.151874437001512E-2
 1.334870513429962E5     9.929858148460992E-1    1.135891797009569E-2    7.019906958965460E-3   -1.179429750840106E-2    7.033781838990998E-3   -1.182216386389423E-2    9.931775661535432E-1    1.142395971558576E-2
 1.345055392098512E5     9.929909957216155E-1    1.126605523609768E-2    7.011542073515563E-3   -1.171858075275376E-2    7.030750627013315E-3   -1.174241174162678E-2    9.932096143903236E-1    1.134374882283087E-2
 1.355317979992373E5     9.930132123193188E-1    1.118930108408849E-2    7.009923841166020E-3   -1.164219369270525E-2    7.025821682867415E-3   -1.166540233179680E-2    9.931972989530778E-1    1.127659666841833E-2
 1.365658870022265E5     9.930285901182101E-1    1.111272769295297E-2    7.001073106731635E-3   -1.156461222329575E-2    7.018710245971376E-3   -1.158632625009850E-2    9.931827181054307E-1    1.119426532332850E-2
 1.376078659622731E5     9.930246773145086E-1    1.101955516852972E-2    6.992935522614841E-3   -1.148612362504460E-2    7.015067648748412E-3   -1.151332760061407E-2    9.931908816448560E-1    1.111783737893926E-2
 1.386577950786655E5     9.930251138371367E-1    1.096565194176198E-2    6.995046383564005E-3   -1.141122798766806E-2    7.004300496386314E-3   -1.143422722853873E-2    9.932131387983059E-1    1.103851778340673E-2
 1.397157350100044E5     9.930523454379977E-1    1.087710830963653E-2    6.984781286954425E-3   -1.133303970344250E-2    7.002819893118674E-3   -1.135979906251510E-2    9.932534748242764E-1    1.095550088636585E-2
 1.407817468777081E5     9.931125014828167E-1    1.080323402148846E-2    6.981317160486812E-3   -1.125948154716587E-2    6.995941759902854E-3   -1.128350557722241E-2    9.932393636747116E-1    1.087838643008554E-2
 1.418558922695422E5     9.930832430544445E-1    1.072326174083687E-2    6.972441904025725E-3   -1.118645551820794E-2    6.991656534617696E-3   -1.121121142184123E-2    9.932601441144736E-1    1.079381208761635E-2
 1.429382332431784E5     9.930628274906701E-1    1.065350495260603E-2    6.964635416324837E-3   -1.110838480183869E-2    6.984767802802366E-3   -1.113360359532782E-2    9.932594065291482E-1    1.073085284590246E-2
 1.440288323297804E5     9.930386877070305E-1    1.058420799366194E-2    6.960694107896841E-3   -1.103793194429338E-2    6.978021286886297E-3   -1.106291693175791E-2    9.932607467328375E-1    1.065860662469916E-2
 1.451277525376154E5     9.930380075638993E-1    1.049340076259883E-2    6.954454328412484E-3   -1.096781391573371E-2    6.972706085271406E-3   -1.099064417768511E-2    9.933009056836829E-1    1.058679913015683E-2
 1.462350573556962E5     9.930738652702863E-1    1.043047250838974E-2    6.949292073411744E-3   -1.089477161713144E-2    6.967425289452480E-3   -1.091980605623283E-2    9.932655129389192E-1    1.050946064657765E-2
 1.473508107574468E5     9.930953517427678E-1    1.036460176479856E-2    6.941135469851096E-3   -1.082340150891910E-2    6.958464032528150E-3   -1.084681875420460E-2    9.933056387208583E-1    1.045102164443281E-2
 1.484750772044004E5     9.931079595867456E-1    1.028534427601483E-2    6.937074204840481E-3   -1.075472589908754E-2    6.953614003083784E-3   -1.077744196056103E-2    9.932634659613051E-1    1.036328887448432E-2
 1.496079216499225E5     9.931065630518464E-1    1.022604679822218E-2    6.927893749432200E-3   -1.068263015871565E-2    6.950278243791405E-3   -1.070630656214636E-2    9.932634891563283E-1    1.029364340550061E-2
 1.507494095429637E5     9.931114954970356E-1    1.014690669266909E-2    6.924693007357452E-3   -1.061497817109416E-2    6.942059845665329E-3   -1.063797997796644E-2    9.932630594693941E-1    1.021211952431885E-2
 1.518996068318418E5     9.931292650069867E-1    1.010415572367822E-2    6.915405859257851E-3   -1.054593816094562E-2    6.937348668383178E-3   -1.056831749678916E-2    9.933086920315222E-1    1.015570806267109E-2
 1.530585799680507E5     9.931255394035681E-1    1.001726240316867E-2    6.913185807246037E-3   -1.047599019323298E-2    6.927543934281638E-3   -1.050074367249080E-2    9.932918037774761E-1    1.007401814824724E-2
 1.542263959101001E5     9.931194098094384E-1    9.914173486463587E-3    6.907073941679979E-3   -1.041157068333597E-2    6.921806352203271E-3   -1.043163636635614E-2    9.933033968021326E-1    1.000833216373625E-2
 1.554031221273835E5     9.931663412216825E-1    9.863669584810938E-3    6.902471924567281E-3   -1.033980510676719E-2    6.915345757388650E-3   -1.036652161439331E-2    9.933028972315868E-1    9.925750388192735E-3
 1.565888266040779E5     9.931714793414976E-1    9.805234128284353E-3    6.893311766932027E-3   -1.027457028454053E-2    6.912328332492623E-3   -1.030234733596653E-2    9.933255539332935E-1    9.842497999491410E-3
 1.577835778430689E5     9.931701993509173E-1    9.725445156831599E-3    6.884762298431456E-3   -1.020811240241941E-2    6.902599658990637E-3   -1.022892449608798E-2    9.933084754377448E-1    9.782107801327768E-3
 1.589874448699104E5     9.931751443988474E-1    9.668181015417301E-3    6.881254723703038E-3   -1.014378771363075E-2    6.899023684735837E-3   -1.016677791446897E-2    9.933421732296841E-1    9.708212098623900E-3
 1.602004972368116E5     9.932158538351532E-1    9.595359135538712E-3    6.877787430391234E-3   -1.007889768670111E-2    6.894084087021247E-3   -1.010314150810279E-2    9.934053746191568E-1    9.635037240322756E-3
 1.614228050266550E5     9.931931966838758E-1    9.530206027975257E-3    6.867711737207485E-3   -1.001444616806828E-2    6.885327687109236E-3   -1.003754807961394E-2    9.934000599747161E-1    9.584149936095772E-3
 1.626544388570473E5     9.932089657114715E-1    9.469024139029978E-3    6.862291516251471E-3   -9.947973266393106E-3    6.878728469880396E-3   -9.974928616439808E-3    9.933741509834386E-1    9.512138139882331E-3
 1.638954698843964E5     9.932281278683058E-1    9.407900473988368E-3    6.853608609681220E-3   -9.886034800504205E-3    6.874848869103122E-3   -9.908787775407340E-3    9.934026239889997E-1    9.452395955983217E-3
 1.651459698080244E5     9.931928499586481E-1    9.323174235233166E-3    6.850567558104657E-3   -9.823200366197408E-3    6.868369454048330E-3   -9.847994179271052E-3    9.933887282780305E-1    9.382349950450238E-3
 1.664060108743095E5     9.932027515582824E-1    9.266605242701169E-3    6.842065795508394E-3   -9.758454169337943E-3    6.860342463919631E-3   -9.781179264942942E-3    9.933935189051175E-1    9.331623959221710E-3
 1.676756658808590E5     9.932366234644789E-1    9.190597678460125E-3    6.837415249216128E-3   -9.700156429521148E-3    6.850833127537152E-3   -9.721325673158863E-3    9.933914172433657E-1    9.248238088871904E-3
 1.689550081807175E5     9.931984270951586E-1    9.116924876431327E-3    6.827873907962082E-3   -9.639809478429894E-3    6.846482570377600E-3   -9.659436348567323E-3    9.934128689929385E-1    9.183137839040739E-3
 1.702441116866020E5     9.932175547324391E-1    9.061711698605261E-3    6.824053175379697E-3   -9.578313649876038E-3    6.840841348008079E-3   -9.599019170220945E-3    9.934151273910794E-1    9.132619170401765E-3
 1.715430508751738E5     9.932594462278104E-1    9.000127932381915E-3    6.816469285006841E-3   -9.518292231790428E-3    6.831784315048907E-3   -9.536598155909844E-3    9.933921379289697E-1    9.070017491571910E-3
 1.728519007913403E5     9.932642905130884E-1    8.941914574394624E-3    6.811110776649950E-3   -9.453955133456394E-3    6.826908717869534E-3   -9.475541381680646E-3    9.934460055082427E-1    9.017678102070031E-3
 1.741707370525927E5     9.932820783546100E-1    8.884561702183519E-3    6.802610565632332E-3   -9.396819534364954E-3    6.819080772237027E-3   -9.417212979354063E-3    9.934279311290765E-1    8.945962740892583E-3
 1.754996358533718E5     9.932646816474365E-1    8.799359566130654E-3    6.794146325958558E-3   -9.337845291159321E-3    6.814726544041510E-3   -9.359289661065258E-3    9.933917209022285E-1    8.877369389942658E-3
 1.768386739694722E5     9.932411140057393E-1    8.741400238867745E-3    6.785526199892787E-3   -9.281312917664902E-3    6.806867042989388E-3   -9.299085069590755E-3    9.934520155327491E-1    8.818019698612472E-3
 1.781879287624771E5     9.932307708231511E-1    8.680378414988345E-3    6.783131818112941E-3   -9.222366011109305E-3    6.805119780123150E-3   -9.242425514801899E-3    9.934649803563069E-1    8.765916922158758E-3
 1.795474781842276E5     9.932634938207316E-1    8.629173094163613E-3    6.772534024802730E-3   -9.161410157665835E-3    6.791689493742484E-3   -9.183546415937252E-3    9.934123933964024E-1    8.704891063800973E-3
 1.809174007813277E5     9.932637587703994E-1    8.567996468344592E-3    6.768138309632993E-3   -9.106690716296701E-3    6.784577670386385E-3   -9.126581098021795E-3    9.934473130711601E-1    8.645689657668243E-3
 1.822977756996804E5     9.932478682686317E-1    8.500608662829433E-3    6.762156193919844E-3   -9.052045569101828E-3    6.780107450241503E-3   -9.069411398961820E-3    9.934350814989161E-1    8.594540601623618E-3
 1.836886826890609E5     9.932742599101659E-1    8.442437370780265E-3    6.753332554375944E-3   -8.995343653816266E-3    6.769333801598648E-3   -9.017924954017948E-3    9.934339976770052E-1    8.522195338459203E-3
 1.850902021077247E5     9.932749530375850E-1    8.385247886107339E-3    6.744179940153958E-3   -8.936803893473989E-3    6.764038052164096E-3   -8.957500979461212E-3    9.934586026039749E-1    8.470937394087222E-3
 1.865024149270491E5     9.932902611454939E-1    8.318624025241621E-3    6.738485646204983E-3   -8.885566191649935E-3    6.757640458660405E-3   -8.901187883665965E-3    9.934629934720312E-1    8.403969709849010E-3
 1.879254027362132E5     9.933351743685190E-1    8.276900154289129E-3    6.730036086620953E-3   -8.827715908937168E-3    6.748184319698985E-3   -8.845411118397766E-3    9.934861714401263E-1    8.335927621501277E-3
 1.893592477469092E5     9.933686217135871E-1    8.210719825600525E-3    6.744790069775687E-3   -8.772607242384585E-3    6.730417224156755E-3   -8.784771035108023E-3    9.934929803781568E-1    8.274266626639184E-3
 1.908040327980933E5     9.933365367497130E-1    8.168932892740410E-3    6.717990267267654E-3   -8.716790246731233E-3    6.736043024633258E-3   -8.739669931768035E-3    9.935497601879020E-1    8.222445614133904E-3
 1.922598413607715E5     9.933299681978072E-1    8.083362828743675E-3    6.710300141877370E-3   -8.668484474628197E-3    6.727175344249961E-3   -8.687477614063644E-3    9.935542523431274E-1    8.166155200747682E-3
 1.937267575428232E5     9.933548022103941E-1    8.039168563981902E-3    6.702075053387250E-3   -8.612269818837335E-3    6.720226271779265E-3   -8.632769448890470E-3    9.935397444970787E-1    8.097834025021476E-3
 1.952048660938581E5     9.933584800032027E-1    7.986708973754281E-3    6.696798346463763E-3   -8.557962728407580E-3    6.712226636867231E-3   -8.579657885165282E-3    9.935503438458911E-1    8.034148858419800E-3
 1.966942524101142E5     9.933280801137627E-1    7.925889584466342E-3    6.688532603653224E-3   -8.506952425933634E-3    6.706779271287580E-3   -8.525638230347818E-3    9.935613894559161E-1    7.990959730261893E-3
 1.981950025393913E5     9.933325331827190E-1    7.876771624563716E-3    6.680386509774877E-3   -8.455236571392254E-3    6.699035544169234E-3   -8.474015846647863E-3    9.935387140968982E-1    7.943882375546685E-3
