#  HZ   S   RI   R     50.00 
! Rohde & Schwarz Vector Network Analyzer 
! Rohde-Schwarz,ZNLE6-2Port,1323001256200024,1.71.1.10-23.02.1.238
! Created: UTC 4/7/2025, 5:02:11 AM
! freq[Hz]                re:S11                  im:S11                  re:S21                  im:S21                  re:S12                  im:S12                  re:S22                  im:S22
 1.000000000000000E5     9.933749580840624E-1    1.418087219122620E-2    6.789172301900068E-3   -1.443463473236431E-2    6.810638303845038E-3   -1.447020950602610E-2    9.934120118884872E-1    1.414425760759988E-2
 1.007629862646662E5     9.933947373495999E-1    1.403648897161647E-2    6.783027321061143E-3   -1.433521558822128E-2    6.803695840289083E-3   -1.436705756208223E-2    9.933962606627547E-1    1.404140681462968E-2
 1.015317940097331E5     9.933939288289025E-1    1.394674931173118E-2    6.781821275867118E-3   -1.423333164319370E-2    6.800804006743672E-3   -1.426360499773817E-2    9.934069464272881E-1    1.392758891188161E-2
 1.023064676522963E5     9.933984932132840E-1    1.384134685797467E-2    6.774659245280245E-3   -1.413322340007257E-2    6.792495070632640E-3   -1.416860910208035E-2    9.934129702039305E-1    1.382508556612934E-2
 1.030870519483485E5     9.933703747816106E-1    1.373988312495575E-2    6.767476186023637E-3   -1.403169628546723E-2    6.790262354531402E-3   -1.406781892153910E-2    9.934042573910840E-1    1.372041901386581E-2
 1.038735919953636E5     9.933553841074135E-1    1.361257506151266E-2    6.763643677167396E-3   -1.393523389528045E-2    6.783473506453386E-3   -1.396722958689923E-2    9.934064921358192E-1    1.362826468348887E-2
 1.046661332349037E5     9.933842264217183E-1    1.352891170303923E-2    6.761550870162344E-3   -1.383994281136970E-2    6.780036795540609E-3   -1.387092334698303E-2    9.933861699171043E-1    1.353386976430308E-2
 1.054647214552430E5     9.933428461139957E-1    1.340846144549368E-2    6.754690168512998E-3   -1.374323124703975E-2    6.773498529222322E-3   -1.377374328213002E-2    9.934182430489721E-1    1.343525584357055E-2
 1.062694027940149E5     9.933673904828936E-1    1.330533047903109E-2    6.745291811193571E-3   -1.364501785442356E-2    6.766630891973506E-3   -1.368275737847344E-2    9.934074259068543E-1    1.333664909509348E-2
 1.070802237408760E5     9.933954537949646E-1    1.321846188769663E-2    6.743613478486058E-3   -1.355150536396594E-2    6.761097304400853E-3   -1.358320797846108E-2    9.934177581206671E-1    1.324977947481059E-2
 1.078972311401927E5     9.933959525599297E-1    1.312484913945217E-2    6.742484920131272E-3   -1.345896270476137E-2    6.757215715110943E-3   -1.348962076535910E-2    9.934225191839170E-1    1.313526819413135E-2
 1.087204721937475E5     9.933703920316047E-1    1.302363290799638E-2    6.735574055832981E-3   -1.336230629973458E-2    6.750694501410207E-3   -1.339339773792462E-2    9.934378228858086E-1    1.307426588862738E-2
 1.095499944634658E5     9.934019764300916E-1    1.290866403241709E-2    6.727603031840876E-3   -1.327135244273140E-2    6.745350161536675E-3   -1.329979850926199E-2    9.934179023213530E-1    1.295584135223764E-2
 1.103858458741646E5     9.934184948269942E-1    1.281636254625361E-2    6.723065729762144E-3   -1.317832333449699E-2    6.738796040720642E-3   -1.320776894583688E-2    9.934489423461573E-1    1.286470888368184E-2
 1.112280747163201E5     9.934139623897382E-1    1.272341514542517E-2    6.715902634185852E-3   -1.308875794728000E-2    6.735627191985225E-3   -1.312098893876991E-2    9.934567472133969E-1    1.276595564656773E-2
 1.120767296488583E5     9.934169450652390E-1    1.263205790690691E-2    6.711273135977935E-3   -1.299839366443384E-2    6.730558097464361E-3   -1.302549942567098E-2    9.934648091341426E-1    1.267028692819434E-2
 1.129318597019661E5     9.934002048195346E-1    1.254763889821937E-2    6.703851962024239E-3   -1.291089208104603E-2    6.724385049628205E-3   -1.293679939512208E-2    9.934612342528540E-1    1.255515462973616E-2
 1.137935142799240E5     9.934179669164712E-1    1.244668800352155E-2    6.700607146025019E-3   -1.281785694464113E-2    6.719689304405595E-3   -1.284859275707982E-2    9.934722716254692E-1    1.249307886727167E-2
 1.146617431639607E5     9.934159282975182E-1    1.234757083308055E-2    6.692933896526764E-3   -1.273302769253772E-2    6.711810616608665E-3   -1.275801111059281E-2    9.934942904992299E-1    1.238438697037789E-2
 1.155365965151286E5     9.934565854270317E-1    1.228489666321768E-2    6.693121854607591E-3   -1.264276238194693E-2    6.710862133385511E-3   -1.267022612219414E-2    9.935132645497321E-1    1.231493984045199E-2
 1.164181248772018E5     9.934208758271397E-1    1.217697458468620E-2    6.690949290049636E-3   -1.255693355529043E-2    6.703425345673360E-3   -1.258766478072829E-2    9.934986484525093E-1    1.222619321287526E-2
 1.173063791795965E5     9.934386601576057E-1    1.209616974136632E-2    6.679785105498383E-3   -1.247112279014159E-2    6.698411131842973E-3   -1.249887718597419E-2    9.935173977996734E-1    1.213377805801061E-2
 1.182014107403141E5     9.934450990101278E-1    1.201229904356154E-2    6.678358990608901E-3   -1.238695987253458E-2    6.693853333565251E-3   -1.241266362175959E-2    9.935046270626213E-1    1.204173341521796E-2
 1.191032712689044E5     9.934368845151328E-1    1.190445982989779E-2    6.669624659526094E-3   -1.230349250558936E-2    6.692201875460141E-3   -1.232908730962460E-2    9.935449710438181E-1    1.196748806240539E-2
 1.200120128694542E5     9.934003302618016E-1    1.181584976517522E-2    6.662745807556738E-3   -1.221691713546191E-2    6.681720621041813E-3   -1.224046105858183E-2    9.935153742659389E-1    1.187351243550702E-2
 1.209276880435975E5     9.934033076956396E-1    1.174503218973207E-2    6.660341301141609E-3   -1.213578996970245E-2    6.676896168816095E-3   -1.216303456666075E-2    9.935329119662288E-1    1.179098990469276E-2
 1.218503496935483E5     9.934578622110113E-1    1.168299997832460E-2    6.656881944030982E-3   -1.205191399266359E-2    6.671611404903213E-3   -1.208096423403681E-2    9.935315834991110E-1    1.170920754961473E-2
 1.227800511251578E5     9.934569799143605E-1    1.159482259253990E-2    6.650118642031317E-3   -1.196500841660371E-2    6.665257927960388E-3   -1.199817539160417E-2    9.935150886258834E-1    1.160650600231887E-2
 1.237168460509929E5     9.934481212342677E-1    1.149485839411721E-2    6.644586528620744E-3   -1.188701014228761E-2    6.659957433512800E-3   -1.191532271710300E-2    9.935221439692455E-1    1.153067432286078E-2
 1.246607885934402E5     9.934165500034902E-1    1.139648406149687E-2    6.638061651187529E-3   -1.180701116119190E-2    6.656023067878830E-3   -1.183280996584945E-2    9.935253251233049E-1    1.146953584256912E-2
 1.256119332878327E5     9.934363239817124E-1    1.132014341660591E-2    6.633188708396216E-3   -1.172792162530179E-2    6.652258039729191E-3   -1.175520269616539E-2    9.935286212638239E-1    1.136022129497198E-2
 1.265703350856002E5     9.934471025314018E-1    1.123430597483520E-2    6.629135934461955E-3   -1.164600380839381E-2    6.645993508555023E-3   -1.167653422401723E-2    9.935609026789984E-1    1.128142574865434E-2
 1.275360493574453E5     9.934351645357362E-1    1.115236470339558E-2    6.620697256502176E-3   -1.156768385042264E-2    6.642275106382891E-3   -1.159319754169603E-2    9.935462332786846E-1    1.119957751483215E-2
 1.285091318965405E5     9.934713176537278E-1    1.108388784631028E-2    6.614410814066574E-3   -1.149140949774522E-2    6.631509247176680E-3   -1.151682966479237E-2    9.935603925269757E-1    1.112286802546356E-2
 1.294896389217529E5     9.934515205261595E-1    1.098981438228783E-2    6.612041966055171E-3   -1.141235823243731E-2    6.630200240617128E-3   -1.143924257776137E-2    9.935610991706697E-1    1.105730801793807E-2
 1.304776270808914E5     9.934353233917408E-1    1.089734763610431E-2    6.608662372069674E-3   -1.133282069179666E-2    6.625894094317186E-3   -1.136402020608263E-2    9.935579825107730E-1    1.098264583892006E-2
 1.314731534539810E5     9.934429092236873E-1    1.081865848545338E-2    6.601426000017079E-3   -1.125993742071465E-2    6.620891332821562E-3   -1.128743083824637E-2    9.935496446500456E-1    1.088789105855972E-2
 1.324762755565583E5     9.934750992453039E-1    1.073218445246807E-2    6.598516583712585E-3   -1.118509948520695E-2    6.611901993521728E-3   -1.120893732726757E-2    9.935596976555717E-1    1.083876571458466E-2
 1.334870513429962E5     9.934370602512396E-1    1.067969723124052E-2    6.591733346539993E-3   -1.111003454857966E-2    6.608851517443360E-3   -1.113445647873586E-2    9.936183597700702E-1    1.074190955663974E-2
 1.345055392098512E5     9.934743842247643E-1    1.060706409683806E-2    6.587937726793658E-3   -1.103668797732885E-2    6.604917888561115E-3   -1.106075217039409E-2    9.935949971122258E-1    1.066409869875199E-2
 1.355317979992373E5     9.934963518019286E-1    1.051949178026538E-2    6.583852505818229E-3   -1.096589999628550E-2    6.601047651400464E-3   -1.098978297484185E-2    9.936089500115097E-1    1.060743100446724E-2
 1.365658870022265E5     9.934842240417348E-1    1.043680113717283E-2    6.579696341231428E-3   -1.089217072831584E-2    6.593028919331595E-3   -1.091288873077316E-2    9.935833051834796E-1    1.051121881218803E-2
 1.376078659622731E5     9.935114057534016E-1    1.037814581391397E-2    6.569388067202330E-3   -1.081747119704956E-2    6.587586378186511E-3   -1.083826422815587E-2    9.935610054169740E-1    1.043412330241769E-2
 1.386577950786655E5     9.934864305727846E-1    1.031134816921554E-2    6.566831867400748E-3   -1.074414616442670E-2    6.580280575182893E-3   -1.076899091193450E-2    9.935641095384177E-1    1.036862723679330E-2
 1.397157350100044E5     9.935080195505005E-1    1.024342023140795E-2    6.562512835245974E-3   -1.067120270970920E-2    6.578014821323067E-3   -1.069739577854263E-2    9.935847333729643E-1    1.028617564700983E-2
 1.407817468777081E5     9.935133477335998E-1    1.015285222014582E-2    6.554949808430867E-3   -1.060067940378749E-2    6.570291670765724E-3   -1.062547485119092E-2    9.936053705425530E-1    1.021385279641913E-2
 1.418558922695422E5     9.935018914922209E-1    1.008726723094357E-2    6.547922156291150E-3   -1.053323633324687E-2    6.565399628066726E-3   -1.055740281997699E-2    9.936037738717598E-1    1.014527988470248E-2
 1.429382332431784E5     9.935064106356309E-1    1.001793822884813E-2    6.544381732757183E-3   -1.046324489722623E-2    6.561101462730698E-3   -1.048231531700646E-2    9.936133483182440E-1    1.007101131075142E-2
 1.440288323297804E5     9.935133260942891E-1    9.951675948778004E-3    6.536464026356055E-3   -1.039149737443407E-2    6.555548914423819E-3   -1.041798551136898E-2    9.936324045377793E-1    9.998553473423592E-3
 1.451277525376154E5     9.934917965595570E-1    9.870319416030891E-3    6.532545222611359E-3   -1.032464462078186E-2    6.548879516338164E-3   -1.034836400759805E-2    9.936693210371080E-1    9.937460355429030E-3
 1.462350573556962E5     9.935199355229842E-1    9.804526425872264E-3    6.527578438017439E-3   -1.025900567004727E-2    6.542810177686030E-3   -1.028057776561269E-2    9.936764887585938E-1    9.867739572843469E-3
 1.473508107574468E5     9.935106660330316E-1    9.753110385382246E-3    6.520454440429310E-3   -1.018707917511017E-2    6.538286948618762E-3   -1.021206892677536E-2    9.936725289547109E-1    9.797042920482529E-3
 1.484750772044004E5     9.935251563651872E-1    9.666102192603889E-3    6.515868014379948E-3   -1.012385299116583E-2    6.532584806194152E-3   -1.014529331090764E-2    9.936574910474624E-1    9.730694480873676E-3
 1.496079216499225E5     9.935160451084772E-1    9.602090820196712E-3    6.512555893387900E-3   -1.005597754564650E-2    6.527057743338946E-3   -1.008123784828827E-2    9.936464325972163E-1    9.659568114331749E-3
 1.507494095429637E5     9.935214548791220E-1    9.534635753186818E-3    6.504446811792360E-3   -9.991959820749336E-3    6.520556520547507E-3   -1.001460088775815E-2    9.936562149085457E-1    9.587563163268798E-3
 1.518996068318418E5     9.935555153636590E-1    9.459268180722959E-3    6.498141578018431E-3   -9.925504770304806E-3    6.516603671762346E-3   -9.950664450796358E-3    9.936994274897544E-1    9.523621787667226E-3
 1.530585799680507E5     9.935582112853731E-1    9.376805955076504E-3    6.492330167931428E-3   -9.862129393601779E-3    6.508732874576032E-3   -9.881943555041446E-3    9.937032326501052E-1    9.446453098477020E-3
 1.542263959101001E5     9.935307413804900E-1    9.298173102182710E-3    6.488915987648005E-3   -9.796762665743981E-3    6.502630803840183E-3   -9.819372248550940E-3    9.936595471693546E-1    9.402002608620926E-3
 1.554031221273835E5     9.935582655814778E-1    9.253631481743687E-3    6.479374618021340E-3   -9.731193678946039E-3    6.496549492267707E-3   -9.755120637495923E-3    9.936676307919869E-1    9.317298932380728E-3
 1.565888266040779E5     9.935600792296805E-1    9.195192186752006E-3    6.479118874694713E-3   -9.671051299307270E-3    6.491711085796712E-3   -9.692794268028049E-3    9.936872155659067E-1    9.235805848046834E-3
 1.577835778430689E5     9.935790740963023E-1    9.125777631376446E-3    6.469243336033988E-3   -9.607970576770378E-3    6.488458907340055E-3   -9.628971498005123E-3    9.937039548183247E-1    9.176025507142898E-3
 1.589874448699104E5     9.935522326888386E-1    9.076438439456073E-3    6.466213031049409E-3   -9.547405672979988E-3    6.481888172246731E-3   -9.567544774848818E-3    9.937100733007860E-1    9.106868998590945E-3
 1.602004972368116E5     9.935945798820738E-1    9.003802411505028E-3    6.457674949559262E-3   -9.485663523292083E-3    6.476250739687239E-3   -9.503547230308145E-3    9.937661361254448E-1    9.037277720531943E-3
 1.614228050266550E5     9.936109139514206E-1    8.932681733562438E-3    6.454630243718975E-3   -9.422773618565711E-3    6.470929530939966E-3   -9.441655008030923E-3    9.937751245941105E-1    8.973994935256670E-3
 1.626544388570473E5     9.936141971089267E-1    8.869749725047449E-3    6.447057779777626E-3   -9.360899045091017E-3    6.462578794964776E-3   -9.383995135081997E-3    9.937267446892980E-1    8.904277938552516E-3
 1.638954698843964E5     9.936194672423810E-1    8.813770519956986E-3    6.440035441187286E-3   -9.301597010391077E-3    6.458184762347648E-3   -9.323398583298221E-3    9.937561322205917E-1    8.856042317225926E-3
 1.651459698080244E5     9.936137792739500E-1    8.766878039996434E-3    6.434443025044114E-3   -9.239810492095912E-3    6.455017384328131E-3   -9.263395520730931E-3    9.937768554687286E-1    8.776670358590513E-3
 1.664060108743095E5     9.936545135960960E-1    8.700729218257951E-3    6.429065698374352E-3   -9.185502040969712E-3    6.443526919863200E-3   -9.203242650471616E-3    9.937653938381984E-1    8.728338959390973E-3
 1.676756658808590E5     9.936423014715551E-1    8.632885098870837E-3    6.420906490688183E-3   -9.122553633365978E-3    6.439042254747561E-3   -9.146558680825390E-3    9.937485561078605E-1    8.664867317945503E-3
 1.689550081807175E5     9.936112415383681E-1    8.557948712592368E-3    6.414112678318941E-3   -9.063026821959228E-3    6.433125625833242E-3   -9.088417260189217E-3    9.937655012196122E-1    8.594778538766020E-3
 1.702441116866020E5     9.936549154872482E-1    8.504646332557918E-3    6.408966129114698E-3   -9.008202693976956E-3    6.426411496746383E-3   -9.028134329507753E-3    9.937848860243251E-1    8.559478775725373E-3
 1.715430508751738E5     9.936481926089891E-1    8.438001665697130E-3    6.401661665907883E-3   -8.946720755071387E-3    6.420728690223498E-3   -8.968501996660857E-3    9.937639418321841E-1    8.482345187540079E-3
 1.728519007913403E5     9.936448533485656E-1    8.380332577865177E-3    6.396850962964747E-3   -8.891046299962107E-3    6.413453545751078E-3   -8.916699244558384E-3    9.937671449545388E-1    8.424364134424102E-3
 1.741707370525927E5     9.936493623876476E-1    8.322026006302009E-3    6.391172473864602E-3   -8.838765653121120E-3    6.410240032575916E-3   -8.856015816250954E-3    9.937892311849220E-1    8.360801412696572E-3
 1.754996358533718E5     9.936543108445239E-1    8.265193858727440E-3    6.386020862172814E-3   -8.778574820259667E-3    6.401883451125897E-3   -8.802848938127087E-3    9.937530609923748E-1    8.298819334381554E-3
 1.768386739694722E5     9.936432039467724E-1    8.199160468448140E-3    6.377638853288754E-3   -8.726960302209718E-3    6.397144548998827E-3   -8.744143725710146E-3    9.938118702389970E-1    8.256194320909330E-3
 1.781879287624771E5     9.936472711034146E-1    8.139800309592013E-3    6.367850947336932E-3   -8.671220067304416E-3    6.388845181042515E-3   -8.689540999939786E-3    9.938331340496032E-1    8.203433492009488E-3
 1.795474781842276E5     9.936830503769843E-1    8.079987223111615E-3    6.363376981685964E-3   -8.614677144864018E-3    6.380304042536779E-3   -8.635408334906215E-3    9.937876025347210E-1    8.141212293583494E-3
 1.809174007813277E5     9.937014411928178E-1    8.025129825950572E-3    6.359256564970507E-3   -8.560507263087144E-3    6.375107832542675E-3   -8.580048664408519E-3    9.937983260525444E-1    8.088187775228036E-3
 1.822977756996804E5     9.936573508398679E-1    7.954475252875322E-3    6.352593558799585E-3   -8.506663548010662E-3    6.372105460353882E-3   -8.527154384480725E-3    9.938289931955249E-1    8.029304377765029E-3
 1.836886826890609E5     9.936941103494704E-1    7.907857013223126E-3    6.348424294180813E-3   -8.454864700703210E-3    6.362615925704321E-3   -8.471851890315676E-3    9.938274788249225E-1    7.963676571673375E-3
 1.850902021077247E5     9.936882869184667E-1    7.855648516525943E-3    6.338653854374883E-3   -8.403440820998953E-3    6.356002797243254E-3   -8.417172330197061E-3    9.938486971157690E-1    7.914125912300516E-3
 1.865024149270491E5     9.936843256255498E-1    7.785043845939139E-3    6.331853696912884E-3   -8.346676424905429E-3    6.349297627269091E-3   -8.370033762105437E-3    9.938620479376002E-1    7.869596338112128E-3
 1.879254027362132E5     9.937262479720964E-1    7.740668469336966E-3    6.326671083720139E-3   -8.295829547871581E-3    6.342683573396545E-3   -8.318124407439719E-3    9.938677625498104E-1    7.792094160397041E-3
 1.893592477469092E5     9.937363311491715E-1    7.684789188105158E-3    6.335285864401997E-3   -8.255068648347992E-3    6.331155341547161E-3   -8.272437053826380E-3    9.939046177920570E-1    7.709211319534614E-3
 1.908040327980933E5     9.937310154580551E-1    7.645102533505810E-3    6.313197809092690E-3   -8.193767298084530E-3    6.329813437256127E-3   -8.214449749357601E-3    9.938906464294712E-1    7.706088439921820E-3
 1.922598413607715E5     9.937366666699954E-1    7.567320938468690E-3    6.306573508805100E-3   -8.140398596448271E-3    6.320291367763530E-3   -8.163150866656149E-3    9.938924807060238E-1    7.634684367352555E-3
 1.937267575428232E5     9.937530404672106E-1    7.512041687473210E-3    6.299450166068205E-3   -8.093677539072064E-3    6.315479989721388E-3   -8.111073687698311E-3    9.938823480565394E-1    7.587740686954987E-3
 1.952048660938581E5     9.937887560601057E-1    7.476300582579946E-3    6.293376120395378E-3   -8.043543368218463E-3    6.308067790173805E-3   -8.061356671437434E-3    9.938880201536171E-1    7.509907411368698E-3
 1.966942524101142E5     9.937744728316718E-1    7.401561121066990E-3    6.288751356713625E-3   -7.993903855932330E-3    6.300529387377935E-3   -8.013488593724225E-3    9.939120875107509E-1    7.470865905128507E-3
 1.981950025393913E5     9.937656855941419E-1    7.374513330065362E-3    6.280508256412744E-3   -7.943825630775477E-3    6.295190872374725E-3   -7.962458543324126E-3    9.938895051564477E-1    7.428039873049591E-3
