#  HZ   S   RI   R     50.00 
! Rohde & Schwarz Vector Network Analyzer 
! Rohde-Schwarz,ZNLE6-2Port,1323001256200024,1.71.1.10-23.02.1.238
! Created: UTC 4/7/2025, 4:52:10 AM
! freq[Hz]                re:S11                  im:S11                  re:S21                  im:S21                  re:S12                  im:S12                  re:S22                  im:S22
 1.000000000000000E5     9.937762651354239E-1    1.335025372558316E-2    6.385286624098420E-3   -1.360326162534631E-2    6.406302211090892E-3   -1.363690885715101E-2    9.937702529782477E-1    1.331504602179420E-2
 1.007629862646662E5     9.937849795910536E-1    1.322342437644193E-2    6.384780428714491E-3   -1.351107697991146E-2    6.400922915318674E-3   -1.354240632612595E-2    9.937462141986296E-1    1.321934092328744E-2
 1.015317940097331E5     9.937925708506132E-1    1.313129715948061E-2    6.377194417016972E-3   -1.341772640329229E-2    6.392735784597208E-3   -1.344599825478280E-2    9.937452610167413E-1    1.310343386107027E-2
 1.023064676522963E5     9.937930492413434E-1    1.302500703206553E-2    6.370828625253711E-3   -1.331839918765087E-2    6.388830895462610E-3   -1.335133950822657E-2    9.937527333537277E-1    1.301361865490271E-2
 1.030870519483485E5     9.937774014768150E-1    1.293107267712012E-2    6.366641938556423E-3   -1.323018404341209E-2    6.389029994326938E-3   -1.325768879038973E-2    9.937545009786739E-1    1.290687747593602E-2
 1.038735919953636E5     9.937946447803584E-1    1.281638536621955E-2    6.363593017406237E-3   -1.313545868652696E-2    6.380055124671283E-3   -1.316534059090016E-2    9.937512016614510E-1    1.282149665591208E-2
 1.046661332349037E5     9.937468524390128E-1    1.273301690150197E-2    6.357562943936702E-3   -1.304444871559990E-2    6.373544842945588E-3   -1.306895670742768E-2    9.937419878629802E-1    1.271888104545742E-2
 1.054647214552430E5     9.937259436288424E-1    1.262624229466454E-2    6.350254472552100E-3   -1.295282431198256E-2    6.369815084344007E-3   -1.298275870656987E-2    9.937794863016909E-1    1.262561384343214E-2
 1.062694027940149E5     9.937491977829399E-1    1.253720909288784E-2    6.349170051274919E-3   -1.285802420263990E-2    6.365464494172820E-3   -1.288832118784936E-2    9.937525114382880E-1    1.255482223869291E-2
 1.070802237408760E5     9.938085132795645E-1    1.243222694513484E-2    6.346243808205935E-3   -1.277227125515735E-2    6.362635944055604E-3   -1.279771340386461E-2    9.937534781599046E-1    1.245081905067095E-2
 1.078972311401927E5     9.937933498404991E-1    1.234321044505553E-2    6.340696189564206E-3   -1.268284228144202E-2    6.357282739448019E-3   -1.271063071753830E-2    9.937626248123831E-1    1.235093024362670E-2
 1.087204721937475E5     9.937937795948877E-1    1.225458090382380E-2    6.334961005602866E-3   -1.259330388141810E-2    6.352477634557281E-3   -1.262021697596841E-2    9.938072619836360E-1    1.227846038381199E-2
 1.095499944634658E5     9.937925631149952E-1    1.215218037554348E-2    6.332006949453486E-3   -1.250569212505389E-2    6.345114052407595E-3   -1.253904176988059E-2    9.937429721307386E-1    1.218224103572751E-2
 1.103858458741646E5     9.937932214892902E-1    1.207513894505918E-2    6.322836874128437E-3   -1.242280297904801E-2    6.340014795560256E-3   -1.244621805253206E-2    9.938172799433312E-1    1.208174543917604E-2
 1.112280747163201E5     9.938147054875029E-1    1.199171017608336E-2    6.316669856193847E-3   -1.233258905633401E-2    6.335485992692225E-3   -1.236417195581244E-2    9.937988308539070E-1    1.200256261128191E-2
 1.120767296488583E5     9.938215629462942E-1    1.189325912198423E-2    6.315786506309061E-3   -1.224978205160944E-2    6.329788036586673E-3   -1.227762760805050E-2    9.938126859526355E-1    1.190077248547350E-2
 1.129318597019661E5     9.938285351937355E-1    1.179951602033959E-2    6.309573590958645E-3   -1.216415167758291E-2    6.327170267040248E-3   -1.219102649400960E-2    9.937758578339413E-1    1.180155906160853E-2
 1.137935142799240E5     9.938764921929186E-1    1.171410655364463E-2    6.307304437325409E-3   -1.207484810834798E-2    6.322443775468568E-3   -1.210812357882386E-2    9.937963747848776E-1    1.173815423395830E-2
 1.146617431639607E5     9.938413651146336E-1    1.162693542085941E-2    6.301381188496227E-3   -1.199549559347801E-2    6.314537732482899E-3   -1.201958215342873E-2    9.937856455301102E-1    1.165166229261046E-2
 1.155365965151286E5     9.938455924056400E-1    1.157111583519811E-2    6.297821599929868E-3   -1.191455170710904E-2    6.311850859545037E-3   -1.194126568266510E-2    9.938051539585279E-1    1.157081366070722E-2
 1.164181248772018E5     9.938273656090096E-1    1.146026337468725E-2    6.289964497874436E-3   -1.183142048763471E-2    6.303793811523402E-3   -1.186140251436217E-2    9.938054538486415E-1    1.147495193875970E-2
 1.173063791795965E5     9.938346350065616E-1    1.138420707752326E-2    6.288717225595137E-3   -1.174991644607157E-2    6.303546654548628E-3   -1.177688250051696E-2    9.938144093629411E-1    1.140168885462076E-2
 1.182014107403141E5     9.938186195369063E-1    1.130652574344769E-2    6.282917021106986E-3   -1.167018243129229E-2    6.299503536142009E-3   -1.169598262592789E-2    9.938272760318209E-1    1.132646444886450E-2
 1.191032712689044E5     9.938098714486835E-1    1.119161064142936E-2    6.280601766500341E-3   -1.158903958745636E-2    6.293414659962256E-3   -1.161993469591216E-2    9.938557642263068E-1    1.123826079303058E-2
 1.200120128694542E5     9.938153546104581E-1    1.112611466220083E-2    6.271707826455468E-3   -1.151030217021911E-2    6.289333765961787E-3   -1.153525507890884E-2    9.938340492359101E-1    1.115802081136421E-2
 1.209276880435975E5     9.938187806663773E-1    1.105196246784717E-2    6.269230126323478E-3   -1.143007771974127E-2    6.282879246366496E-3   -1.145820598320162E-2    9.938665410542866E-1    1.108612860846328E-2
 1.218503496935483E5     9.938657692212916E-1    1.097419658932723E-2    6.261094524321259E-3   -1.135348134342099E-2    6.277835915633574E-3   -1.138039718724431E-2    9.938611134813105E-1    1.100260316527735E-2
 1.227800511251578E5     9.938359930786473E-1    1.089342641117791E-2    6.261501590449318E-3   -1.127602014562187E-2    6.272406756503139E-3   -1.130209419551439E-2    9.938461525717918E-1    1.090849219385041E-2
 1.237168460509929E5     9.938381623840720E-1    1.079928438529488E-2    6.253601724627837E-3   -1.119824725314006E-2    6.267150517185642E-3   -1.122715022640844E-2    9.938679937589057E-1    1.084929543850759E-2
 1.246607885934402E5     9.938387050493303E-1    1.072611791275048E-2    6.249054008752870E-3   -1.111954714322012E-2    6.261416397987569E-3   -1.115161766375520E-2    9.938703507771626E-1    1.076805079102384E-2
 1.256119332878327E5     9.938848842635036E-1    1.064794152854814E-2    6.246705233609538E-3   -1.104657594300490E-2    6.259362235975677E-3   -1.107612344634689E-2    9.938738991559779E-1    1.068505744146007E-2
 1.265703350856002E5     9.938841588107056E-1    1.056063827172955E-2    6.239446627534215E-3   -1.097027201421657E-2    6.256247953405326E-3   -1.099836436054532E-2    9.938945418029386E-1    1.060414830085534E-2
 1.275360493574453E5     9.938856475704694E-1    1.048698126054558E-2    6.232849888871132E-3   -1.089604107832889E-2    6.247828473146333E-3   -1.092341406429898E-2    9.939105688934717E-1    1.053142054297342E-2
 1.285091318965405E5     9.939176819065820E-1    1.041440444163657E-2    6.230358948077024E-3   -1.082497559847566E-2    6.246656381332166E-3   -1.085181611960426E-2    9.938833762888071E-1    1.045852308983720E-2
 1.294896389217529E5     9.938607297024146E-1    1.031720254290395E-2    6.226771609800477E-3   -1.074920026254790E-2    6.239296179358137E-3   -1.077536266787438E-2    9.939230372501233E-1    1.038749961731286E-2
 1.304776270808914E5     9.938958883112936E-1    1.025294989846525E-2    6.224575549513714E-3   -1.067844486146355E-2    6.235388643098335E-3   -1.070310977955098E-2    9.939072502423747E-1    1.031138220586088E-2
 1.314731534539810E5     9.939073857739656E-1    1.017620816633288E-2    6.215256670714361E-3   -1.060569657308264E-2    6.229859085844245E-3   -1.063462475351807E-2    9.939081913971459E-1    1.022334705020321E-2
 1.324762755565583E5     9.939194137111812E-1    1.010507953419606E-2    6.207789375387985E-3   -1.053538178298716E-2    6.225028934381556E-3   -1.056014743158222E-2    9.939007222627549E-1    1.016630047348517E-2
 1.334870513429962E5     9.939001573135693E-1    1.004417152584939E-2    6.203755944290346E-3   -1.046306693713365E-2    6.222642430114388E-3   -1.048991141890836E-2    9.939076422399087E-1    1.009480962577598E-2
 1.345055392098512E5     9.939222579286711E-1    9.964056795676315E-3    6.200163509524329E-3   -1.039215747086810E-2    6.214982955429276E-3   -1.042159898602841E-2    9.939449335920285E-1    1.001826208960285E-2
 1.355317979992373E5     9.939413229513826E-1    9.909502232835460E-3    6.195563302053815E-3   -1.032039779959282E-2    6.210573946665033E-3   -1.034850667997007E-2    9.939249811317031E-1    9.965365495496366E-3
 1.365658870022265E5     9.939355204683861E-1    9.822315901256828E-3    6.190423660850070E-3   -1.025278426829281E-2    6.207746969792204E-3   -1.028027373580720E-2    9.939137190907452E-1    9.879477703507568E-3
 1.376078659622731E5     9.939514329066094E-1    9.754414890760781E-3    6.186827642752720E-3   -1.018753396712316E-2    6.200786725566599E-3   -1.021063016302315E-2    9.939401017169917E-1    9.808124835243893E-3
 1.386577950786655E5     9.939269889967565E-1    9.693577390477468E-3    6.181687549940114E-3   -1.011830474180467E-2    6.194347297502760E-3   -1.014239684101944E-2    9.939415902760265E-1    9.728068485595740E-3
 1.397157350100044E5     9.939396681469990E-1    9.629369206269783E-3    6.175698731118209E-3   -1.004832266679857E-2    6.190108006032266E-3   -1.007598839880006E-2    9.939827680474232E-1    9.656208646258760E-3
 1.407817468777081E5     9.939539646709509E-1    9.548772846797015E-3    6.167527429029194E-3   -9.981316061150963E-3    6.182571225770379E-3   -1.001142723153024E-2    9.940037894513525E-1    9.583482678819141E-3
 1.418558922695422E5     9.939421182516712E-1    9.486113048137684E-3    6.163685206730679E-3   -9.913808545681264E-3    6.183222691703920E-3   -9.944991981547985E-3    9.939735403891269E-1    9.524823743337844E-3
 1.429382332431784E5     9.939351774512715E-1    9.409587967095579E-3    6.158603735984717E-3   -9.848781920218349E-3    6.173296211262213E-3   -9.877806075340769E-3    9.939656786345276E-1    9.466779556996010E-3
 1.440288323297804E5     9.939171277297687E-1    9.352035939823439E-3    6.153314145499703E-3   -9.780633793128095E-3    6.173280697815193E-3   -9.809801697497811E-3    9.939965448705502E-1    9.403843290138004E-3
 1.451277525376154E5     9.939348142271847E-1    9.269801666473034E-3    6.150392745599313E-3   -9.721585703463315E-3    6.164168205556633E-3   -9.748218056578771E-3    9.940315715681043E-1    9.327082659318461E-3
 1.462350573556962E5     9.939605787586205E-1    9.198982910835268E-3    6.139313949321937E-3   -9.658773409604807E-3    6.159137888038055E-3   -9.682734808727450E-3    9.940288181678215E-1    9.267171670971814E-3
 1.473508107574468E5     9.939757308696531E-1    9.160642523876984E-3    6.137534466131429E-3   -9.591170369554265E-3    6.154293649829801E-3   -9.617975787852904E-3    9.940204740378479E-1    9.218085501819726E-3
 1.484750772044004E5     9.939861747634496E-1    9.074402642581901E-3    6.132403765888823E-3   -9.531113877147848E-3    6.152410859300385E-3   -9.553432088731266E-3    9.940041988647895E-1    9.122782233554316E-3
 1.496079216499225E5     9.939582296982260E-1    9.005069501725787E-3    6.129721546584066E-3   -9.465746086122386E-3    6.145221251008161E-3   -9.492459687182903E-3    9.940162584231028E-1    9.067903630277973E-3
 1.507494095429637E5     9.939458785271064E-1    8.944834963981104E-3    6.123972347999005E-3   -9.401256727544924E-3    6.138662893895449E-3   -9.429803448670971E-3    9.939908324124072E-1    9.008785794252386E-3
 1.518996068318418E5     9.939952443157489E-1    8.895395223536159E-3    6.117623338236505E-3   -9.343108517442127E-3    6.133420314005273E-3   -9.364859341247865E-3    9.940413798327216E-1    8.934673283140777E-3
 1.530585799680507E5     9.940056960662872E-1    8.826662035585331E-3    6.109884554286718E-3   -9.282066331157492E-3    6.127148892110738E-3   -9.305564626468263E-3    9.940584905731102E-1    8.861934403718663E-3
 1.542263959101001E5     9.939797674048969E-1    8.739218455580847E-3    6.106368505700155E-3   -9.218969328549339E-3    6.124455512625406E-3   -9.245324480162005E-3    9.940488990721780E-1    8.814439456704112E-3
 1.554031221273835E5     9.939874144165917E-1    8.677048781955785E-3    6.101948138198387E-3   -9.154321311541447E-3    6.118028222501639E-3   -9.184810137735065E-3    9.940398708654017E-1    8.738349127150272E-3
 1.565888266040779E5     9.939986280675576E-1    8.640342831488153E-3    6.094990365133990E-3   -9.099517463212277E-3    6.112378732224190E-3   -9.124340092645587E-3    9.940754432201425E-1    8.680035058372297E-3
 1.577835778430689E5     9.940001243466324E-1    8.570425183017032E-3    6.090158650753199E-3   -9.040882676934684E-3    6.105247795195019E-3   -9.064532368924939E-3    9.940169642514466E-1    8.614057662877532E-3
 1.589874448699104E5     9.939697886783997E-1    8.503982626261869E-3    6.082885560584173E-3   -8.978806916167531E-3    6.104420155539325E-3   -9.006627910237562E-3    9.940233325422119E-1    8.542971742102740E-3
 1.602004972368116E5     9.940031147546888E-1    8.448077476095625E-3    6.078534321960001E-3   -8.921700502945957E-3    6.097677246388091E-3   -8.946449775394350E-3    9.941320055748429E-1    8.486972513540261E-3
 1.614228050266550E5     9.940000749262656E-1    8.383578541275180E-3    6.072368778909658E-3   -8.865232998986399E-3    6.092926277560805E-3   -8.890670229141320E-3    9.941327726457689E-1    8.428870257208673E-3
 1.626544388570473E5     9.940165108905653E-1    8.323237046567868E-3    6.070234987692537E-3   -8.806444252234454E-3    6.086497790048986E-3   -8.831460094137090E-3    9.940983329042076E-1    8.367535909918565E-3
 1.638954698843964E5     9.940201986420731E-1    8.271945056154873E-3    6.063402459471425E-3   -8.749384260825612E-3    6.079139509045273E-3   -8.776627073881091E-3    9.940797010241484E-1    8.299035577803966E-3
 1.651459698080244E5     9.940382711029581E-1    8.214797453581153E-3    6.056173892085553E-3   -8.692131450133029E-3    6.073641556428306E-3   -8.718368667855147E-3    9.941014486335312E-1    8.254698830889142E-3
 1.664060108743095E5     9.940242413462755E-1    8.151581739710588E-3    6.051375926981466E-3   -8.638748859694029E-3    6.067343256887286E-3   -8.662870190429614E-3    9.941101488704982E-1    8.188613971807788E-3
 1.676756658808590E5     9.940613634965634E-1    8.088160496859700E-3    6.045011048183223E-3   -8.583149288918485E-3    6.062709239783546E-3   -8.608292895152509E-3    9.941233042930172E-1    8.143004731979467E-3
 1.689550081807175E5     9.940652062074176E-1    8.012644766869963E-3    6.041226949891514E-3   -8.523742374981774E-3    6.055730905773204E-3   -8.553496129176108E-3    9.941160141682213E-1    8.068843505170984E-3
 1.702441116866020E5     9.940629460398862E-1    7.962517528635240E-3    6.033759388584614E-3   -8.474743644446650E-3    6.047488065551526E-3   -8.496259652190728E-3    9.941287484081911E-1    8.025211000415313E-3
 1.715430508751738E5     9.940474111014588E-1    7.901075306171181E-3    6.029793421534573E-3   -8.417750899001554E-3    6.045397752810814E-3   -8.445105514229712E-3    9.941096718814826E-1    7.959949769403342E-3
 1.728519007913403E5     9.940845448154547E-1    7.855592873061194E-3    6.023176402834805E-3   -8.364878834986156E-3    6.041709134380438E-3   -8.388585390132037E-3    9.941520137173414E-1    7.898199179481749E-3
 1.741707370525927E5     9.940641913699635E-1    7.799308573935698E-3    6.019512801700106E-3   -8.313929970389938E-3    6.034056130040646E-3   -8.332689331335578E-3    9.941337275326414E-1    7.855762549766198E-3
 1.754996358533718E5     9.940524637384583E-1    7.733810229414610E-3    6.013407340106581E-3   -8.257595639491293E-3    6.028014106473762E-3   -8.279785692169953E-3    9.941207401890670E-1    7.785846757337994E-3
 1.768386739694722E5     9.940583420508911E-1    7.673819526147692E-3    6.004149909080410E-3   -8.203629249781123E-3    6.021664705744509E-3   -8.226748562448254E-3    9.941679022958304E-1    7.730034692687525E-3
 1.781879287624771E5     9.940588242842869E-1    7.615467899203423E-3    5.998614295484455E-3   -8.156594157737201E-3    6.015827002948750E-3   -8.177634026709632E-3    9.942044651404215E-1    7.694514489501494E-3
 1.795474781842276E5     9.940534726750294E-1    7.565603339156664E-3    5.992744781959816E-3   -8.099710419346522E-3    6.011942038568064E-3   -8.125189793033392E-3    9.941654075122958E-1    7.629139334450081E-3
 1.809174007813277E5     9.940872983950770E-1    7.515551918287455E-3    5.986810273360367E-3   -8.052342022916768E-3    6.002133514535041E-3   -8.073937195406279E-3    9.941738785187317E-1    7.578036980613329E-3
 1.822977756996804E5     9.940642821726687E-1    7.460169797267055E-3    5.981244809676038E-3   -7.998083619612703E-3    5.999287934809939E-3   -8.023143434511614E-3    9.941920121447279E-1    7.535596027666717E-3
 1.836886826890609E5     9.941141466103494E-1    7.408147325818720E-3    5.976344873307446E-3   -7.950933263007672E-3    5.991376157845124E-3   -7.968833025287362E-3    9.941914348626892E-1    7.469051823366609E-3
 1.850902021077247E5     9.941319834317499E-1    7.355079974055225E-3    5.968694861421926E-3   -7.899986304078723E-3    5.986810642992281E-3   -7.921014040071251E-3    9.942103813582375E-1    7.421082920549862E-3
 1.865024149270491E5     9.941281427901424E-1    7.305579395215411E-3    5.962082197521361E-3   -7.849794533564537E-3    5.978151246461563E-3   -7.870505912420707E-3    9.942105969388214E-1    7.364216871779361E-3
 1.879254027362132E5     9.941242318257001E-1    7.267291205204508E-3    5.955135274789987E-3   -7.801449813675152E-3    5.974590977864349E-3   -7.822749885061171E-3    9.942481964124400E-1    7.310690189285783E-3
 1.893592477469092E5     9.941465523173305E-1    7.155939157850513E-3    5.942006884507758E-3   -7.742726859732166E-3    5.971708312395320E-3   -7.757653805694470E-3    9.942700661325321E-1    7.279014373922392E-3
 1.908040327980933E5     9.941561402929728E-1    7.159687851322070E-3    5.944031966038920E-3   -7.702958186464274E-3    5.960543935629833E-3   -7.722982132472337E-3    9.942341902996825E-1    7.218199887453997E-3
 1.922598413607715E5     9.941484720899987E-1    7.091456296665445E-3    5.936032102023282E-3   -7.656047188942871E-3    5.956988446476979E-3   -7.675033777188136E-3    9.942293845631111E-1    7.141579749667968E-3
 1.937267575428232E5     9.941505664814128E-1    7.047773277243571E-3    5.928876293505799E-3   -7.607943035897452E-3    5.948818281710743E-3   -7.629529719859050E-3    9.942455043466580E-1    7.096393142771379E-3
 1.952048660938581E5     9.941713142926143E-1    6.994989084772087E-3    5.924966058688965E-3   -7.560813270564796E-3    5.942182841368141E-3   -7.584638479144578E-3    9.942497628770867E-1    7.035655393200145E-3
 1.966942524101142E5     9.941663246280773E-1    6.935524501095940E-3    5.915904556497275E-3   -7.514405337652708E-3    5.932967092393570E-3   -7.536137670914400E-3    9.942472713964842E-1    6.998482615878964E-3
 1.981950025393913E5     9.941471642783291E-1    6.892945927254802E-3    5.914295380212092E-3   -7.468864958682195E-3    5.928763835266659E-3   -7.486613787403645E-3    9.942424135491621E-1    6.946821788810014E-3
