#  HZ   S   RI   R     50.00 
! Rohde & Schwarz Vector Network Analyzer 
! Rohde-Schwarz,ZNLE6-2Port,1323001256200024,1.71.1.10-23.02.1.238
! Created: UTC 4/7/2025, 4:41:07 AM
! freq[Hz]                re:S11                  im:S11                  re:S21                  im:S21                  re:S12                  im:S12                  re:S22                  im:S22
 1.000000000000000E5     9.941656552048478E-1    1.258609481246764E-2    6.021745072613784E-3   -1.283437756038166E-2    6.037421455635334E-3   -1.286465434680564E-2    9.941291988557107E-1    1.254485580599754E-2
 1.007629862646662E5     9.941581304430184E-1    1.244987664731602E-2    6.017383246938767E-3   -1.274423604504499E-2    6.030619174518874E-3   -1.277162615096130E-2    9.941599179810993E-1    1.244892857383865E-2
 1.015317940097331E5     9.941660620396505E-1    1.237777765535435E-2    6.011625544237830E-3   -1.265369651298850E-2    6.028436762998637E-3   -1.268378711347958E-2    9.941440944927065E-1    1.234370360664480E-2
 1.023064676522963E5     9.941757362168379E-1    1.226741300829606E-2    6.005574506169786E-3   -1.256655050631986E-2    6.023037418014778E-3   -1.258988049157963E-2    9.941314118830801E-1    1.226266368875541E-2
 1.030870519483485E5     9.941381821382418E-1    1.217864464371390E-2    6.004413099711598E-3   -1.247860148798836E-2    6.018818576826963E-3   -1.250234139070189E-2    9.941168542026774E-1    1.216873644700755E-2
 1.038735919953636E5     9.941521815803367E-1    1.207188377026475E-2    6.003028271653390E-3   -1.238692703052308E-2    6.010188484277729E-3   -1.241312672249853E-2    9.941372041578485E-1    1.208047719931088E-2
 1.046661332349037E5     9.941297450113681E-1    1.200051998917205E-2    5.992681019009585E-3   -1.230264248309063E-2    6.011155240504788E-3   -1.232856841059249E-2    9.941267258692317E-1    1.197896598893752E-2
 1.054647214552430E5     9.941317432148192E-1    1.188969748208193E-2    5.990680124705449E-3   -1.221837652007587E-2    6.006324850040793E-3   -1.224178881131749E-2    9.941667630626794E-1    1.189528741121130E-2
 1.062694027940149E5     9.941351551287927E-1    1.180446406644220E-2    5.985197496528558E-3   -1.212985629378039E-2    6.000113234543329E-3   -1.216093448313689E-2    9.941466580866641E-1    1.181337128494189E-2
 1.070802237408760E5     9.941567267923272E-1    1.171869791679577E-2    5.984525042235203E-3   -1.204568188986664E-2    5.994570749771723E-3   -1.207383061111557E-2    9.941631483118682E-1    1.173252618977917E-2
 1.078972311401927E5     9.941402835215472E-1    1.162752879126604E-2    5.976959188870136E-3   -1.196319010972930E-2    5.991464343186680E-3   -1.198637542433703E-2    9.941579445247098E-1    1.163764725553870E-2
 1.087204721937475E5     9.941374798318890E-1    1.153823795117412E-2    5.969984661456641E-3   -1.187995618141348E-2    5.988734105197847E-3   -1.190444338141291E-2    9.941908041456275E-1    1.158076906396636E-2
 1.095499944634658E5     9.941579130526843E-1    1.144766570817583E-2    5.967090553408713E-3   -1.179581376257479E-2    5.982325563298091E-3   -1.182287038962791E-2    9.941532528464332E-1    1.146812671604770E-2
 1.103858458741646E5     9.941715443404165E-1    1.135612693780077E-2    5.962708653446273E-3   -1.171275981980387E-2    5.977507036059108E-3   -1.174002555229134E-2    9.941122666982092E-1    1.139233006131152E-2
 1.112280747163201E5     9.941480583435754E-1    1.126971942668070E-2    5.958190848404172E-3   -1.163420472858288E-2    5.975727080164940E-3   -1.165839577737230E-2    9.941515268928115E-1    1.130691368899950E-2
 1.120767296488583E5     9.941762325635470E-1    1.119357236968970E-2    5.956008205331930E-3   -1.155253409391606E-2    5.970956595960379E-3   -1.157911947365575E-2    9.941725271451929E-1    1.121464937429483E-2
 1.129318597019661E5     9.941451425729299E-1    1.111611707399424E-2    5.953066070454498E-3   -1.147357476849782E-2    5.963222061424368E-3   -1.149757528036394E-2    9.941315143659042E-1    1.111603138117398E-2
 1.137935142799240E5     9.941893276734043E-1    1.101818735268414E-2    5.946080915749506E-3   -1.139181294347046E-2    5.960259157836553E-3   -1.141772488099733E-2    9.941801702304605E-1    1.106804533874757E-2
 1.146617431639607E5     9.941576246736870E-1    1.092820536834961E-2    5.940919551534370E-3   -1.131285851361133E-2    5.956673086677849E-3   -1.133967317369616E-2    9.941772488539669E-1    1.098356819813196E-2
 1.155365965151286E5     9.941599530999480E-1    1.086818089629567E-2    5.935519852588797E-3   -1.123694544908831E-2    5.951521354458110E-3   -1.126162051442951E-2    9.941877371798361E-1    1.089803777480724E-2
 1.164181248772018E5     9.941532642001983E-1    1.077440763025688E-2    5.931915819498220E-3   -1.116166684810171E-2    5.948549248774523E-3   -1.118578374366569E-2    9.941818831919901E-1    1.082695926170520E-2
 1.173063791795965E5     9.941608902405972E-1    1.068945305926138E-2    5.933495336236551E-3   -1.108266663738102E-2    5.944197040892305E-3   -1.110290330123016E-2    9.941921036903073E-1    1.074887760401768E-2
 1.182014107403141E5     9.941467815549330E-1    1.061164047165604E-2    5.926332144173999E-3   -1.100351453064970E-2    5.938235583388048E-3   -1.103244953937311E-2    9.941401582421939E-1    1.065846629917088E-2
 1.191032712689044E5     9.941588723537551E-1    1.052399163447754E-2    5.916990451631260E-3   -1.093070805073301E-2    5.934378138245685E-3   -1.095348449961003E-2    9.941934959468973E-1    1.058217166343120E-2
 1.200120128694542E5     9.941413609908308E-1    1.045308128509387E-2    5.916141837458017E-3   -1.085395703071199E-2    5.931259342664153E-3   -1.088134078114456E-2    9.941860548710391E-1    1.050623178763022E-2
 1.209276880435975E5     9.941583066965259E-1    1.038770829669096E-2    5.911997500584249E-3   -1.077925082983010E-2    5.926349320496569E-3   -1.080270754849871E-2    9.941981176554349E-1    1.043544283557067E-2
 1.218503496935483E5     9.941638304759441E-1    1.031555106231554E-2    5.905118839313256E-3   -1.070399572169129E-2    5.923216638804776E-3   -1.073379630824399E-2    9.942032590797896E-1    1.036509838692139E-2
 1.227800511251578E5     9.941565005501249E-1    1.022859027159288E-2    5.900364475771060E-3   -1.063366256152928E-2    5.918273204670275E-3   -1.065632395023509E-2    9.942107962873591E-1    1.026057008573744E-2
 1.237168460509929E5     9.941624610999773E-1    1.015723868698813E-2    5.898765917440379E-3   -1.055742767409493E-2    5.913703089119255E-3   -1.058634004959179E-2    9.942222565258506E-1    1.021164247229762E-2
 1.246607885934402E5     9.941525935905460E-1    1.007570133034012E-2    5.892296161116183E-3   -1.048732243202665E-2    5.907770572665444E-3   -1.051372413891529E-2    9.941856017638276E-1    1.013235645822098E-2
 1.256119332878327E5     9.941964300702480E-1    1.001796515933167E-2    5.891606827229263E-3   -1.041661512385739E-2    5.904571226196422E-3   -1.044170013827500E-2    9.941996442772140E-1    1.004407650467929E-2
 1.265703350856002E5     9.941914325427929E-1    9.926185281933300E-3    5.883534559618714E-3   -1.034697920249596E-2    5.900940048820128E-3   -1.037116666764785E-2    9.942268368730486E-1    9.969960934314631E-3
 1.275360493574453E5     9.941661122149116E-1    9.849557175444102E-3    5.878639476773097E-3   -1.027622743691379E-2    5.894887625767504E-3   -1.029970654928456E-2    9.942311838776005E-1    9.910948886265838E-3
 1.285091318965405E5     9.941844238861336E-1    9.789434813758260E-3    5.876125441986388E-3   -1.020611708025971E-2    5.889320438277772E-3   -1.022892442816856E-2    9.942348399502904E-1    9.830198629564737E-3
 1.294896389217529E5     9.941525360298804E-1    9.694554626191938E-3    5.871658541932008E-3   -1.013641314659165E-2    5.883833732344982E-3   -1.015833026767063E-2    9.942688637514357E-1    9.769527125355632E-3
 1.304776270808914E5     9.941649611131321E-1    9.616896990957458E-3    5.867043180401500E-3   -1.006814516590685E-2    5.881927128531379E-3   -1.009164699232040E-2    9.942435324746565E-1    9.708276334307394E-3
 1.314731534539810E5     9.941592134330745E-1    9.544733848944185E-3    5.861506330207018E-3   -1.000292428096196E-2    5.877373514351214E-3   -1.002431584887332E-2    9.942182771036864E-1    9.622276025162425E-3
 1.324762755565583E5     9.941652973263326E-1    9.481678063628129E-3    5.857781761107276E-3   -9.932754555928923E-3    5.869469883477374E-3   -9.954658593678981E-3    9.942588905816943E-1    9.576940571131372E-3
 1.334870513429962E5     9.941658000868451E-1    9.434902693791639E-3    5.853573211981712E-3   -9.864494171867227E-3    5.869956830648069E-3   -9.885330484489214E-3    9.942589121050414E-1    9.505336120674345E-3
 1.345055392098512E5     9.942045585147654E-1    9.362093013423901E-3    5.847347575160655E-3   -9.800739134715899E-3    5.861401290522664E-3   -9.821964772895321E-3    9.942888766899962E-1    9.418775421908519E-3
 1.355317979992373E5     9.942010104238420E-1    9.292928390012145E-3    5.842206062495793E-3   -9.733591541631023E-3    5.858377594694388E-3   -9.755466234534053E-3    9.942721626853123E-1    9.371283925654585E-3
 1.365658870022265E5     9.942149453704322E-1    9.226783833035873E-3    5.838381415340150E-3   -9.665166098433785E-3    5.854317785172492E-3   -9.687479714640233E-3    9.942705362275081E-1    9.299286495001297E-3
 1.376078659622731E5     9.942300652411241E-1    9.149362130350480E-3    5.833565741948750E-3   -9.603347169945984E-3    5.850544400899941E-3   -9.623355233628469E-3    9.942702325267618E-1    9.231938628965512E-3
 1.386577950786655E5     9.942253454502994E-1    9.102377450665763E-3    5.830367492769583E-3   -9.538586953639369E-3    5.846498406456342E-3   -9.559004454927343E-3    9.942911683020553E-1    9.161134169903096E-3
 1.397157350100044E5     9.942490926213591E-1    9.020689815862699E-3    5.826114290548358E-3   -9.476216980457286E-3    5.838848341495326E-3   -9.493131778735561E-3    9.942706686399251E-1    9.074793486069689E-3
 1.407817468777081E5     9.942673316602392E-1    8.962793891481143E-3    5.820828897599935E-3   -9.410312402592297E-3    5.834419130726065E-3   -9.430651816270638E-3    9.942871662433512E-1    9.013232069636353E-3
 1.418558922695422E5     9.942748042284347E-1    8.901631371907432E-3    5.812975214831650E-3   -9.347632896206385E-3    5.831666868139775E-3   -9.369026716004938E-3    9.942719425455092E-1    8.952560343389879E-3
 1.429382332431784E5     9.942797180820941E-1    8.838474417632667E-3    5.809574385580238E-3   -9.285853074357668E-3    5.826409010746439E-3   -9.305550811454762E-3    9.942877748099745E-1    8.891441544978481E-3
 1.440288323297804E5     9.942755816244629E-1    8.791326919476462E-3    5.804860356450323E-3   -9.225265211822752E-3    5.820752240382402E-3   -9.245638715165393E-3    9.942914012738014E-1    8.818963441441672E-3
 1.451277525376154E5     9.942572275676296E-1    8.706111156472416E-3    5.800141229120552E-3   -9.163248195242691E-3    5.815249252609001E-3   -9.182340708729237E-3    9.943230040147775E-1    8.769722034085683E-3
 1.462350573556962E5     9.942737227934455E-1    8.644067476097214E-3    5.795463588419512E-3   -9.101225534871655E-3    5.810414439660452E-3   -9.121784647576197E-3    9.943354940138446E-1    8.706852521115435E-3
 1.473508107574468E5     9.942597390393288E-1    8.580121098415348E-3    5.788653101793763E-3   -9.041097805529613E-3    5.805413229011007E-3   -9.062506744396397E-3    9.943362596626113E-1    8.638664616368646E-3
 1.484750772044004E5     9.942477014568435E-1    8.505145216111188E-3    5.788667576259711E-3   -8.981272898405701E-3    5.803393936235547E-3   -9.000721270142004E-3    9.943244424025829E-1    8.587188379290945E-3
 1.496079216499225E5     9.942495877339457E-1    8.451296122664795E-3    5.781475169606720E-3   -8.921930397315307E-3    5.799560245857047E-3   -8.944212840052078E-3    9.943461836433776E-1    8.531855675083336E-3
 1.507494095429637E5     9.942814445616139E-1    8.408544920149922E-3    5.778823202208255E-3   -8.862724157951148E-3    5.789942914440152E-3   -8.879597567121322E-3    9.943224246021763E-1    8.467665454271526E-3
 1.518996068318418E5     9.942899415084654E-1    8.341857383265436E-3    5.770513399159513E-3   -8.805263677791556E-3    5.788474542960458E-3   -8.827366038534092E-3    9.943441815765873E-1    8.409756493038739E-3
 1.530585799680507E5     9.942760656097388E-1    8.264336792294201E-3    5.768419503434874E-3   -8.745431961529012E-3    5.779533428737516E-3   -8.763750657742847E-3    9.943346596868675E-1    8.336075698493192E-3
 1.542263959101001E5     9.942765278657477E-1    8.189537641418288E-3    5.758863946996202E-3   -8.690106644885320E-3    5.776167301738054E-3   -8.710072597495375E-3    9.943373333340603E-1    8.284169556413548E-3
 1.554031221273835E5     9.942881992605168E-1    8.144210526918980E-3    5.757955730613629E-3   -8.633606348668266E-3    5.771855809222659E-3   -8.653889079976032E-3    9.943903583537052E-1    8.216076458806136E-3
 1.565888266040779E5     9.942893465123420E-1    8.096009861524036E-3    5.752124984254119E-3   -8.575378407177855E-3    5.766138426569756E-3   -8.591603999657858E-3    9.943530936825027E-1    8.161188787801815E-3
 1.577835778430689E5     9.943136330632687E-1    8.038341935288594E-3    5.746587116156574E-3   -8.520397501398783E-3    5.762469907521452E-3   -8.538776450345923E-3    9.943815120707025E-1    8.098525431672903E-3
 1.589874448699104E5     9.943054854290377E-1    7.980977390143777E-3    5.741971801906191E-3   -8.464675820712675E-3    5.751558603916828E-3   -8.482131541165538E-3    9.943803776404805E-1    8.020344899937368E-3
 1.602004972368116E5     9.943356405641164E-1    7.926849458542592E-3    5.736971704396454E-3   -8.409830141884992E-3    5.751234062014021E-3   -8.428427260234949E-3    9.944254573112175E-1    7.969430016893476E-3
 1.614228050266550E5     9.943373947583846E-1    7.868356831248143E-3    5.729574549532248E-3   -8.349750996007974E-3    5.743438285028328E-3   -8.374618184792281E-3    9.944261604036537E-1    7.911868654349820E-3
 1.626544388570473E5     9.943306167808069E-1    7.808515620782741E-3    5.728402287901175E-3   -8.300174830147914E-3    5.741740218521024E-3   -8.315226345485189E-3    9.944015267715516E-1    7.855610297099004E-3
 1.638954698843964E5     9.943577461130866E-1    7.765427116047488E-3    5.719683142988236E-3   -8.243962370326355E-3    5.734776667144384E-3   -8.264175276491786E-3    9.944125385977723E-1    7.804922957055164E-3
 1.651459698080244E5     9.943544203829235E-1    7.692994485432975E-3    5.716723171787946E-3   -8.189120224100592E-3    5.731879896089260E-3   -8.210610528740900E-3    9.944105186129841E-1    7.750712041446343E-3
 1.664060108743095E5     9.943181480798052E-1    7.634739624932003E-3    5.710951611836068E-3   -8.140159653209319E-3    5.726518379955895E-3   -8.158376871539055E-3    9.944170562931337E-1    7.682848107675131E-3
 1.676756658808590E5     9.943594974872823E-1    7.576798216962855E-3    5.703520016384185E-3   -8.083370616644296E-3    5.719571554848464E-3   -8.106339095403531E-3    9.944460264846859E-1    7.641561584185160E-3
 1.689550081807175E5     9.943530311874474E-1    7.515833546967682E-3    5.695859074633247E-3   -8.035004814505035E-3    5.715306835917730E-3   -8.051420842791543E-3    9.944429324202314E-1    7.569741709289026E-3
 1.702441116866020E5     9.943480806915334E-1    7.467688859915289E-3    5.692304455795244E-3   -7.982283955922261E-3    5.709833621149562E-3   -8.000884783901220E-3    9.944347774402440E-1    7.531987264859820E-3
 1.715430508751738E5     9.943586164680732E-1    7.409842518908663E-3    5.689368437333625E-3   -7.928874570667079E-3    5.704886344618306E-3   -7.945155979217905E-3    9.944393640835757E-1    7.476009719660432E-3
 1.728519007913403E5     9.943686378718380E-1    7.355502285711545E-3    5.685815855176623E-3   -7.880014285099343E-3    5.698043659765568E-3   -7.895205538482384E-3    9.944438927841560E-1    7.417497070644904E-3
 1.741707370525927E5     9.943771566083459E-1    7.313959623953062E-3    5.676791624841237E-3   -7.832135778534125E-3    5.692800974899915E-3   -7.846963718361286E-3    9.944491166910033E-1    7.362736905291191E-3
 1.754996358533718E5     9.943936157194670E-1    7.274237313931155E-3    5.671918567027711E-3   -7.777578559326225E-3    5.684149825431349E-3   -7.794209262688137E-3    9.944369445430700E-1    7.312549471812655E-3
 1.768386739694722E5     9.943998624687589E-1    7.212301149355711E-3    5.667067224864845E-3   -7.730235685045947E-3    5.684455269215473E-3   -7.746683867958520E-3    9.944834831177283E-1    7.270308234888255E-3
 1.781879287624771E5     9.943814868257743E-1    7.153418834089611E-3    5.665924947049831E-3   -7.679937629056162E-3    5.677907740700354E-3   -7.693559174324313E-3    9.944991846465286E-1    7.227035061656634E-3
 1.795474781842276E5     9.944124692604102E-1    7.106472912878591E-3    5.657405774761253E-3   -7.632527477518725E-3    5.673516218430179E-3   -7.645764284495465E-3    9.944850494168680E-1    7.156784799060309E-3
 1.809174007813277E5     9.944310336373209E-1    7.051085013568969E-3    5.648710725217393E-3   -7.582728713110903E-3    5.666741968300593E-3   -7.599088537806989E-3    9.944739976448127E-1    7.110798547677621E-3
 1.822977756996804E5     9.944159281289834E-1    6.998907377726519E-3    5.645274678119209E-3   -7.533601853945655E-3    5.659819064729811E-3   -7.553109829959603E-3    9.944941463939283E-1    7.059746712206186E-3
 1.836886826890609E5     9.944435087220089E-1    6.960348400188231E-3    5.641336919923526E-3   -7.487846750170307E-3    5.654063492227047E-3   -7.501485907629284E-3    9.945209764059689E-1    6.999009373755699E-3
 1.850902021077247E5     9.944624292432752E-1    6.899218496845400E-3    5.635311814583476E-3   -7.438902157239504E-3    5.647008272470552E-3   -7.458530351128282E-3    9.945097966304947E-1    6.954063530747125E-3
 1.865024149270491E5     9.944615358778387E-1    6.859377527604911E-3    5.628486282445362E-3   -7.393698151347378E-3    5.641015563243499E-3   -7.406469507300945E-3    9.945333117435137E-1    6.906038212733982E-3
 1.879254027362132E5     9.944685745602729E-1    6.803783683465012E-3    5.624504805990654E-3   -7.348962128783778E-3    5.638058066322278E-3   -7.361159197963098E-3    9.945490794685840E-1    6.848371807780807E-3
 1.893592477469092E5     9.944913308021324E-1    6.711757767271107E-3    5.608952736224457E-3   -7.294163731274026E-3    5.625154963372473E-3   -7.323910898569667E-3    9.945356535511932E-1    6.770435847000600E-3
 1.908040327980933E5     9.945002077709654E-1    6.731511567535518E-3    5.615032114742618E-3   -7.255191821383016E-3    5.623507554771494E-3   -7.268471161081436E-3    9.945491090266970E-1    6.761684932958765E-3
 1.922598413607715E5     9.944646759250206E-1    6.658261499317106E-3    5.608310123480688E-3   -7.211033751156915E-3    5.620070063303566E-3   -7.220686751755618E-3    9.945601001336480E-1    6.687673704664499E-3
 1.937267575428232E5     9.944786293046425E-1    6.601130920140154E-3    5.598245038518913E-3   -7.161257583135158E-3    5.613938957581165E-3   -7.177715313104112E-3    9.945639094904960E-1    6.643981756692958E-3
 1.952048660938581E5     9.944994198294573E-1    6.564507556912421E-3    5.594746801055523E-3   -7.117270131125271E-3    5.608412919789451E-3   -7.132773057363718E-3    9.945477948513194E-1    6.589781948994685E-3
 1.966942524101142E5     9.944801602275674E-1    6.506360091517832E-3    5.587966920608863E-3   -7.075592902998814E-3    5.599992499911438E-3   -7.091092328805585E-3    9.945537712655761E-1    6.549950954088135E-3
 1.981950025393913E5     9.944823995751761E-1    6.471488168565773E-3    5.579544230954838E-3   -7.033235586405346E-3    5.595319651104181E-3   -7.044049201548448E-3    9.945634842887734E-1    6.508132479475636E-3
