#  HZ   S   RI   R     50.00 
! Rohde & Schwarz Vector Network Analyzer 
! Rohde-Schwarz,ZNLE6-2Port,1323001256200024,1.71.1.10-23.02.1.238
! Created: UTC 4/7/2025, 4:30:29 AM
! freq[Hz]                re:S11                  im:S11                  re:S21                  im:S21                  re:S12                  im:S12                  re:S22                  im:S22
 1.000000000000000E5     9.944500324123295E-1    1.188316346187055E-2    5.685773282844200E-3   -1.212310000051831E-2    5.701475114699330E-3   -1.215219774980163E-2    9.944775475573254E-1    1.185110010051417E-2
 1.007629862646662E5     9.944723616837283E-1    1.176562486751390E-2    5.682417186001563E-3   -1.203884885144592E-2    5.698242998416861E-3   -1.206459019797406E-2    9.944563044589674E-1    1.176000727080469E-2
 1.015317940097331E5     9.944532993718662E-1    1.168123539113165E-2    5.678376032709496E-3   -1.195094154299411E-2    5.690219871988103E-3   -1.197841847633379E-2    9.944612150030973E-1    1.165905581389303E-2
 1.023064676522963E5     9.944358850850447E-1    1.159291778332609E-2    5.671346371229486E-3   -1.186772788174824E-2    5.685556068831858E-3   -1.189512634979529E-2    9.944481493365136E-1    1.157875340216217E-2
 1.030870519483485E5     9.944260010101237E-1    1.149168672793324E-2    5.667662203423116E-3   -1.178447192268641E-2    5.683620071467751E-3   -1.181166058533421E-2    9.944668793754353E-1    1.148767543957350E-2
 1.038735919953636E5     9.944401409689618E-1    1.139319033312316E-2    5.664875432836869E-3   -1.170142318560089E-2    5.676887952466460E-3   -1.172777529807819E-2    9.944944496173000E-1    1.141430474576524E-2
 1.046661332349037E5     9.944433937534143E-1    1.132005796458535E-2    5.658810048059789E-3   -1.162347702799664E-2    5.673777488103721E-3   -1.164530346618141E-2    9.944930301223369E-1    1.131681652287683E-2
 1.054647214552430E5     9.944187892683450E-1    1.122839800575852E-2    5.660075999619896E-3   -1.153693966469963E-2    5.672474060345395E-3   -1.156199746687944E-2    9.944879505663318E-1    1.124276824392960E-2
 1.062694027940149E5     9.944454280548429E-1    1.113734770054099E-2    5.649821039029873E-3   -1.145568682109990E-2    5.665820474537128E-3   -1.148095926283125E-2    9.944893307670144E-1    1.116465041543279E-2
 1.070802237408760E5     9.944586824110759E-1    1.104190968519845E-2    5.649728780446472E-3   -1.137364159548056E-2    5.664777011867350E-3   -1.140278306808829E-2    9.944754498936502E-1    1.106800001108561E-2
 1.078972311401927E5     9.944691245084888E-1    1.097542837518599E-2    5.645488405566407E-3   -1.129557293167889E-2    5.661114157304436E-3   -1.131953472194113E-2    9.944693822939399E-1    1.097849524728362E-2
 1.087204721937475E5     9.944223376977932E-1    1.088559441552063E-2    5.642715749033716E-3   -1.121848166339876E-2    5.654227897320108E-3   -1.124155578034347E-2    9.944871788742877E-1    1.090303532828383E-2
 1.095499944634658E5     9.944466881269872E-1    1.079355973755777E-2    5.636860446400673E-3   -1.114324102306635E-2    5.653503501112837E-3   -1.116351724752802E-2    9.944543170603607E-1    1.081921753066797E-2
 1.103858458741646E5     9.944534361596054E-1    1.072538680596637E-2    5.631946848369605E-3   -1.106269035016006E-2    5.648710097918464E-3   -1.108766358827021E-2    9.944969047479230E-1    1.073510387293628E-2
 1.112280747163201E5     9.944462020972195E-1    1.062328380849861E-2    5.626652223328609E-3   -1.098567800092354E-2    5.643354475536613E-3   -1.101152136191750E-2    9.945202154643705E-1    1.064935082537324E-2
 1.120767296488583E5     9.944601454164790E-1    1.057015061589024E-2    5.624602701434241E-3   -1.090815550590422E-2    5.638421269906476E-3   -1.093350138184709E-2    9.945054271825027E-1    1.057249680095403E-2
 1.129318597019661E5     9.944492281746071E-1    1.047692210756952E-2    5.621759673786046E-3   -1.083577337899088E-2    5.634748942343472E-3   -1.085754566301769E-2    9.945037353462721E-1    1.048431662826598E-2
 1.137935142799240E5     9.944549560816845E-1    1.039539623781772E-2    5.618002852136083E-3   -1.076046550772887E-2    5.630952922543873E-3   -1.078303932833828E-2    9.944968593720496E-1    1.043557235530309E-2
 1.146617431639607E5     9.944482645138281E-1    1.032222820710053E-2    5.610202744941542E-3   -1.068417286365626E-2    5.622786553835429E-3   -1.070746417715665E-2    9.945199836519634E-1    1.036398949082994E-2
 1.155365965151286E5     9.944514423366783E-1    1.026994123396125E-2    5.610682640096293E-3   -1.061105059278985E-2    5.622301188466290E-3   -1.063284852768695E-2    9.945124376564215E-1    1.026643276200629E-2
 1.164181248772018E5     9.944368995114768E-1    1.017972735196870E-2    5.602297942031401E-3   -1.053722151790227E-2    5.620659715509156E-3   -1.056227712880013E-2    9.945199210349529E-1    1.019028056552390E-2
 1.173063791795965E5     9.944512498454385E-1    1.009329215763305E-2    5.600895948076499E-3   -1.046118736166258E-2    5.615410102248048E-3   -1.048848046709732E-2    9.945003255840885E-1    1.012597452456204E-2
 1.182014107403141E5     9.944561985737802E-1    1.003349086319016E-2    5.595047004908198E-3   -1.039349512646140E-2    5.609138272280035E-3   -1.041670584379593E-2    9.945156510476987E-1    1.004243546048696E-2
 1.191032712689044E5     9.944742852230916E-1    9.931540875124729E-3    5.593686362991712E-3   -1.031999644865982E-2    5.606104895422064E-3   -1.034209379165329E-2    9.945479741906482E-1    9.986932117431586E-3
 1.200120128694542E5     9.944657313269434E-1    9.876538702501769E-3    5.588878571126645E-3   -1.025048103985774E-2    5.602293131784259E-3   -1.027133128023549E-2    9.945572292790591E-1    9.888459333637731E-3
 1.209276880435975E5     9.944460620157304E-1    9.812019972640083E-3    5.587641153855879E-3   -1.017905134425574E-2    5.600784382113654E-3   -1.020413374819170E-2    9.945593413427981E-1    9.841145184400879E-3
 1.218503496935483E5     9.944953356971444E-1    9.741094349511478E-3    5.579830571269176E-3   -1.010710345112693E-2    5.592273251356633E-3   -1.013105711088813E-2    9.945055766479571E-1    9.760085799431018E-3
 1.227800511251578E5     9.944726394496565E-1    9.665685592849253E-3    5.576879667069416E-3   -1.003884186371861E-2    5.590656215875962E-3   -1.006338580932397E-2    9.945228285742809E-1    9.673336379704049E-3
 1.237168460509929E5     9.944742759635571E-1    9.582861571252011E-3    5.570576033168498E-3   -9.969511896576492E-3    5.590504242276814E-3   -9.992718117227860E-3    9.945240006452332E-1    9.632719066193130E-3
 1.246607885934402E5     9.944474487619523E-1    9.503013041730424E-3    5.567631150839031E-3   -9.903644820132068E-3    5.580355379696332E-3   -9.923925937244445E-3    9.945107426498153E-1    9.549259488402613E-3
 1.256119332878327E5     9.944712046731246E-1    9.436491942549549E-3    5.564063480806202E-3   -9.833460401691795E-3    5.577114858470261E-3   -9.855281213068782E-3    9.945029959586192E-1    9.483089913556952E-3
 1.265703350856002E5     9.945042690305238E-1    9.370290928149548E-3    5.560159686185322E-3   -9.766233120812344E-3    5.571853188111458E-3   -9.788115735726088E-3    9.945669581954149E-1    9.393381481345506E-3
 1.275360493574453E5     9.944793205742997E-1    9.284277759129633E-3    5.555125051592977E-3   -9.697955407991484E-3    5.572293166318579E-3   -9.721167095698922E-3    9.945503851284443E-1    9.332831569166393E-3
 1.285091318965405E5     9.945217593200559E-1    9.226912929466657E-3    5.549056224709112E-3   -9.633336319521506E-3    5.564241786133079E-3   -9.657724776762817E-3    9.945324340585807E-1    9.271023710733656E-3
 1.294896389217529E5     9.944734332339393E-1    9.149173471787694E-3    5.543707032775121E-3   -9.568438913614826E-3    5.561825863491776E-3   -9.587958541445426E-3    9.945395944460698E-1    9.204275925093956E-3
 1.304776270808914E5     9.944795811500495E-1    9.080785620354795E-3    5.543694948440381E-3   -9.503002945552910E-3    5.559272537776813E-3   -9.524730804099081E-3    9.945532700185753E-1    9.138427612987011E-3
 1.314731534539810E5     9.944726617647518E-1    9.007385753021310E-3    5.536931474530179E-3   -9.435838135835348E-3    5.550827953147972E-3   -9.460405792699718E-3    9.945415135176920E-1    9.067191245957149E-3
 1.324762755565583E5     9.945027722196248E-1    8.942509585421792E-3    5.537542626218880E-3   -9.373915335469581E-3    5.545755142267596E-3   -9.394465675981236E-3    9.945571785481051E-1    9.008022305907457E-3
 1.334870513429962E5     9.944598592921040E-1    8.894611092808716E-3    5.531713394566262E-3   -9.308351687097436E-3    5.543755350286502E-3   -9.331256104913629E-3    9.945720198695297E-1    8.946517532563175E-3
 1.345055392098512E5     9.944827031467134E-1    8.817022697172806E-3    5.525554854993319E-3   -9.251523422436530E-3    5.539802641864482E-3   -9.272750759858514E-3    9.945786578023930E-1    8.878419302079877E-3
 1.355317979992373E5     9.945051483303247E-1    8.759161647891960E-3    5.523872521817396E-3   -9.186959501782808E-3    5.535267030734192E-3   -9.206000613002065E-3    9.946055885696633E-1    8.823905255321575E-3
 1.365658870022265E5     9.944935896758929E-1    8.696024198006231E-3    5.512278720089571E-3   -9.124488052057103E-3    5.530586339581783E-3   -9.141200255101813E-3    9.945781650980636E-1    8.755153326879350E-3
 1.376078659622731E5     9.945239129296236E-1    8.626400998315051E-3    5.511356881724577E-3   -9.060761427605465E-3    5.529812752130003E-3   -9.084211786699221E-3    9.946004131342167E-1    8.693226575110902E-3
 1.386577950786655E5     9.945274970751297E-1    8.580194404154751E-3    5.506984808919737E-3   -9.001793416968879E-3    5.524647246241784E-3   -9.020241582331239E-3    9.945774042114383E-1    8.624368900703314E-3
 1.397157350100044E5     9.945309436185539E-1    8.494810423194221E-3    5.502097144900468E-3   -8.942327173464187E-3    5.518394885869166E-3   -8.959826101870846E-3    9.946229780764874E-1    8.548157386208958E-3
 1.407817468777081E5     9.945809916943237E-1    8.441629830768604E-3    5.496942216039282E-3   -8.880215604852824E-3    5.513035402022049E-3   -8.900306824854402E-3    9.946281136785452E-1    8.485118185502828E-3
 1.418558922695422E5     9.945632077604318E-1    8.392752929625730E-3    5.492988345098952E-3   -8.821019382080070E-3    5.508174547658092E-3   -8.842233249204709E-3    9.946244822740207E-1    8.422276707478181E-3
 1.429382332431784E5     9.945601075895980E-1    8.334733175879469E-3    5.490808239683033E-3   -8.765764490025790E-3    5.503966875660573E-3   -8.780129736508826E-3    9.946184389047508E-1    8.367918326634829E-3
 1.440288323297804E5     9.945663168754691E-1    8.270076770509966E-3    5.487144199515978E-3   -8.701147240068048E-3    5.500492217501748E-3   -8.722708121882980E-3    9.946763741997807E-1    8.312725143288242E-3
 1.451277525376154E5     9.945329939907461E-1    8.200038683985720E-3    5.484714567341711E-3   -8.646871375997447E-3    5.497868861195873E-3   -8.664120317700936E-3    9.947130357830025E-1    8.255860338680350E-3
 1.462350573556962E5     9.945282639373716E-1    8.141855534109546E-3    5.475482131242346E-3   -8.587756273663944E-3    5.491589320676005E-3   -8.607161486988125E-3    9.947081847867628E-1    8.192968359542519E-3
 1.473508107574468E5     9.945522642542497E-1    8.090100142140594E-3    5.472205865871399E-3   -8.529704843046946E-3    5.481136305751013E-3   -8.548019413407642E-3    9.946945545496655E-1    8.140659438071990E-3
 1.484750772044004E5     9.945384913454083E-1    8.014477700927006E-3    5.470604399879894E-3   -8.475904700841185E-3    5.482796327965171E-3   -8.491384462766529E-3    9.946548754530488E-1    8.082706368415333E-3
 1.496079216499225E5     9.945505892122988E-1    7.973368456058061E-3    5.464452048132544E-3   -8.415133681330268E-3    5.477655749910919E-3   -8.435975911706304E-3    9.946587189658224E-1    8.024283477364402E-3
 1.507494095429637E5     9.945602688772407E-1    7.903991640244131E-3    5.457675232899817E-3   -8.360148218657720E-3    5.473528159007859E-3   -8.376983992493356E-3    9.946626357579477E-1    7.969170771945602E-3
 1.518996068318418E5     9.945772887160946E-1    7.858930596941866E-3    5.453039709642623E-3   -8.306525924505303E-3    5.467281064971654E-3   -8.322457960841531E-3    9.946942075013070E-1    7.905673271446848E-3
 1.530585799680507E5     9.945707941881535E-1    7.793984828463006E-3    5.451663032887567E-3   -8.251491812472554E-3    5.463294936509214E-3   -8.267780541584826E-3    9.947011244132050E-1    7.843298549255792E-3
 1.542263959101001E5     9.945642332021114E-1    7.715968644901777E-3    5.446086577777991E-3   -8.194694826450587E-3    5.460196077486961E-3   -8.212990504174577E-3    9.946885723726037E-1    7.791304503679992E-3
 1.554031221273835E5     9.946074720761451E-1    7.681666142185898E-3    5.437589615671496E-3   -8.144424168455537E-3    5.454474439062536E-3   -8.160183156274019E-3    9.947024742081819E-1    7.725977841599043E-3
 1.565888266040779E5     9.945952016986626E-1    7.630286780173248E-3    5.435597836548952E-3   -8.087343885963869E-3    5.451706445857366E-3   -8.104881148894722E-3    9.946946725910327E-1    7.678007000200658E-3
 1.577835778430689E5     9.946062894314929E-1    7.578745816783037E-3    5.430266428238046E-3   -8.034340757100701E-3    5.445517565511942E-3   -8.050706455215946E-3    9.946730798260387E-1    7.615800468669364E-3
 1.589874448699104E5     9.945854601060258E-1    7.523791581670045E-3    5.426398049127371E-3   -7.983236423181680E-3    5.443197179966826E-3   -7.997851181361057E-3    9.947107187053873E-1    7.543484448127460E-3
 1.602004972368116E5     9.946092144049945E-1    7.468526592419969E-3    5.422375335802935E-3   -7.932439365950067E-3    5.431482316699353E-3   -7.949505550411448E-3    9.947507179671172E-1    7.495878363160819E-3
 1.614228050266550E5     9.946164228743148E-1    7.408231904184936E-3    5.416394133068114E-3   -7.879991942730633E-3    5.431979470767160E-3   -7.896716609165803E-3    9.947610355911753E-1    7.441949301144849E-3
 1.626544388570473E5     9.946323742906532E-1    7.349161001202627E-3    5.412751945126407E-3   -7.828602386784589E-3    5.425617848720832E-3   -7.842382982170886E-3    9.947307525879400E-1    7.388939027400789E-3
 1.638954698843964E5     9.946490918622753E-1    7.297627703592240E-3    5.405958967036898E-3   -7.775681158844364E-3    5.421915734753492E-3   -7.789819305975760E-3    9.947143769007042E-1    7.335955432999702E-3
 1.651459698080244E5     9.946551888750428E-1    7.251557870236543E-3    5.403424812955666E-3   -7.728653910460018E-3    5.415938480418977E-3   -7.739175319254367E-3    9.947323749107939E-1    7.288861141135925E-3
 1.664060108743095E5     9.946547245152476E-1    7.188251345176254E-3    5.396545769938883E-3   -7.677462030530762E-3    5.407612302892252E-3   -7.687387471130991E-3    9.947241452597859E-1    7.237763515455945E-3
 1.676756658808590E5     9.946643412347203E-1    7.133860909257341E-3    5.388591611527323E-3   -7.625636576508153E-3    5.405689321237229E-3   -7.641676929352523E-3    9.947300785763560E-1    7.183528114296850E-3
 1.689550081807175E5     9.946516591401053E-1    7.074425599958094E-3    5.386043081792085E-3   -7.575819636779745E-3    5.403454196447439E-3   -7.591723441229918E-3    9.947298684391805E-1    7.111155625910179E-3
 1.702441116866020E5     9.946463881689899E-1    7.024011626896312E-3    5.384473988523622E-3   -7.523668471214340E-3    5.393181624217108E-3   -7.543234880310077E-3    9.947427159284985E-1    7.077040091899876E-3
 1.715430508751738E5     9.946582257332521E-1    6.970184057750069E-3    5.376298729791394E-3   -7.478904983795492E-3    5.390637272193195E-3   -7.492985360344133E-3    9.947311269590910E-1    7.016685481829246E-3
 1.728519007913403E5     9.946875856689659E-1    6.936951893176260E-3    5.373499652137194E-3   -7.431212432997241E-3    5.385175986505583E-3   -7.442719857195017E-3    9.947535106691824E-1    6.965444771813123E-3
 1.741707370525927E5     9.946704376961558E-1    6.868943094192088E-3    5.368113743114593E-3   -7.382344138807228E-3    5.379639635740251E-3   -7.394064163286732E-3    9.947362127650601E-1    6.920689118938375E-3
 1.754996358533718E5     9.946821940996096E-1    6.821970874698614E-3    5.362836313003811E-3   -7.338866650958547E-3    5.378021266717724E-3   -7.348714768616026E-3    9.947573693794431E-1    6.865215057381773E-3
 1.768386739694722E5     9.946812045971888E-1    6.762532793465211E-3    5.355846646554605E-3   -7.287968394217871E-3    5.371176438087426E-3   -7.298535770651396E-3    9.948152417389172E-1    6.837891447739985E-3
 1.781879287624771E5     9.946768517697706E-1    6.716624206746935E-3    5.353695013453420E-3   -7.242373602443579E-3    5.364158510366095E-3   -7.253580757664938E-3    9.948013551052608E-1    6.779069062744574E-3
 1.795474781842276E5     9.946799516669852E-1    6.661698632785160E-3    5.346967634911355E-3   -7.193366205443122E-3    5.359552960933430E-3   -7.207865420143924E-3    9.947601755118782E-1    6.720394743990348E-3
 1.809174007813277E5     9.946801070460781E-1    6.609834825644662E-3    5.335972398810726E-3   -7.150957517236099E-3    5.355124730111523E-3   -7.158942489630373E-3    9.947720147566547E-1    6.682950359580921E-3
 1.822977756996804E5     9.946701948587361E-1    6.555625594995747E-3    5.332437133046365E-3   -7.103416130999734E-3    5.348676673657011E-3   -7.115626322653207E-3    9.947938021192374E-1    6.636035853340791E-3
 1.836886826890609E5     9.946688598970542E-1    6.524062143701241E-3    5.328871535609166E-3   -7.058483026163125E-3    5.345283629377494E-3   -7.071743457708597E-3    9.948049353469252E-1    6.571585501536282E-3
 1.850902021077247E5     9.946741387377852E-1    6.474357976150659E-3    5.323598269860266E-3   -7.016431786446350E-3    5.339660871020667E-3   -7.026899786193030E-3    9.948043762060532E-1    6.526780783781517E-3
 1.865024149270491E5     9.947026278506190E-1    6.415335245497563E-3    5.319984564098297E-3   -6.967555036206861E-3    5.334197087186295E-3   -6.981923986481198E-3    9.948334996189289E-1    6.479388514611006E-3
 1.879254027362132E5     9.947101886927140E-1    6.377109979572596E-3    5.314475500317309E-3   -6.922165938299511E-3    5.327832453037942E-3   -6.935299641294757E-3    9.948548228324626E-1    6.427105620210915E-3
 1.893592477469092E5     9.947667604126917E-1    6.285837013148038E-3    5.305213123945281E-3   -6.898157172231206E-3    5.310926488013547E-3   -6.898621772706242E-3    9.948505752903963E-1    6.354935795554449E-3
 1.908040327980933E5     9.947266760626053E-1    6.303762331188002E-3    5.302647257033609E-3   -6.840068573500655E-3    5.315910690657439E-3   -6.849774240598418E-3    9.948860697999536E-1    6.337386925893392E-3
 1.922598413607715E5     9.947394924423477E-1    6.228327592620444E-3    5.294776555041312E-3   -6.797588311541274E-3    5.312889586756621E-3   -6.804262912513593E-3    9.948778947415858E-1    6.279819372582900E-3
 1.937267575428232E5     9.947473662752940E-1    6.177527203768733E-3    5.294890610645980E-3   -6.752309973430050E-3    5.304802865803562E-3   -6.760603914786649E-3    9.949117051400844E-1    6.238973121568011E-3
 1.952048660938581E5     9.947658835512716E-1    6.138404174114159E-3    5.287856595578757E-3   -6.708364280113174E-3    5.300478114855098E-3   -6.719547335781005E-3    9.948758717650085E-1    6.187731596899799E-3
 1.966942524101142E5     9.947366585501642E-1    6.087163174557810E-3    5.279069359765801E-3   -6.665897437731704E-3    5.294424851687239E-3   -6.677711289828040E-3    9.948957965711236E-1    6.141412778340996E-3
 1.981950025393913E5     9.947321715195869E-1    6.058356825229099E-3    5.274802494529472E-3   -6.623576012264900E-3    5.288505667649402E-3   -6.634115551976041E-3    9.948635611584942E-1    6.110359068023236E-3
