#  HZ   S   RI   R     50.00 
! Rohde & Schwarz Vector Network Analyzer 
! Rohde-Schwarz,ZNLE6-2Port,1323001256200024,1.71.1.10-23.02.1.238
! Created: UTC 4/7/2025, 4:22:02 AM
! freq[Hz]                re:S11                  im:S11                  re:S21                  im:S21                  re:S12                  im:S12                  re:S22                  im:S22
 1.000000000000000E5     9.947185615015786E-1    1.122203439475706E-2    5.376816357982614E-3   -1.145880640994285E-2    5.392489201646214E-3   -1.148769153217553E-2    9.948166718542866E-1    1.116707994472520E-2
 1.007629862646662E5     9.947263527831086E-1    1.109446144733527E-2    5.371850597852268E-3   -1.137752591746735E-2    5.388699005111931E-3   -1.140814681903831E-2    9.948028646679015E-1    1.110126391873760E-2
 1.015317940097331E5     9.947308812867521E-1    1.102064096388355E-2    5.369244002687384E-3   -1.129813684448257E-2    5.384285795914177E-3   -1.132404607023970E-2    9.948082237064809E-1    1.100502511947271E-2
 1.023064676522963E5     9.947372333003427E-1    1.094501547659775E-2    5.364615811141705E-3   -1.121835835524047E-2    5.382130885564459E-3   -1.124823485546266E-2    9.948062633710820E-1    1.091882609856462E-2
 1.030870519483485E5     9.947114696345409E-1    1.084285021325567E-2    5.361846657806964E-3   -1.113959000938377E-2    5.378057686260640E-3   -1.116797274058485E-2    9.947974501105959E-1    1.083863446123581E-2
 1.038735919953636E5     9.947138078581900E-1    1.075082354566341E-2    5.356421137274403E-3   -1.105896346808173E-2    5.374295238120559E-3   -1.108512057821427E-2    9.947891981345267E-1    1.076552432632938E-2
 1.046661332349037E5     9.947015869061586E-1    1.067921974303979E-2    5.354770886512050E-3   -1.098099650485513E-2    5.368192675722586E-3   -1.100699337923248E-2    9.947605494085485E-1    1.067407059311005E-2
 1.054647214552430E5     9.947000222874394E-1    1.058830527544282E-2    5.349532163876409E-3   -1.090388672821523E-2    5.362287963576498E-3   -1.093214944614587E-2    9.947819049744067E-1    1.060705696978864E-2
 1.062694027940149E5     9.947353198994751E-1    1.050685750745639E-2    5.344519117814028E-3   -1.082567517030395E-2    5.361490916966054E-3   -1.085615294689235E-2    9.947942016940275E-1    1.053165820375923E-2
 1.070802237408760E5     9.947498107487326E-1    1.042762762807146E-2    5.342673152425355E-3   -1.074893275299794E-2    5.356733388374517E-3   -1.077855556845037E-2    9.948225604115043E-1    1.045426500988132E-2
 1.078972311401927E5     9.947476595974096E-1    1.035745912514487E-2    5.337629422014360E-3   -1.067414573019985E-2    5.354834063610676E-3   -1.070534469715593E-2    9.948114823635761E-1    1.035600917411991E-2
 1.087204721937475E5     9.947211043777590E-1    1.026449419892362E-2    5.333122852118349E-3   -1.060179603253400E-2    5.350929065963895E-3   -1.063011793335858E-2    9.948283001854233E-1    1.030542864267061E-2
 1.095499944634658E5     9.947083058815956E-1    1.017485687450195E-2    5.332686109045833E-3   -1.052731887367607E-2    5.345866266668672E-3   -1.055064748332654E-2    9.947875320957565E-1    1.020893191130788E-2
 1.103858458741646E5     9.947122680238811E-1    1.009775272984878E-2    5.327280882487509E-3   -1.044968108142445E-2    5.343885958798144E-3   -1.048236293754117E-2    9.948163156044051E-1    1.013612371474351E-2
 1.112280747163201E5     9.947293237522647E-1    1.001244693979370E-2    5.324502557402341E-3   -1.037741197336954E-2    5.339960008147979E-3   -1.040772580210025E-2    9.948082626562088E-1    1.004765598749483E-2
 1.120767296488583E5     9.947238738261568E-1    9.950290690584332E-3    5.321483222809061E-3   -1.030629128356546E-2    5.335462946230551E-3   -1.033334558932957E-2    9.947907799874892E-1    9.985771442300551E-3
 1.129318597019661E5     9.947155278422951E-1    9.853722896011425E-3    5.318613019373883E-3   -1.023527013947017E-2    5.331052855759649E-3   -1.026340523526202E-2    9.947773985495777E-1    9.885603602438075E-3
 1.137935142799240E5     9.947087843767664E-1    9.795428317425166E-3    5.313975969833883E-3   -1.016376074888860E-2    5.328971944178976E-3   -1.019062600884496E-2    9.947909304215359E-1    9.839201185690561E-3
 1.146617431639607E5     9.947000760970593E-1    9.706777373226906E-3    5.305842382515891E-3   -1.009237465562486E-2    5.324212929282813E-3   -1.011704483164670E-2    9.947820382624838E-1    9.763057167823356E-3
 1.155365965151286E5     9.947092790552540E-1    9.659754205505706E-3    5.303674080833645E-3   -1.001839866393426E-2    5.316856521592393E-3   -1.005195638373996E-2    9.948196466560760E-1    9.685421562468923E-3
 1.164181248772018E5     9.947087793636690E-1    9.580935377868785E-3    5.296155263400814E-3   -9.953602577005507E-3    5.315677432688663E-3   -9.981035713568655E-3    9.947947868589760E-1    9.616353998814600E-3
 1.173063791795965E5     9.947285594961323E-1    9.517408945467251E-3    5.297106243488376E-3   -9.883164128770420E-3    5.313231511489433E-3   -9.913719686012937E-3    9.948156691761153E-1    9.541991629340024E-3
 1.182014107403141E5     9.947359043428201E-1    9.449919694488695E-3    5.293709356031568E-3   -9.816185730093760E-3    5.310252671036484E-3   -9.844049327980671E-3    9.948113172769238E-1    9.464511736392043E-3
 1.191032712689044E5     9.947293455862735E-1    9.347375627181412E-3    5.291269892859345E-3   -9.748646764543711E-3    5.304296015626470E-3   -9.774994625214341E-3    9.948457379812059E-1    9.411348787522547E-3
 1.200120128694542E5     9.947021448836770E-1    9.304455110578428E-3    5.288851197914909E-3   -9.681158619220713E-3    5.300862479068926E-3   -9.704436800027142E-3    9.948384050902644E-1    9.331447557481063E-3
 1.209276880435975E5     9.947329903823500E-1    9.227682395164444E-3    5.280880831652892E-3   -9.616475549702446E-3    5.300802306560437E-3   -9.642288107592198E-3    9.948224232069812E-1    9.280752616300734E-3
 1.218503496935483E5     9.947698858153418E-1    9.164821449158381E-3    5.280377234321006E-3   -9.548521262271225E-3    5.292304718251226E-3   -9.573373607325108E-3    9.948282841454448E-1    9.193439789733299E-3
 1.227800511251578E5     9.947662211646077E-1    9.096473918576365E-3    5.273537934003522E-3   -9.481862488556553E-3    5.287746638027441E-3   -9.509989432740659E-3    9.948389071291013E-1    9.118133228484144E-3
 1.237168460509929E5     9.947621917315886E-1    9.022460486278753E-3    5.272126489244224E-3   -9.416301602492889E-3    5.285337901599558E-3   -9.441559851265335E-3    9.948597117853833E-1    9.074125211537934E-3
 1.246607885934402E5     9.947217364718228E-1    8.952897055085288E-3    5.268554148596526E-3   -9.350411144709378E-3    5.281257472055790E-3   -9.375871562251205E-3    9.948580875079853E-1    8.990010773910307E-3
 1.256119332878327E5     9.947567609522739E-1    8.905672682305034E-3    5.264665964846442E-3   -9.288443412384681E-3    5.277467308409499E-3   -9.313381628060419E-3    9.948429990257660E-1    8.925194772640891E-3
 1.265703350856002E5     9.947479053946110E-1    8.811062479143730E-3    5.258618935982638E-3   -9.224430803958718E-3    5.276297750122346E-3   -9.248094866127803E-3    9.948977301332512E-1    8.860854523986821E-3
 1.275360493574453E5     9.947548323389482E-1    8.751219658719726E-3    5.255925051133795E-3   -9.160999488324847E-3    5.268623433963082E-3   -9.185036171528740E-3    9.948675333046975E-1    8.802875589476173E-3
 1.285091318965405E5     9.947757990853165E-1    8.684721848712822E-3    5.249801804828845E-3   -9.098423461066488E-3    5.264413379253025E-3   -9.124660508071756E-3    9.948567739247368E-1    8.753577587126552E-3
 1.294896389217529E5     9.947339969196862E-1    8.605835683217444E-3    5.246668874509000E-3   -9.033403723657782E-3    5.260634731683878E-3   -9.059060114757477E-3    9.948793670751884E-1    8.685163531455601E-3
 1.304776270808914E5     9.947398508534896E-1    8.532481501659910E-3    5.243627199943064E-3   -8.974862992957980E-3    5.260350845855593E-3   -8.997027534091699E-3    9.948595496023943E-1    8.621483645090180E-3
 1.314731534539810E5     9.947237278367418E-1    8.478947283237717E-3    5.240096733933218E-3   -8.912119222405708E-3    5.252373891245881E-3   -8.933701278871846E-3    9.948460860966085E-1    8.542187454044928E-3
 1.324762755565583E5     9.947707593068370E-1    8.393107542863034E-3    5.235528049131774E-3   -8.849268707727297E-3    5.253650452274422E-3   -8.876089365029998E-3    9.948766187365710E-1    8.490012083347169E-3
 1.334870513429962E5     9.947399033839641E-1    8.370880082447067E-3    5.230069563120450E-3   -8.787719232494886E-3    5.245711785752401E-3   -8.815683051482370E-3    9.949021283834254E-1    8.432377395955086E-3
 1.345055392098512E5     9.947455223761845E-1    8.287303568142574E-3    5.228174693750164E-3   -8.731733235986359E-3    5.243019562283060E-3   -8.754734587677879E-3    9.948955660550612E-1    8.364481744794712E-3
 1.355317979992373E5     9.947774086538382E-1    8.239664969987362E-3    5.222679051590108E-3   -8.674628233450981E-3    5.238812983487008E-3   -8.696879507833828E-3    9.948666872552244E-1    8.321167874446610E-3
 1.365658870022265E5     9.947761982152028E-1    8.176844125174087E-3    5.217841606423684E-3   -8.611863818880109E-3    5.233939644347560E-3   -8.634453668201399E-3    9.948564450191114E-1    8.241109729628269E-3
 1.376078659622731E5     9.948176505365507E-1    8.107571917732027E-3    5.217714335647059E-3   -8.555840085414429E-3    5.229901855755611E-3   -8.578655793565161E-3    9.948698695307812E-1    8.178563877184691E-3
 1.386577950786655E5     9.947950327460150E-1    8.064816943940449E-3    5.210819471603520E-3   -8.495515917355539E-3    5.227425388561278E-3   -8.524327826446937E-3    9.948554355190243E-1    8.122271933004493E-3
 1.397157350100044E5     9.947955138447794E-1    7.988420071993562E-3    5.207882774793247E-3   -8.444267458539233E-3    5.221824710403245E-3   -8.460950367513063E-3    9.948687668043266E-1    8.054488500724924E-3
 1.407817468777081E5     9.948224683249817E-1    7.934772953144967E-3    5.201831287585143E-3   -8.386648974464788E-3    5.219684725810242E-3   -8.406188886980538E-3    9.948827576814361E-1    7.999824011181331E-3
 1.418558922695422E5     9.948174131560832E-1    7.872364250782353E-3    5.197857284111537E-3   -8.325385325409071E-3    5.213379680357553E-3   -8.346664467044787E-3    9.948851640280789E-1    7.930473891560761E-3
 1.429382332431784E5     9.948050331753614E-1    7.822214490016613E-3    5.196111368163548E-3   -8.270548754340266E-3    5.211401529048547E-3   -8.292024044556571E-3    9.949011227862598E-1    7.880601300693764E-3
 1.440288323297804E5     9.948316050826734E-1    7.771122164918012E-3    5.189442212402150E-3   -8.216323480344793E-3    5.204827206211775E-3   -8.234061345747244E-3    9.949102120083321E-1    7.822034063850652E-3
 1.451277525376154E5     9.948055024915418E-1    7.707866285078935E-3    5.185608799948018E-3   -8.158894153343895E-3    5.202954065488668E-3   -8.181691326139325E-3    9.949159601140406E-1    7.775960322411808E-3
 1.462350573556962E5     9.947987722091617E-1    7.637011138989240E-3    5.180007071808789E-3   -8.107958677497090E-3    5.196281689311789E-3   -8.126563945494273E-3    9.949207165956706E-1    7.720923684144737E-3
 1.473508107574468E5     9.947985005081068E-1    7.599197236013922E-3    5.178300615061597E-3   -8.051357782438298E-3    5.193462271926805E-3   -8.074862189334222E-3    9.949411281027682E-1    7.660545146526396E-3
 1.484750772044004E5     9.947953664774248E-1    7.519842941107445E-3    5.171873464380942E-3   -7.998715692265932E-3    5.187719615559590E-3   -8.016112428949998E-3    9.949027549841285E-1    7.591107886178894E-3
 1.496079216499225E5     9.947917408879725E-1    7.476309715749406E-3    5.169280541992860E-3   -7.946982274357405E-3    5.184164168520269E-3   -7.964586444445136E-3    9.949145729619391E-1    7.559852521616154E-3
 1.507494095429637E5     9.948009438100869E-1    7.427058066954939E-3    5.165876940020208E-3   -7.890406458830906E-3    5.178947657369278E-3   -7.911768498552584E-3    9.949429114902073E-1    7.506254845948962E-3
 1.518996068318418E5     9.948434535259676E-1    7.373532845914723E-3    5.164631240456258E-3   -7.840957601367018E-3    5.175091117845337E-3   -7.859020618847181E-3    9.949462547141193E-1    7.429205929299770E-3
 1.530585799680507E5     9.948422810819296E-1    7.314625565281654E-3    5.156196196440034E-3   -7.787497013842726E-3    5.169884776025903E-3   -7.807385189011493E-3    9.949392709085564E-1    7.381962732309588E-3
 1.542263959101001E5     9.948375957050015E-1    7.248571326903916E-3    5.149261066910010E-3   -7.735400762395726E-3    5.166624367500203E-3   -7.758036358759416E-3    9.949489885958976E-1    7.340098238406676E-3
 1.554031221273835E5     9.948650814430767E-1    7.202139374755657E-3    5.148980254727318E-3   -7.682819157295363E-3    5.161406663510462E-3   -7.704405888968320E-3    9.949497644741430E-1    7.269238417393341E-3
 1.565888266040779E5     9.948407742627476E-1    7.164833574145618E-3    5.142554503256064E-3   -7.632269383326235E-3    5.161451659869101E-3   -7.654620898742801E-3    9.949642266882436E-1    7.216917325814958E-3
 1.577835778430689E5     9.948626404988212E-1    7.101594958745103E-3    5.136217876769229E-3   -7.582651518835251E-3    5.156459759796633E-3   -7.601055014413439E-3    9.949588303411211E-1    7.160172024717448E-3
 1.589874448699104E5     9.948766924432357E-1    7.047815186147029E-3    5.135026060997104E-3   -7.534497099374189E-3    5.148561148773379E-3   -7.555940383318503E-3    9.949807585340543E-1    7.102866887690680E-3
 1.602004972368116E5     9.948982680535844E-1    7.000780234260585E-3    5.126289914681836E-3   -7.484527709120524E-3    5.143153786296557E-3   -7.502093913460917E-3    9.950378642781168E-1    7.049841394717296E-3
 1.614228050266550E5     9.949174810482159E-1    6.948146753652333E-3    5.122124017671266E-3   -7.435065005773061E-3    5.142089103050982E-3   -7.455918370395174E-3    9.950175170916814E-1    7.003209626100721E-3
 1.626544388570473E5     9.949071408179556E-1    6.891740898449605E-3    5.121358307730135E-3   -7.382527659906237E-3    5.137037851603660E-3   -7.403745151469592E-3    9.950109510136694E-1    6.943132495699701E-3
 1.638954698843964E5     9.949227947501433E-1    6.855392986805793E-3    5.113154313156406E-3   -7.332350546407095E-3    5.133542956010891E-3   -7.358123679494146E-3    9.950327254669451E-1    6.894203479301135E-3
 1.651459698080244E5     9.949229387009724E-1    6.809528246077098E-3    5.111935571474672E-3   -7.287911359894757E-3    5.126972439452477E-3   -7.305397012826224E-3    9.950396022927612E-1    6.836656622783276E-3
 1.664060108743095E5     9.949188937207472E-1    6.740515422720067E-3    5.106789945470414E-3   -7.242682553857603E-3    5.123701036314453E-3   -7.256305339389962E-3    9.950364235668502E-1    6.794605034045401E-3
 1.676756658808590E5     9.949361874683712E-1    6.690991665152714E-3    5.101991291685041E-3   -7.192404052499767E-3    5.114529398630243E-3   -7.208356826574371E-3    9.950120062748428E-1    6.760602644175522E-3
 1.689550081807175E5     9.949165599601811E-1    6.641081789630970E-3    5.096798523696973E-3   -7.144019045259992E-3    5.114199303640014E-3   -7.164592429250122E-3    9.950448495282341E-1    6.692940867818833E-3
 1.702441116866020E5     9.948997990428985E-1    6.589001600535050E-3    5.092100685178776E-3   -7.101163167717005E-3    5.106184148524461E-3   -7.118866093647409E-3    9.950644220816683E-1    6.653275955207906E-3
 1.715430508751738E5     9.949249928709231E-1    6.546122023992544E-3    5.090712757418804E-3   -7.056348131046786E-3    5.103533395973641E-3   -7.069791095044636E-3    9.950313718336061E-1    6.594667073120342E-3
 1.728519007913403E5     9.949279493747410E-1    6.496038215292940E-3    5.082750255505449E-3   -7.010751847868999E-3    5.097272324462712E-3   -7.030036370611137E-3    9.950438353076637E-1    6.543208755337289E-3
 1.741707370525927E5     9.949123777239510E-1    6.434985130985778E-3    5.075191791420758E-3   -6.960169110650734E-3    5.093063091717014E-3   -6.980041187809427E-3    9.950475248507328E-1    6.503538178171795E-3
 1.754996358533718E5     9.949174037523615E-1    6.398521383712276E-3    5.075281771353374E-3   -6.919825300347538E-3    5.090538233739487E-3   -6.933780654903680E-3    9.950433693804654E-1    6.455743618364807E-3
 1.768386739694722E5     9.949030168839217E-1    6.342638360391820E-3    5.069257617183095E-3   -6.874954894390964E-3    5.084271534311074E-3   -6.889971980618786E-3    9.950850193357306E-1    6.407089440877399E-3
 1.781879287624771E5     9.949298622091340E-1    6.295815646015964E-3    5.063950382961088E-3   -6.828619688885074E-3    5.080060809344073E-3   -6.844342484000183E-3    9.950798832146782E-1    6.355135122657881E-3
 1.795474781842276E5     9.949371416563352E-1    6.245300281640513E-3    5.062201572892699E-3   -6.783772999620068E-3    5.073216891690772E-3   -6.797362719136057E-3    9.950374282786224E-1    6.304279816520764E-3
 1.809174007813277E5     9.949474958556223E-1    6.193178407948237E-3    5.055641620814310E-3   -6.742938416202707E-3    5.069984286111109E-3   -6.755683925868222E-3    9.950328690622224E-1    6.263220610509258E-3
 1.822977756996804E5     9.949338182370258E-1    6.153449271384474E-3    5.051603257131073E-3   -6.698133313922774E-3    5.063267120090835E-3   -6.712776174651427E-3    9.950458842812553E-1    6.213149929438342E-3
 1.836886826890609E5     9.949400796255637E-1    6.123213606483480E-3    5.044992139201588E-3   -6.653573434907534E-3    5.058406319424119E-3   -6.669432156981856E-3    9.950387885555795E-1    6.159818650261241E-3
 1.850902021077247E5     9.949637732292284E-1    6.072421794267258E-3    5.041487272099717E-3   -6.611872685042004E-3    5.053374477803131E-3   -6.623974481889812E-3    9.950750701235718E-1    6.121100106571593E-3
 1.865024149270491E5     9.949485035199306E-1    6.013795529455532E-3    5.034963453317661E-3   -6.569437067104522E-3    5.048126929578919E-3   -6.585718650192244E-3    9.950829427513714E-1    6.077936389667352E-3
 1.879254027362132E5     9.950111327208166E-1    5.982059954122244E-3    5.032072503736836E-3   -6.526888653465426E-3    5.046299132378950E-3   -6.543700368537209E-3    9.951015870953157E-1    6.031324193322960E-3
 1.893592477469092E5     9.950321162541503E-1    5.888778897578962E-3    5.012389756097200E-3   -6.496692542015369E-3    5.028406906471607E-3   -6.499246385834151E-3    9.951108864621159E-1    5.968665299219049E-3
 1.908040327980933E5     9.949854051325583E-1    5.895641776757737E-3    5.018899149405143E-3   -6.445314735084107E-3    5.029748205319723E-3   -6.456217683121587E-3    9.950818462003093E-1    5.955977281421354E-3
 1.922598413607715E5     9.949911918743745E-1    5.828675595138963E-3    5.015376954414061E-3   -6.401509801071496E-3    5.027632091510193E-3   -6.417909454245589E-3    9.951251344583530E-1    5.890984342425360E-3
 1.937267575428232E5     9.949974733033743E-1    5.783639474356225E-3    5.010052368747165E-3   -6.360357924927221E-3    5.023312893701966E-3   -6.376966244847625E-3    9.951266625859710E-1    5.846546935913615E-3
 1.952048660938581E5     9.950175677668327E-1    5.744441611803692E-3    5.003309155428114E-3   -6.323069463495950E-3    5.014766715808463E-3   -6.334084704462495E-3    9.951255750136669E-1    5.792505246542626E-3
 1.966942524101142E5     9.949776490101423E-1    5.695846700287350E-3    4.997296653268254E-3   -6.284564981804398E-3    5.012378733145217E-3   -6.297534714724608E-3    9.951251063362734E-1    5.752516590126682E-3
 1.981950025393913E5     9.949663605242418E-1    5.666904475017182E-3    4.995586701402265E-3   -6.243600949815365E-3    5.008152019801855E-3   -6.253345501026792E-3    9.951207647066616E-1    5.709084902704154E-3
