#  HZ   S   RI   R     50.00 
! Rohde & Schwarz Vector Network Analyzer 
! Rohde-Schwarz,ZNLE6-2Port,1323001256200024,1.71.1.10-23.02.1.238
! Created: UTC 4/7/2025, 4:12:29 AM
! freq[Hz]                re:S11                  im:S11                  re:S21                  im:S21                  re:S12                  im:S12                  re:S22                  im:S22
 1.000000000000000E5     9.950374487971104E-1    1.060550469628929E-2    5.098787526480224E-3   -1.083192475036973E-2    5.108035546558055E-3   -1.085588098757639E-2    9.950530369542785E-1    1.056285857629154E-2
 1.007629862646662E5     9.950487152642142E-1    1.049427507017433E-2    5.094848772000458E-3   -1.075591007006587E-2    5.106639683292048E-3   -1.078446812005444E-2    9.950478808936516E-1    1.046911397677961E-2
 1.015317940097331E5     9.950429767460890E-1    1.041448619365079E-2    5.091353565904486E-3   -1.068349203395016E-2    5.098228035522224E-3   -1.070680238559322E-2    9.950304584798144E-1    1.037413892221965E-2
 1.023064676522963E5     9.950568231156123E-1    1.031799204169763E-2    5.087811079090958E-3   -1.060681970087052E-2    5.101451214124071E-3   -1.063009395393765E-2    9.950499348982749E-1    1.031364896415201E-2
 1.030870519483485E5     9.950260770982381E-1    1.024754144557175E-2    5.082210625376680E-3   -1.053087886583890E-2    5.093393251560244E-3   -1.055626539321761E-2    9.950536497355014E-1    1.023282350100164E-2
 1.038735919953636E5     9.950445708358118E-1    1.016761013238738E-2    5.078436302233385E-3   -1.045401066506918E-2    5.088469008349355E-3   -1.048533470306694E-2    9.950470136527807E-1    1.015704602822885E-2
 1.046661332349037E5     9.950415285542065E-1    1.009968281375423E-2    5.078060463087992E-3   -1.038107997145185E-2    5.088922770166170E-3   -1.040667329153657E-2    9.950363186850153E-1    1.008936756131457E-2
 1.054647214552430E5     9.950166498885512E-1    9.994158377589305E-3    5.072685825876320E-3   -1.030738980921892E-2    5.087986531812424E-3   -1.033223408787371E-2    9.950775106165791E-1    1.000995780076218E-2
 1.062694027940149E5     9.950274382816168E-1    9.929809275362644E-3    5.069714120864793E-3   -1.023504741696861E-2    5.081007800029042E-3   -1.026238085905333E-2    9.950659477075998E-1    9.926263697709627E-3
 1.070802237408760E5     9.950518093996348E-1    9.854758821110235E-3    5.067884290876406E-3   -1.016455171495278E-2    5.080449842538088E-3   -1.018823032785433E-2    9.950620745084197E-1    9.873468111223162E-3
 1.078972311401927E5     9.950365099081214E-1    9.766935969122474E-3    5.063247860480548E-3   -1.009043020829804E-2    5.074000381061317E-3   -1.011877382010829E-2    9.950616745058581E-1    9.783370481167114E-3
 1.087204721937475E5     9.950359003399697E-1    9.700585364270506E-3    5.058734061413537E-3   -1.002228892872016E-2    5.070129026007267E-3   -1.004448089909083E-2    9.950727568125520E-1    9.721726358258503E-3
 1.095499944634658E5     9.950388388519130E-1    9.614932342877414E-3    5.055605874821801E-3   -9.952023574090868E-3    5.071378300347516E-3   -9.975010817369005E-3    9.950337916477967E-1    9.645164744322277E-3
 1.103858458741646E5     9.950526203346942E-1    9.552898000302981E-3    5.051231708480139E-3   -9.881954921181685E-3    5.062628828046067E-3   -9.905857721017411E-3    9.950885268894569E-1    9.572071868106486E-3
 1.112280747163201E5     9.950391308010748E-1    9.467347270432738E-3    5.047705204228267E-3   -9.813250597790247E-3    5.062552895347006E-3   -9.835560314372887E-3    9.950873342643031E-1    9.505564870938149E-3
 1.120767296488583E5     9.950190731354708E-1    9.397005511496822E-3    5.043914832982838E-3   -9.740683427008703E-3    5.056270018834302E-3   -9.768077735445167E-3    9.950815989215491E-1    9.439485431371670E-3
 1.129318597019661E5     9.950215498129423E-1    9.329660064597895E-3    5.041433990423885E-3   -9.674772323273786E-3    5.055108779294824E-3   -9.701023708676787E-3    9.950699477156808E-1    9.351407801022721E-3
 1.137935142799240E5     9.950726363654835E-1    9.257255993328679E-3    5.039686550651049E-3   -9.605636488372368E-3    5.049388331740005E-3   -9.628995152721621E-3    9.950745375703592E-1    9.296779025504735E-3
 1.146617431639607E5     9.950327617399297E-1    9.180510847188362E-3    5.032886149816643E-3   -9.541001128645980E-3    5.045258612189775E-3   -9.562734752685988E-3    9.950885147944916E-1    9.223199826978980E-3
 1.155365965151286E5     9.950361689760465E-1    9.123774000861081E-3    5.029197734941143E-3   -9.473283156216592E-3    5.040222406484318E-3   -9.502547386687970E-3    9.950971373921769E-1    9.153869555565177E-3
 1.164181248772018E5     9.950432626605585E-1    9.053722622389888E-3    5.026624374253379E-3   -9.409053827767062E-3    5.039142389405906E-3   -9.431898162078328E-3    9.950848729455869E-1    9.086541380139108E-3
 1.173063791795965E5     9.950357920883239E-1    8.971471330987170E-3    5.021250426689110E-3   -9.343777166247902E-3    5.032795263893445E-3   -9.370018177725771E-3    9.950914765845549E-1    9.023909390388878E-3
 1.182014107403141E5     9.950713245980992E-1    8.920631598220829E-3    5.021453382988361E-3   -9.281242850236239E-3    5.035140247960531E-3   -9.298589979849408E-3    9.950971705647826E-1    8.955756124497800E-3
 1.191032712689044E5     9.950683602079056E-1    8.834518302322144E-3    5.016132438968698E-3   -9.213098454506116E-3    5.031423019014825E-3   -9.235135090419924E-3    9.951054758122616E-1    8.887646482361268E-3
 1.200120128694542E5     9.950495665391934E-1    8.781672406331497E-3    5.013614082057909E-3   -9.151063073787739E-3    5.026997214725357E-3   -9.172795499781712E-3    9.950857663207389E-1    8.807092142514253E-3
 1.209276880435975E5     9.950816798142395E-1    8.727872516544331E-3    5.011634735049266E-3   -9.086103500753173E-3    5.021804044829463E-3   -9.106676130916005E-3    9.951142215888249E-1    8.749372418685534E-3
 1.218503496935483E5     9.950870413653486E-1    8.666867617734421E-3    5.009709769019374E-3   -9.024599750211601E-3    5.016978644587762E-3   -9.045187579054800E-3    9.951195414674910E-1    8.692219974442361E-3
 1.227800511251578E5     9.950821618878491E-1    8.593346870129892E-3    4.999910380538953E-3   -8.962427158740724E-3    5.014009253838902E-3   -8.983814484701452E-3    9.951256692975604E-1    8.615149840662691E-3
 1.237168460509929E5     9.950746869046717E-1    8.530677459554293E-3    4.998352088200704E-3   -8.903470285424460E-3    5.013743995168490E-3   -8.922380364524862E-3    9.951395449073366E-1    8.556553482721255E-3
 1.246607885934402E5     9.950521709897320E-1    8.460238041724756E-3    4.996536804232103E-3   -8.840267739311706E-3    5.004054866403972E-3   -8.860956347764798E-3    9.951397903941395E-1    8.495138300302909E-3
 1.256119332878327E5     9.950791622066874E-1    8.399158463205296E-3    4.991817425001774E-3   -8.776822305662046E-3    5.000557495298754E-3   -8.798179461107038E-3    9.951513559649999E-1    8.425346408873789E-3
 1.265703350856002E5     9.950798512611652E-1    8.316136302549194E-3    4.986202963802756E-3   -8.717607703891577E-3    4.999199211833377E-3   -8.738327971549067E-3    9.951606712257297E-1    8.371394978973287E-3
 1.275360493574453E5     9.950707876789188E-1    8.252643335002216E-3    4.984708029893667E-3   -8.656409237755971E-3    4.998932262193592E-3   -8.675986982865059E-3    9.951433085819525E-1    8.309981667737958E-3
 1.285091318965405E5     9.950999480056950E-1    8.200790035818207E-3    4.979311229119177E-3   -8.596529569937067E-3    4.989235740785319E-3   -8.617036907634145E-3    9.951513955067095E-1    8.245394324771714E-3
 1.294896389217529E5     9.950958825390023E-1    8.131339570250353E-3    4.974804557618148E-3   -8.539021968592776E-3    4.989178561928640E-3   -8.560245308706299E-3    9.951488046660733E-1    8.191437189282351E-3
 1.304776270808914E5     9.950713815847831E-1    8.058485615165405E-3    4.972423938141581E-3   -8.479325932454611E-3    4.980425163981133E-3   -8.497422197522260E-3    9.951420635678645E-1    8.137801385504179E-3
 1.314731534539810E5     9.950734317370207E-1    8.011416436203976E-3    4.967731721204529E-3   -8.421804993754573E-3    4.980416533389466E-3   -8.440415645654963E-3    9.951314735024094E-1    8.055269084796941E-3
 1.324762755565583E5     9.951040740700257E-1    7.941205123715692E-3    4.965543903678637E-3   -8.361875633069539E-3    4.979958255470879E-3   -8.383500612474894E-3    9.951871382892070E-1    8.010104687315243E-3
 1.334870513429962E5     9.950565465549497E-1    7.885687868573970E-3    4.960822338269365E-3   -8.307743480631680E-3    4.973042219953603E-3   -8.326857090113172E-3    9.951662722439476E-1    7.946072970811447E-3
 1.345055392098512E5     9.950837610864162E-1    7.825211201491674E-3    4.962008799988515E-3   -8.248539623242025E-3    4.969949932931966E-3   -8.270612196753605E-3    9.951853170800147E-1    7.885816436491767E-3
 1.355317979992373E5     9.951106569520827E-1    7.780525741263359E-3    4.953794249067747E-3   -8.196556774284476E-3    4.966063180084232E-3   -8.210692421509338E-3    9.951761504583307E-1    7.838127054257030E-3
 1.365658870022265E5     9.950857561220117E-1    7.709264011478464E-3    4.949799066448874E-3   -8.140159907745815E-3    4.961037801982953E-3   -8.155812596029674E-3    9.951930233640192E-1    7.777299227755298E-3
 1.376078659622731E5     9.951244639394359E-1    7.653223974799868E-3    4.947155490200472E-3   -8.087287901211170E-3    4.957160962536666E-3   -8.100855692502242E-3    9.951696124041179E-1    7.707836302293276E-3
 1.386577950786655E5     9.951164727681420E-1    7.608147671327681E-3    4.941857066992957E-3   -8.028420274233044E-3    4.952833301666034E-3   -8.047278526004483E-3    9.951635015835185E-1    7.661997828961115E-3
 1.397157350100044E5     9.951291609493969E-1    7.530770079034240E-3    4.942628914173920E-3   -7.972216568271281E-3    4.950838306605694E-3   -7.993117486926306E-3    9.951898145517980E-1    7.601090213621650E-3
 1.407817468777081E5     9.951541316664270E-1    7.500908942228937E-3    4.935180068662766E-3   -7.920043956381824E-3    4.946335424554539E-3   -7.939795631991103E-3    9.952059985732352E-1    7.550265389791028E-3
 1.418558922695422E5     9.951489665391209E-1    7.434718707264801E-3    4.930850129422821E-3   -7.868798015131219E-3    4.943249582899554E-3   -7.884128650249960E-3    9.952025959707942E-1    7.478898846168157E-3
 1.429382332431784E5     9.951595826321133E-1    7.395060644613243E-3    4.928609123744834E-3   -7.812125206197475E-3    4.940437115009957E-3   -7.832889887362863E-3    9.952030397009984E-1    7.427983570624248E-3
 1.440288323297804E5     9.951321967278142E-1    7.354294301825720E-3    4.925287028045346E-3   -7.759440018952609E-3    4.934949350590564E-3   -7.777487883394418E-3    9.951900377801421E-1    7.366968699237443E-3
 1.451277525376154E5     9.951285469829114E-1    7.273274968793931E-3    4.917329531455233E-3   -7.710182653856666E-3    4.933325769973158E-3   -7.727187397024640E-3    9.952405722668691E-1    7.322777298079324E-3
 1.462350573556962E5     9.951185452253191E-1    7.219227575792284E-3    4.912265874538095E-3   -7.657625725908110E-3    4.927194454375557E-3   -7.673505473690472E-3    9.952063005424631E-1    7.271738043779361E-3
 1.473508107574468E5     9.951022998849232E-1    7.171134488852642E-3    4.911972846097720E-3   -7.602435328718854E-3    4.925636780710949E-3   -7.618156189216431E-3    9.952152440932324E-1    7.218585399344682E-3
 1.484750772044004E5     9.951223032051286E-1    7.097058022198202E-3    4.906208859710760E-3   -7.555206188891020E-3    4.920187800261308E-3   -7.571188783107950E-3    9.952272708066590E-1    7.168064423889302E-3
 1.496079216499225E5     9.951318532444264E-1    7.060495379573900E-3    4.899829762424675E-3   -7.502271394724829E-3    4.918679149067149E-3   -7.519993845235082E-3    9.952351625147544E-1    7.116509021689020E-3
 1.507494095429637E5     9.951251355607839E-1    7.005432273094688E-3    4.900965273579182E-3   -7.453971595282159E-3    4.910092390063256E-3   -7.470733548304094E-3    9.952211343086945E-1    7.070947921122112E-3
 1.518996068318418E5     9.951535898062075E-1    6.953566463367655E-3    4.896225125871206E-3   -7.399748753835911E-3    4.909253995771929E-3   -7.418563437005727E-3    9.952599043600006E-1    7.008589544145370E-3
 1.530585799680507E5     9.951440152163454E-1    6.903812122999099E-3    4.888644001570562E-3   -7.355065062470125E-3    4.904260229490170E-3   -7.369062674614238E-3    9.952569971775429E-1    6.956931229515772E-3
 1.542263959101001E5     9.951281378356478E-1    6.845821521459839E-3    4.890160311227480E-3   -7.302401588303403E-3    4.900550597874911E-3   -7.321245929158612E-3    9.952608362516188E-1    6.908315929791287E-3
 1.554031221273835E5     9.951655311786416E-1    6.791598178375280E-3    4.884648905559679E-3   -7.253265352700499E-3    4.895601062017992E-3   -7.273915277879262E-3    9.952472372554415E-1    6.850173893279766E-3
 1.565888266040779E5     9.951447529403880E-1    6.752586264525391E-3    4.880455751498133E-3   -7.210445102314474E-3    4.888705223511747E-3   -7.223530879286009E-3    9.952638397889866E-1    6.808556705922454E-3
 1.577835778430689E5     9.951621930830891E-1    6.678214912062342E-3    4.876010340539339E-3   -7.159820728311349E-3    4.887509201478572E-3   -7.177144058026796E-3    9.952789313053316E-1    6.749498408906146E-3
 1.589874448699104E5     9.951225395452626E-1    6.651078560746351E-3    4.868096097276658E-3   -7.113587106316092E-3    4.883096024506613E-3   -7.126155842819366E-3    9.953032316198863E-1    6.686305239437710E-3
 1.602004972368116E5     9.951858785742768E-1    6.597711583798268E-3    4.866962423084298E-3   -7.066837365155743E-3    4.877933522490706E-3   -7.081161796700001E-3    9.953348268380229E-1    6.634226463792831E-3
 1.614228050266550E5     9.951760724776371E-1    6.545007983668444E-3    4.858047994462619E-3   -7.017788082803244E-3    4.875864695102669E-3   -7.031689702774411E-3    9.952988306335122E-1    6.593520870844078E-3
 1.626544388570473E5     9.951818961662418E-1    6.500361221102696E-3    4.858112124317401E-3   -6.971732107944706E-3    4.869164875915095E-3   -6.987678842737699E-3    9.952762658013200E-1    6.536759088993377E-3
 1.638954698843964E5     9.951976514078061E-1    6.462608491842639E-3    4.855768972096370E-3   -6.927682708015760E-3    4.865474484906729E-3   -6.942988660943418E-3    9.952900589656012E-1    6.494916132675607E-3
 1.651459698080244E5     9.951877156364419E-1    6.403736330429907E-3    4.848295869955356E-3   -6.881311068386580E-3    4.864963406160745E-3   -6.896375963636329E-3    9.952985381487368E-1    6.430787979942215E-3
 1.664060108743095E5     9.952047918385324E-1    6.349309555244164E-3    4.846361756637533E-3   -6.836049764204006E-3    4.858281752113358E-3   -6.852062897599804E-3    9.953119799177441E-1    6.389387234831297E-3
 1.676756658808590E5     9.952304373257932E-1    6.302551602561973E-3    4.841875375074861E-3   -6.787790418393401E-3    4.855036803671753E-3   -6.804263969918143E-3    9.953444143097036E-1    6.349077981613697E-3
 1.689550081807175E5     9.952249982908780E-1    6.248911781495413E-3    4.837504568901090E-3   -6.745355570258802E-3    4.849630489428446E-3   -6.761847110684817E-3    9.953351645599823E-1    6.292970200198383E-3
 1.702441116866020E5     9.952224374615355E-1    6.194043417890581E-3    4.834323809145098E-3   -6.701128284996180E-3    4.842857079724801E-3   -6.716096988278449E-3    9.953506804260173E-1    6.252598562601700E-3
 1.715430508751738E5     9.952291919779693E-1    6.144620572036992E-3    4.826624346707906E-3   -6.657996375756086E-3    4.837174486764759E-3   -6.672564936297943E-3    9.953361261168150E-1    6.207564673604060E-3
 1.728519007913403E5     9.952426073244279E-1    6.121618860372946E-3    4.822730932029457E-3   -6.612759592213728E-3    4.834548586798778E-3   -6.628345208840741E-3    9.953485514089040E-1    6.164480773980393E-3
 1.741707370525927E5     9.952097601770402E-1    6.058144985670233E-3    4.817406212922888E-3   -6.573760369302559E-3    4.829561065505433E-3   -6.581870768510651E-3    9.953266374154098E-1    6.117232908753857E-3
 1.754996358533718E5     9.952403121249499E-1    6.014873332595197E-3    4.814399680797625E-3   -6.530713404822493E-3    4.829005187849887E-3   -6.540942922960881E-3    9.953062607533025E-1    6.068910401697766E-3
 1.768386739694722E5     9.952513896684049E-1    5.974595133944490E-3    4.807649815133750E-3   -6.485747262157711E-3    4.819130430928261E-3   -6.499722626055862E-3    9.953573092542080E-1    6.026705862562904E-3
 1.781879287624771E5     9.952467924567100E-1    5.930299101724694E-3    4.806647002347912E-3   -6.442401498346470E-3    4.816524040578997E-3   -6.454815740859914E-3    9.953621930712157E-1    5.988977531518881E-3
 1.795474781842276E5     9.952462046325562E-1    5.883100283976688E-3    4.801063850016131E-3   -6.400968496345027E-3    4.810448317714267E-3   -6.413719574426767E-3    9.953422405130512E-1    5.938911952243136E-3
 1.809174007813277E5     9.952952722506395E-1    5.850266889503851E-3    4.793410791205698E-3   -6.359374955890540E-3    4.808162228843789E-3   -6.374188978268803E-3    9.953387909071809E-1    5.896224865526569E-3
 1.822977756996804E5     9.952621405580087E-1    5.795337187664939E-3    4.788490903804189E-3   -6.318564381710271E-3    4.802569293773325E-3   -6.332594236586654E-3    9.953372478706912E-1    5.859369253845233E-3
 1.836886826890609E5     9.952649915761852E-1    5.749335641678152E-3    4.786234012249741E-3   -6.277777904450191E-3    4.797321219697593E-3   -6.290200449525407E-3    9.953521247140465E-1    5.795929220049023E-3
 1.850902021077247E5     9.952709095431485E-1    5.713211446511736E-3    4.781652562064099E-3   -6.239665174402524E-3    4.792190254456897E-3   -6.246841577200832E-3    9.953592984560149E-1    5.763724469450183E-3
 1.865024149270491E5     9.952808078523110E-1    5.648821379447249E-3    4.776571125798294E-3   -6.197733141502806E-3    4.787413867166123E-3   -6.211309419781378E-3    9.953562030905840E-1    5.719283454715660E-3
 1.879254027362132E5     9.952962684263478E-1    5.615605570919681E-3    4.771003199456321E-3   -6.157024233767749E-3    4.784410189472351E-3   -6.170438488620431E-3    9.953828947873374E-1    5.668599575245139E-3
 1.893592477469092E5     9.953420001273331E-1    5.544671452887961E-3    4.763231472374618E-3   -6.134358860306736E-3    4.781906360939106E-3   -6.111688986170769E-3    9.954056645829424E-1    5.645881482516412E-3
 1.908040327980933E5     9.952965666049112E-1    5.537034234582114E-3    4.763124536589208E-3   -6.078525139921748E-3    4.771779789186693E-3   -6.090007665465915E-3    9.954045250331820E-1    5.596614302532758E-3
 1.922598413607715E5     9.953045233074493E-1    5.488124914533426E-3    4.759793620442970E-3   -6.038652809814532E-3    4.766186873391289E-3   -6.048559945852421E-3    9.953995180229891E-1    5.533403938066096E-3
 1.937267575428232E5     9.953170481805147E-1    5.437084628669109E-3    4.754411428431362E-3   -6.003859629329822E-3    4.762457644876272E-3   -6.012576636343943E-3    9.954195308624108E-1    5.495021880464001E-3
 1.952048660938581E5     9.953126468839847E-1    5.407436851188659E-3    4.749034149931693E-3   -5.963138057109435E-3    4.760621360038069E-3   -5.975309733511897E-3    9.954033138817955E-1    5.451316209403280E-3
 1.966942524101142E5     9.953339950395130E-1    5.363093413618842E-3    4.742392205470360E-3   -5.924601942980574E-3    4.750885628517001E-3   -5.935817702058209E-3    9.954208456739627E-1    5.401844731963923E-3
 1.981950025393913E5     9.952983479645096E-1    5.331617735138463E-3    4.739916929565412E-3   -5.886334465533305E-3    4.746833780486684E-3   -5.894366061478605E-3    9.954219823239768E-1    5.368296710180271E-3
