#  HZ   S   RI   R     50.00 
! Rohde & Schwarz Vector Network Analyzer 
! Rohde-Schwarz,ZNLE6-2Port,1323001256200024,1.71.1.10-23.02.1.238
! Created: UTC 4/7/2025, 3:49:43 AM
! freq[Hz]                re:S11                  im:S11                  re:S21                  im:S21                  re:S12                  im:S12                  re:S22                  im:S22
 1.000000000000000E5     9.953401027898867E-1    1.011413265142418E-2    4.830723058545277E-3   -1.033062546890966E-2    4.841881040079443E-3   -1.036294673989336E-2    9.953388379647374E-1    1.006118745407796E-2
 1.007629862646662E5     9.953482585255243E-1    1.001038149254469E-2    4.827083859541251E-3   -1.025684923916869E-2    4.838070565086066E-3   -1.028548313497286E-2    9.953433519912915E-1    9.979591172148387E-3
 1.015317940097331E5     9.953254791818413E-1    9.957078885730462E-3    4.824345139337383E-3   -1.018670081248355E-2    4.833225838293913E-3   -1.021473284409053E-2    9.953198801871672E-1    9.898517466437070E-3
 1.023064676522963E5     9.953366985028870E-1    9.866880632928895E-3    4.821773169461703E-3   -1.011135373893741E-2    4.832797124216381E-3   -1.014416292505416E-2    9.953388629852654E-1    9.823316061977500E-3
 1.030870519483485E5     9.953239679413119E-1    9.796315293202219E-3    4.816769362328438E-3   -1.004072352958616E-2    4.830002892345361E-3   -1.006659391587324E-2    9.953388774331846E-1    9.749979412160568E-3
 1.038735919953636E5     9.953587233910769E-1    9.697119580193068E-3    4.814593262711459E-3   -9.972126745482538E-3    4.827173386118355E-3   -9.996858631089300E-3    9.953453175756571E-1    9.685512409475933E-3
 1.046661332349037E5     9.953067490559253E-1    9.634698183553409E-3    4.811770270935393E-3   -9.900738605247095E-3    4.824723779389740E-3   -9.924798815373696E-3    9.953366612349734E-1    9.597351749498925E-3
 1.054647214552430E5     9.953199736079615E-1    9.552678120404260E-3    4.807318228097588E-3   -9.829783725402351E-3    4.819935845993123E-3   -9.854723547260155E-3    9.953815014423849E-1    9.547278476050235E-3
 1.062694027940149E5     9.953261726114889E-1    9.482365285934253E-3    4.807502071357549E-3   -9.760927322429138E-3    4.816244816490133E-3   -9.784693782169257E-3    9.953587689820332E-1    9.466544240331701E-3
 1.070802237408760E5     9.953723515004939E-1    9.389761704210371E-3    4.799992905231838E-3   -9.687395735786012E-3    4.814102451485511E-3   -9.719402390105259E-3    9.953824326535752E-1    9.409828801716929E-3
 1.078972311401927E5     9.953577113334688E-1    9.330916959364052E-3    4.795313439876732E-3   -9.620062334307287E-3    4.812227516608719E-3   -9.649342795749777E-3    9.953838853788103E-1    9.320761865692802E-3
 1.087204721937475E5     9.953696244105235E-1    9.244439000797444E-3    4.794802315565006E-3   -9.556980889294507E-3    4.808853664488533E-3   -9.578490412005205E-3    9.953678801074576E-1    9.264526703287618E-3
 1.095499944634658E5     9.953551712003906E-1    9.170277547319942E-3    4.790884712669997E-3   -9.490975153882307E-3    4.800754992331213E-3   -9.513816138714191E-3    9.953423266998218E-1    9.180778555509549E-3
 1.103858458741646E5     9.953672377122977E-1    9.113301331190262E-3    4.789683158339551E-3   -9.417443957378289E-3    4.797575711755646E-3   -9.447014233728835E-3    9.953674732655527E-1    9.130587063068789E-3
 1.112280747163201E5     9.953308375531758E-1    9.035619665933380E-3    4.781420211182183E-3   -9.354433685265940E-3    4.796474676528168E-3   -9.380173960565440E-3    9.954079016668069E-1    9.042996029444077E-3
 1.120767296488583E5     9.953252728712515E-1    8.976183273804918E-3    4.780687379938167E-3   -9.290441754851891E-3    4.792871419709681E-3   -9.312093817528391E-3    9.954052031836496E-1    8.970636435904603E-3
 1.129318597019661E5     9.953260131463972E-1    8.893048220173767E-3    4.772954669028559E-3   -9.223689613597487E-3    4.790668898357866E-3   -9.248977768846919E-3    9.953709197485971E-1    8.900836541511165E-3
 1.137935142799240E5     9.953373294678532E-1    8.821721829316320E-3    4.776661423319553E-3   -9.158497913617128E-3    4.786542470464595E-3   -9.182921095593830E-3    9.953690545015430E-1    8.831647056524356E-3
 1.146617431639607E5     9.953141548279458E-1    8.750533062982985E-3    4.770609874704756E-3   -9.095330719393573E-3    4.781705501144198E-3   -9.116707063839199E-3    9.953614677113148E-1    8.775311508135179E-3
 1.155365965151286E5     9.953393649184639E-1    8.716842504001236E-3    4.767625496063010E-3   -9.030370501476297E-3    4.780290954820499E-3   -9.056411789024678E-3    9.953901693612983E-1    8.701561811805033E-3
 1.164181248772018E5     9.953500402170631E-1    8.644505827738680E-3    4.768631610559258E-3   -8.971921981457033E-3    4.777525532541370E-3   -8.994376503544373E-3    9.953830740034846E-1    8.633541778811912E-3
 1.173063791795965E5     9.953590771611962E-1    8.560646309807199E-3    4.764468278258678E-3   -8.905289688289780E-3    4.774112472942700E-3   -8.931010800290285E-3    9.953777780506239E-1    8.563296097123266E-3
 1.182014107403141E5     9.953469313669975E-1    8.515409501139408E-3    4.754085650293468E-3   -8.840279862743026E-3    4.769463300398703E-3   -8.866741203524327E-3    9.953992595813639E-1    8.513031836789600E-3
 1.191032712689044E5     9.953508794287307E-1    8.422968459300141E-3    4.755916664833693E-3   -8.781702455950125E-3    4.769689198873148E-3   -8.808394518661621E-3    9.954253463773576E-1    8.449530077567113E-3
 1.200120128694542E5     9.953740702158156E-1    8.373769289060565E-3    4.755307957943727E-3   -8.721096409811781E-3    4.764006408911813E-3   -8.742053992300996E-3    9.954183013979292E-1    8.389968249952640E-3
 1.209276880435975E5     9.953408835582952E-1    8.316356689590266E-3    4.749030830132520E-3   -8.658476433067167E-3    4.760053721982215E-3   -8.682457583013548E-3    9.954238473572508E-1    8.335806930589698E-3
 1.218503496935483E5     9.953666776113175E-1    8.270544403592340E-3    4.745873917839943E-3   -8.601877253743898E-3    4.756279146583142E-3   -8.623619235804214E-3    9.954332209898152E-1    8.254475676638460E-3
 1.227800511251578E5     9.953761231288087E-1    8.203710850578272E-3    4.744436095892242E-3   -8.541048916604309E-3    4.754929579569743E-3   -8.566111863029227E-3    9.954143053436804E-1    8.182205702226270E-3
 1.237168460509929E5     9.953789298452974E-1    8.134836051806076E-3    4.737131722255482E-3   -8.477375403616368E-3    4.749610528455955E-3   -8.501686173406601E-3    9.954136420149221E-1    8.133924164364844E-3
 1.246607885934402E5     9.953295541443340E-1    8.064822263198396E-3    4.734938321241946E-3   -8.422637189891580E-3    4.748358542885731E-3   -8.445603596628500E-3    9.953995240604897E-1    8.073864006924570E-3
 1.256119332878327E5     9.953710722152499E-1    8.014473148531603E-3    4.729070865715221E-3   -8.362978812587341E-3    4.743858701906762E-3   -8.388911879207962E-3    9.954048712693745E-1    8.010865247390407E-3
 1.265703350856002E5     9.953953934242242E-1    7.940027777902009E-3    4.726110317918404E-3   -8.303521649639852E-3    4.741135660577117E-3   -8.327583900732611E-3    9.954464466203170E-1    7.957116138836888E-3
 1.275360493574453E5     9.953606293503150E-1    7.870665105241004E-3    4.725183289162545E-3   -8.250247910004158E-3    4.736212724074275E-3   -8.268349409218733E-3    9.954505138479083E-1    7.895897075391872E-3
 1.285091318965405E5     9.953769461341752E-1    7.818930948657711E-3    4.719910678417229E-3   -8.190319633215251E-3    4.732585971378741E-3   -8.214872885841561E-3    9.954425081982073E-1    7.827147540786604E-3
 1.294896389217529E5     9.953590665554921E-1    7.736835214326760E-3    4.716830567507838E-3   -8.133941891544550E-3    4.732976647730757E-3   -8.158351115349242E-3    9.954744717510423E-1    7.777521785794191E-3
 1.304776270808914E5     9.953702559941042E-1    7.686088262833278E-3    4.712789776077279E-3   -8.079240543933200E-3    4.723719090417272E-3   -8.102831338856368E-3    9.954844637591278E-1    7.727331189907679E-3
 1.314731534539810E5     9.953661011428643E-1    7.640787869604832E-3    4.709758726921785E-3   -8.017525193225622E-3    4.722329376362676E-3   -8.047806483268322E-3    9.954597225937739E-1    7.657454629806768E-3
 1.324762755565583E5     9.953749489546219E-1    7.575183747156090E-3    4.706770434235407E-3   -7.966388264629882E-3    4.721650567785684E-3   -7.989663137229331E-3    9.954739951127936E-1    7.623622884418668E-3
 1.334870513429962E5     9.953670863364309E-1    7.514728559107763E-3    4.702099550472010E-3   -7.913585976075136E-3    4.717658594802864E-3   -7.934184519787287E-3    9.954962694119043E-1    7.568942998490535E-3
 1.345055392098512E5     9.953841715986229E-1    7.457968966755277E-3    4.703362795035065E-3   -7.861901903021563E-3    4.715197248452575E-3   -7.882563634157069E-3    9.955225571393436E-1    7.492550893380398E-3
 1.355317979992373E5     9.953943267646689E-1    7.411362959077371E-3    4.697318577282241E-3   -7.806414742359186E-3    4.707458219917538E-3   -7.832029550581231E-3    9.955007614318291E-1    7.450374655051806E-3
 1.365658870022265E5     9.953675312637242E-1    7.362655510323906E-3    4.694608879406422E-3   -7.751517605790321E-3    4.705185399477387E-3   -7.775918656321830E-3    9.954844912022147E-1    7.392079522301307E-3
 1.376078659622731E5     9.953858191949840E-1    7.291983650840661E-3    4.690642725122468E-3   -7.701348868999054E-3    4.699739767589734E-3   -7.718717934684315E-3    9.954891928021889E-1    7.347771820155476E-3
 1.386577950786655E5     9.953915361319209E-1    7.248989858749601E-3    4.688804253099579E-3   -7.645212695673344E-3    4.698347322509104E-3   -7.667717392161295E-3    9.954716111961787E-1    7.284871181339991E-3
 1.397157350100044E5     9.954060089602765E-1    7.182298244313429E-3    4.683180878166312E-3   -7.599369278528534E-3    4.695575682297741E-3   -7.615888574770672E-3    9.954887115660097E-1    7.228159097368629E-3
 1.407817468777081E5     9.954394785278255E-1    7.140789087971316E-3    4.678820619085229E-3   -7.543317933871902E-3    4.690269835560353E-3   -7.561916091829510E-3    9.954996241140183E-1    7.173907473888242E-3
 1.418558922695422E5     9.954336498944434E-1    7.091131274077425E-3    4.676583823799584E-3   -7.492053538117769E-3    4.689262385613035E-3   -7.509782830270240E-3    9.954830485264267E-1    7.102755129790576E-3
 1.429382332431784E5     9.954314976167602E-1    7.035030226115169E-3    4.670298230386833E-3   -7.444052608797712E-3    4.686504561973822E-3   -7.460395645406887E-3    9.955061041367167E-1    7.075217967066074E-3
 1.440288323297804E5     9.954086832829092E-1    6.999835926774943E-3    4.668083749733087E-3   -7.387815900634032E-3    4.680870893139770E-3   -7.409112963909210E-3    9.955169333371098E-1    7.004818205360848E-3
 1.451277525376154E5     9.953870220735073E-1    6.927018170923021E-3    4.665755412034798E-3   -7.344060706751634E-3    4.680521110964534E-3   -7.362272162971616E-3    9.955479411629653E-1    6.964247200839581E-3
 1.462350573556962E5     9.954106552863101E-1    6.875183346755191E-3    4.659839889423543E-3   -7.291029712214392E-3    4.677559396195932E-3   -7.309695258949612E-3    9.955427458053417E-1    6.908867014162329E-3
 1.473508107574468E5     9.954105714206373E-1    6.819418503011384E-3    4.656846803170750E-3   -7.242214955544900E-3    4.668532802932336E-3   -7.260635832427652E-3    9.955662704566620E-1    6.872309340382020E-3
 1.484750772044004E5     9.954158698392177E-1    6.760557598176747E-3    4.652870720421711E-3   -7.192132915398113E-3    4.667863755604137E-3   -7.211209787294826E-3    9.955469437682832E-1    6.806430452502826E-3
 1.496079216499225E5     9.954255147690604E-1    6.729064945988040E-3    4.647907956073991E-3   -7.141852799338354E-3    4.662952273359529E-3   -7.165371203864469E-3    9.955268380584452E-1    6.770549590979546E-3
 1.507494095429637E5     9.954292827661523E-1    6.680755582451898E-3    4.646585329334104E-3   -7.096162571869306E-3    4.658291980117253E-3   -7.112225433252842E-3    9.955421449191859E-1    6.723886268536617E-3
 1.518996068318418E5     9.954369439804324E-1    6.632248447876587E-3    4.641011841193956E-3   -7.050305009170685E-3    4.656264449687903E-3   -7.069045859245845E-3    9.955799841689348E-1    6.668929158399352E-3
 1.530585799680507E5     9.954314646390606E-1    6.571205588574505E-3    4.639549588768071E-3   -6.997913908171742E-3    4.650449040426517E-3   -7.019217754493507E-3    9.955569333375293E-1    6.602665609793095E-3
 1.542263959101001E5     9.954374265013207E-1    6.520732506032793E-3    4.637372028789034E-3   -6.957971370094379E-3    4.648118873429024E-3   -6.971110445684098E-3    9.955502196226905E-1    6.580364819133717E-3
 1.554031221273835E5     9.954523394431136E-1    6.465683460504000E-3    4.630259910189519E-3   -6.906705723043165E-3    4.645184997264830E-3   -6.926112358206300E-3    9.955474817406622E-1    6.507210127099197E-3
 1.565888266040779E5     9.954804103295037E-1    6.442266517065203E-3    4.626027762038254E-3   -6.861378226440369E-3    4.638730331974111E-3   -6.879649426150936E-3    9.955754843536037E-1    6.460762165861883E-3
 1.577835778430689E5     9.954617525001864E-1    6.365534161284822E-3    4.626950409910411E-3   -6.814980905300842E-3    4.638234242983344E-3   -6.836518787699241E-3    9.955701272229226E-1    6.406877557839255E-3
 1.589874448699104E5     9.954549165221247E-1    6.340077173887741E-3    4.616694511459241E-3   -6.770364402767563E-3    4.632673784137698E-3   -6.790202910491162E-3    9.956116629442399E-1    6.359431608060625E-3
 1.602004972368116E5     9.954964443964692E-1    6.283918205160361E-3    4.615729152367077E-3   -6.725323440882372E-3    4.629640729461790E-3   -6.740415902608494E-3    9.956801165026519E-1    6.302589415180793E-3
 1.614228050266550E5     9.955113034126387E-1    6.232036045992184E-3    4.614385988453826E-3   -6.681720871467039E-3    4.623502231256017E-3   -6.694233358055602E-3    9.955896251269929E-1    6.248216284783590E-3
 1.626544388570473E5     9.955029151073154E-1    6.191992005485499E-3    4.609006390258893E-3   -6.635056290589040E-3    4.622042281287566E-3   -6.653096617198050E-3    9.956005870587707E-1    6.197733250490492E-3
 1.638954698843964E5     9.955111304671007E-1    6.142747921947150E-3    4.605182808427030E-3   -6.591551996425502E-3    4.615606766395288E-3   -6.607973264283273E-3    9.956026894895041E-1    6.158191925679221E-3
 1.651459698080244E5     9.954802152414572E-1    6.090859214696954E-3    4.601556133794028E-3   -6.547854961651673E-3    4.611796289990308E-3   -6.565800860773220E-3    9.956204040296819E-1    6.120410803199107E-3
 1.664060108743095E5     9.954943260374995E-1    6.057721618361629E-3    4.597497881289008E-3   -6.502733456997978E-3    4.608632752840220E-3   -6.524059521251237E-3    9.956239182355138E-1    6.058878440397573E-3
 1.676756658808590E5     9.955233607633904E-1    5.998625078441380E-3    4.594396036663325E-3   -6.463714510312057E-3    4.607965558724105E-3   -6.477037187169222E-3    9.956270487216600E-1    6.023271922429720E-3
 1.689550081807175E5     9.954929286777846E-1    5.946222074461709E-3    4.587162026904157E-3   -6.421945222291112E-3    4.601228108117129E-3   -6.436013141753432E-3    9.956270103622599E-1    5.973637833636935E-3
 1.702441116866020E5     9.955127536402154E-1    5.896496825141185E-3    4.584104687656122E-3   -6.378677436078293E-3    4.598658802857573E-3   -6.394545020421256E-3    9.956363082648136E-1    5.946856931882543E-3
 1.715430508751738E5     9.955161005364465E-1    5.860192382727451E-3    4.578584768090974E-3   -6.337682739193427E-3    4.591288589334119E-3   -6.348987327094392E-3    9.956139081352476E-1    5.891307687346720E-3
 1.728519007913403E5     9.955327823339197E-1    5.813397208155611E-3    4.576463593837669E-3   -6.293707740701787E-3    4.589414658043771E-3   -6.311832551303216E-3    9.956577497821412E-1    5.834062249126999E-3
 1.741707370525927E5     9.955209629043996E-1    5.781803796348567E-3    4.572993704262398E-3   -6.253456298758005E-3    4.581661986181736E-3   -6.266609656998450E-3    9.956444180591697E-1    5.815384771578094E-3
 1.754996358533718E5     9.955468160210320E-1    5.724361750686504E-3    4.568332027229731E-3   -6.209457964267728E-3    4.579642432250004E-3   -6.227014808326597E-3    9.956531583987185E-1    5.766800582361252E-3
 1.768386739694722E5     9.955317295207541E-1    5.672486149104830E-3    4.564102175643157E-3   -6.169327680102099E-3    4.576506137943305E-3   -6.182826066637016E-3    9.957082289708536E-1    5.723880135687620E-3
 1.781879287624771E5     9.955163471425651E-1    5.625503726907841E-3    4.561179752954799E-3   -6.131007459388309E-3    4.569590140481412E-3   -6.144493232290713E-3    9.956784330809073E-1    5.681832819071255E-3
 1.795474781842276E5     9.955295887974170E-1    5.585907779476732E-3    4.554683962775118E-3   -6.089052258949904E-3    4.565292347671187E-3   -6.105758560162813E-3    9.956527164947954E-1    5.640008142633469E-3
 1.809174007813277E5     9.955240471427200E-1    5.533607533282291E-3    4.550506163584351E-3   -6.047760223249962E-3    4.564455316773063E-3   -6.066601054768758E-3    9.956319190489759E-1    5.593732494587077E-3
 1.822977756996804E5     9.955057272315658E-1    5.495057379951500E-3    4.544492351290029E-3   -6.009208865261674E-3    4.556371831831500E-3   -6.023858664680928E-3    9.956719462781138E-1    5.559368396647765E-3
 1.836886826890609E5     9.955284461028923E-1    5.460685897980628E-3    4.541247085729475E-3   -5.972070592060548E-3    4.555735413391739E-3   -5.982399347793406E-3    9.956446320955196E-1    5.499291766883668E-3
 1.850902021077247E5     9.955306181284493E-1    5.426897623751794E-3    4.537239651346329E-3   -5.931813404807544E-3    4.549538706301676E-3   -5.946364763983797E-3    9.956720126607034E-1    5.457703275612204E-3
 1.865024149270491E5     9.955388133443225E-1    5.368592261085900E-3    4.532991807384892E-3   -5.893831278777988E-3    4.543527305583189E-3   -5.906267649769334E-3    9.956555804573380E-1    5.419234865308321E-3
 1.879254027362132E5     9.955590452467448E-1    5.327957998805172E-3    4.527481264525448E-3   -5.856211476307611E-3    4.541279239951284E-3   -5.870100236858633E-3    9.956689106995054E-1    5.367783822331611E-3
 1.893592477469092E5     9.956034168426398E-1    5.239576953855417E-3    4.512422669051426E-3   -5.825291820486731E-3    4.530151468569031E-3   -5.838787583061437E-3    9.956991863911510E-1    5.311752291979015E-3
 1.908040327980933E5     9.955634099886926E-1    5.266751470859043E-3    4.520204762725382E-3   -5.780403694936194E-3    4.530177902525941E-3   -5.794970716536370E-3    9.957080390185983E-1    5.297249883235536E-3
 1.922598413607715E5     9.955486640118604E-1    5.203673457505151E-3    4.514879704304937E-3   -5.743290380125831E-3    4.526204842182384E-3   -5.752692750034652E-3    9.956900968408485E-1    5.247713661414018E-3
 1.937267575428232E5     9.955789624883249E-1    5.174290707633499E-3    4.509348375137564E-3   -5.703069127761865E-3    4.519615704744118E-3   -5.718123905887951E-3    9.956874226689650E-1    5.201499602712234E-3
 1.952048660938581E5     9.955878397419664E-1    5.129761978157628E-3    4.505374628214228E-3   -5.666715034937672E-3    4.514346252037947E-3   -5.681294807662925E-3    9.957056128354552E-1    5.147348774748202E-3
 1.966942524101142E5     9.955548405051580E-1    5.072099113762258E-3    4.500174477473485E-3   -5.628284098263416E-3    4.512517988948350E-3   -5.644889977241793E-3    9.957127285018670E-1    5.105233702600840E-3
 1.981950025393913E5     9.955596854184751E-1    5.056162313653171E-3    4.495944202906204E-3   -5.593999156902654E-3    4.509084768020472E-3   -5.605030693174115E-3    9.957204576915134E-1    5.081966529430339E-3
