#  HZ   S   RI   R     50.00 
! Rohde & Schwarz Vector Network Analyzer 
! Rohde-Schwarz,ZNLE6-2Port,1323001256200024,1.71.1.10-23.02.1.238
! Created: UTC 4/7/2025, 3:40:10 AM
! freq[Hz]                re:S11                  im:S11                  re:S21                  im:S21                  re:S12                  im:S12                  re:S22                  im:S22
 1.000000000000000E5     9.954856646230137E-1    9.565073055495366E-3    4.591524763844688E-3   -9.809881113984346E-3    4.602445218108570E-3   -9.824005567456948E-3    9.955790218291106E-1    9.525043577198709E-3
 1.007629862646662E5     9.955131845298955E-1    9.465759708759056E-3    4.584180678291394E-3   -9.739761451478254E-3    4.598723523846232E-3   -9.756178776196481E-3    9.955761479667944E-1    9.450301765346614E-3
 1.015317940097331E5     9.955020552112194E-1    9.400723299224678E-3    4.582191149979915E-3   -9.672116137325076E-3    4.593813890368072E-3   -9.684440857336220E-3    9.955706719376113E-1    9.361342953181690E-3
 1.023064676522963E5     9.955065626562657E-1    9.324702486574635E-3    4.582063883601494E-3   -9.602663876025140E-3    4.593886128724168E-3   -9.618542061912835E-3    9.955750913113658E-1    9.305003782250080E-3
 1.030870519483485E5     9.954883402358786E-1    9.248060439688175E-3    4.578370547424633E-3   -9.535674142479602E-3    4.592033992516044E-3   -9.544880084880593E-3    9.955911333912935E-1    9.228240692383743E-3
 1.038735919953636E5     9.955156540035237E-1    9.172956028454643E-3    4.574961829198016E-3   -9.463543219765650E-3    4.588313147595569E-3   -9.478952252666746E-3    9.955801404297676E-1    9.168290482779994E-3
 1.046661332349037E5     9.954768257143779E-1    9.105094558152121E-3    4.571711908722763E-3   -9.399404705311146E-3    4.585493835799973E-3   -9.414200712364235E-3    9.955841935062137E-1    9.084918260544035E-3
 1.054647214552430E5     9.954677632294339E-1    9.017940327043211E-3    4.568939695571019E-3   -9.332192574723609E-3    4.581784404952017E-3   -9.345189718217429E-3    9.955852740980119E-1    9.020315673368206E-3
 1.062694027940149E5     9.955013732933351E-1    8.956905196908080E-3    4.567002679553974E-3   -9.265723013189706E-3    4.574305258237009E-3   -9.280748591192814E-3    9.955806616009604E-1    8.954771534979715E-3
 1.070802237408760E5     9.955326873903932E-1    8.882195998735904E-3    4.563200316168813E-3   -9.199723978577906E-3    4.574591615251976E-3   -9.214244942163446E-3    9.956160045044138E-1    8.890941820786615E-3
 1.078972311401927E5     9.955509483865135E-1    8.812337112343308E-3    4.560559273209775E-3   -9.136873761703457E-3    4.568423121571719E-3   -9.148019973665851E-3    9.955948209380867E-1    8.815067143065633E-3
 1.087204721937475E5     9.954956961415864E-1    8.739384035148821E-3    4.554963628995850E-3   -9.071077467630499E-3    4.569927764416918E-3   -9.084195267163029E-3    9.956024122526409E-1    8.760392346329825E-3
 1.095499944634658E5     9.955410191531799E-1    8.659651425783770E-3    4.554239347763085E-3   -9.007133070201002E-3    4.566457134714177E-3   -9.024694667615957E-3    9.955492488513561E-1    8.678882245146534E-3
 1.103858458741646E5     9.955287983738895E-1    8.603638604247702E-3    4.548147253456329E-3   -8.946675466294900E-3    4.564382031689417E-3   -8.957862982548928E-3    9.955842230388638E-1    8.615613529855728E-3
 1.112280747163201E5     9.955284773941114E-1    8.532807428027631E-3    4.549115128563531E-3   -8.882069361217075E-3    4.560255364772466E-3   -8.896806837668627E-3    9.955959372539035E-1    8.549761212499845E-3
 1.120767296488583E5     9.955518698800468E-1    8.468431987897138E-3    4.542991599414313E-3   -8.815995485639537E-3    4.552387609016910E-3   -8.829840428953493E-3    9.956101194549759E-1    8.473284809050222E-3
 1.129318597019661E5     9.955231030873436E-1    8.393870368478384E-3    4.540226634497479E-3   -8.756953668801141E-3    4.554981179918241E-3   -8.768391320199621E-3    9.955505010715249E-1    8.404353086052953E-3
 1.137935142799240E5     9.955564625791432E-1    8.340221455134978E-3    4.535029035110928E-3   -8.696439791716720E-3    4.549814574256537E-3   -8.707596616453496E-3    9.955645376031949E-1    8.365756211003217E-3
 1.146617431639607E5     9.955505600980374E-1    8.276260671723325E-3    4.536885752901927E-3   -8.631561829277415E-3    4.547052855756295E-3   -8.642257146886302E-3    9.955801677072328E-1    8.298709435509062E-3
 1.155365965151286E5     9.955420549145749E-1    8.219286824799211E-3    4.529496828086258E-3   -8.573507553077680E-3    4.545743487059211E-3   -8.586080109754250E-3    9.955764996265760E-1    8.238732413949032E-3
 1.164181248772018E5     9.955339072400985E-1    8.159438613077313E-3    4.528771869917897E-3   -8.513071913045952E-3    4.542555662203331E-3   -8.522803754217545E-3    9.955677502999727E-1    8.180167885789109E-3
 1.173063791795965E5     9.955642252603842E-1    8.093118152855090E-3    4.524333655558930E-3   -8.453968861680027E-3    4.538760421150237E-3   -8.464859165829494E-3    9.956124125764771E-1    8.105611062398457E-3
 1.182014107403141E5     9.955380520476850E-1    8.028412389593884E-3    4.520638132317896E-3   -8.393499309090483E-3    4.536565295470700E-3   -8.405422267349933E-3    9.956070515608046E-1    8.042011480122528E-3
 1.191032712689044E5     9.955267669640839E-1    7.962508759065418E-3    4.519061698655523E-3   -8.334537428730190E-3    4.534651830543790E-3   -8.345588099222501E-3    9.956315653452086E-1    7.998712705492779E-3
 1.200120128694542E5     9.954836759961856E-1    7.902021229213971E-3    4.517039276705628E-3   -8.277220993845740E-3    4.526930918725446E-3   -8.289330658940726E-3    9.956306747149881E-1    7.925473903357169E-3
 1.209276880435975E5     9.955019684607266E-1    7.855574925687763E-3    4.512889826810620E-3   -8.218331391341864E-3    4.524099958903103E-3   -8.230610342887324E-3    9.956292407950528E-1    7.875597766645794E-3
 1.218503496935483E5     9.955201824503586E-1    7.812920057922211E-3    4.508997387909931E-3   -8.164803494119740E-3    4.524010843180880E-3   -8.171069023846105E-3    9.956168504003560E-1    7.816045629153681E-3
 1.227800511251578E5     9.955097392456519E-1    7.738123433915752E-3    4.504863524415673E-3   -8.108626898987887E-3    4.516856895848777E-3   -8.116226790167396E-3    9.956386436570226E-1    7.748779042274770E-3
 1.237168460509929E5     9.955212968426213E-1    7.664409155903514E-3    4.505502573132494E-3   -8.050504370997483E-3    4.516223177571777E-3   -8.055911726325882E-3    9.956540320310178E-1    7.693165138852684E-3
 1.246607885934402E5     9.954891510422049E-1    7.609233269412081E-3    4.501364858465708E-3   -7.993184188499482E-3    4.511133537553519E-3   -8.004031536559694E-3    9.956253541885743E-1    7.631572998665890E-3
 1.256119332878327E5     9.955388178241741E-1    7.554818579037371E-3    4.497897285774540E-3   -7.939349445741394E-3    4.510405717419648E-3   -7.947760921416247E-3    9.956297761585332E-1    7.562230876851967E-3
 1.265703350856002E5     9.955387873314709E-1    7.490793409588584E-3    4.492812127823229E-3   -7.882526904019182E-3    4.507483315320957E-3   -7.893012752744080E-3    9.956514665227207E-1    7.509598030562281E-3
 1.275360493574453E5     9.955560270563237E-1    7.426293122809424E-3    4.490071953899861E-3   -7.829017808703079E-3    4.504394177960034E-3   -7.835933603703365E-3    9.956185331685218E-1    7.451949676261614E-3
 1.285091318965405E5     9.955752919124897E-1    7.383093068386466E-3    4.488448179065447E-3   -7.775386187785964E-3    4.500986455592129E-3   -7.782565670989456E-3    9.956280192146283E-1    7.406827717974180E-3
 1.294896389217529E5     9.955465851956523E-1    7.311570329860611E-3    4.482816917154921E-3   -7.721154097541216E-3    4.498701900286383E-3   -7.729822865632231E-3    9.956572648002023E-1    7.342553704660060E-3
 1.304776270808914E5     9.955427565534544E-1    7.261542495557892E-3    4.480456779098572E-3   -7.665184578299472E-3    4.494595260659195E-3   -7.676111702661201E-3    9.956443977347401E-1    7.309720074166848E-3
 1.314731534539810E5     9.955328194768720E-1    7.195854421877215E-3    4.479988527475161E-3   -7.617536417697117E-3    4.491114278454993E-3   -7.621813807940562E-3    9.956306867073805E-1    7.239131454701852E-3
 1.324762755565583E5     9.955323745078032E-1    7.136762563854315E-3    4.474184659176497E-3   -7.565370566259532E-3    4.485915873455892E-3   -7.573752890933915E-3    9.956462728154610E-1    7.184815735542854E-3
 1.334870513429962E5     9.955273676079112E-1    7.092329753180093E-3    4.471155821682350E-3   -7.510122491575569E-3    4.487634873279553E-3   -7.520443090400836E-3    9.956533785627553E-1    7.140117014756017E-3
 1.345055392098512E5     9.955590874351740E-1    7.035144668705143E-3    4.467727010124023E-3   -7.461272673630132E-3    4.482509601934529E-3   -7.466714548093742E-3    9.956618194420319E-1    7.084210411874525E-3
 1.355317979992373E5     9.955758898055730E-1    6.979523632659499E-3    4.465471485080190E-3   -7.408707101161678E-3    4.476775892044567E-3   -7.415962787488533E-3    9.956708017204733E-1    7.049158431523529E-3
 1.365658870022265E5     9.955802240296572E-1    6.929704305577550E-3    4.460862591330736E-3   -7.361168393491395E-3    4.472094550518655E-3   -7.367032968493403E-3    9.956405014079686E-1    6.982078994495004E-3
 1.376078659622731E5     9.955862112149947E-1    6.881630397432744E-3    4.457749394778917E-3   -7.307674443378059E-3    4.470585081818395E-3   -7.315816231402891E-3    9.956621973297792E-1    6.932441482895665E-3
 1.386577950786655E5     9.955735049508045E-1    6.844065689801271E-3    4.456694664599871E-3   -7.260135643877313E-3    4.468599327877978E-3   -7.261020595080252E-3    9.956488270386031E-1    6.877308358480409E-3
 1.397157350100044E5     9.955831340084734E-1    6.781629167297801E-3    4.454106368079658E-3   -7.206312014017778E-3    4.464163438312133E-3   -7.212675915652827E-3    9.956695784884055E-1    6.815099032671812E-3
 1.407817468777081E5     9.955756592207572E-1    6.729503446648589E-3    4.447069018904787E-3   -7.158180668707468E-3    4.457636452035877E-3   -7.165502321411274E-3    9.956880384301248E-1    6.765048763710108E-3
 1.418558922695422E5     9.955588081306462E-1    6.673684200877379E-3    4.447478898047114E-3   -7.112829633262666E-3    4.456429392088757E-3   -7.113598423680998E-3    9.956912382943094E-1    6.727001675963213E-3
 1.429382332431784E5     9.955655223600041E-1    6.626505159087331E-3    4.440305482814413E-3   -7.062899154805883E-3    4.451908363113347E-3   -7.067213057238967E-3    9.956880255943256E-1    6.666799626011424E-3
 1.440288323297804E5     9.955656947068009E-1    6.588911806214997E-3    4.438476727900906E-3   -7.013777254297623E-3    4.452886740416915E-3   -7.020057665002480E-3    9.957104505521449E-1    6.621011457398845E-3
 1.451277525376154E5     9.955804522846380E-1    6.521724929207191E-3    4.434854173900748E-3   -6.966477757986391E-3    4.447565145460217E-3   -6.970598039044746E-3    9.957214776816180E-1    6.582965901215151E-3
 1.462350573556962E5     9.955676285578916E-1    6.470245314901886E-3    4.432622602154222E-3   -6.919864654184963E-3    4.443788563478613E-3   -6.925450635937603E-3    9.957340194886155E-1    6.524354987606800E-3
 1.473508107574468E5     9.955832190628253E-1    6.433708222209793E-3    4.429904383140391E-3   -6.872602310886124E-3    4.440378344706225E-3   -6.876995724986360E-3    9.957360685256836E-1    6.478813178841148E-3
 1.484750772044004E5     9.955810158670825E-1    6.365931176606023E-3    4.425109668605329E-3   -6.832074877604199E-3    4.438326157436001E-3   -6.829378090211768E-3    9.957254283724354E-1    6.435062074352738E-3
 1.496079216499225E5     9.955744108572956E-1    6.330870155872906E-3    4.423249267176529E-3   -6.781739090634151E-3    4.435115828507388E-3   -6.786762565499360E-3    9.957143063472609E-1    6.386668418527113E-3
 1.507494095429637E5     9.956040582358302E-1    6.278355915442141E-3    4.418110152210834E-3   -6.734246915502975E-3    4.430800861089356E-3   -6.741226099724257E-3    9.957176000004503E-1    6.335748307277196E-3
 1.518996068318418E5     9.956135790383762E-1    6.248356321657588E-3    4.415423064408853E-3   -6.689653790888692E-3    4.432670928924288E-3   -6.691439045504797E-3    9.957208335326196E-1    6.279538977452439E-3
 1.530585799680507E5     9.955943756857563E-1    6.188611094664283E-3    4.409296227040970E-3   -6.645418067351155E-3    4.421249482155011E-3   -6.649600481797049E-3    9.957242349771797E-1    6.219506201925243E-3
 1.542263959101001E5     9.955955834271721E-1    6.138337663606969E-3    4.405271213417659E-3   -6.600323899741511E-3    4.424257889589837E-3   -6.601783288719436E-3    9.957410019455936E-1    6.185302072118935E-3
 1.554031221273835E5     9.956257008531008E-1    6.087374571944858E-3    4.400788756503587E-3   -6.555622449881136E-3    4.413990469233404E-3   -6.560995761541082E-3    9.957495758379939E-1    6.129272483950894E-3
 1.565888266040779E5     9.956058256172587E-1    6.056272357205327E-3    4.401881721409713E-3   -6.512909063475492E-3    4.412017003722003E-3   -6.514884046394422E-3    9.957406357746313E-1    6.077787672117495E-3
 1.577835778430689E5     9.956420873573683E-1    6.001114298151589E-3    4.397133740932787E-3   -6.467674472470418E-3    4.409478059943031E-3   -6.471007874145472E-3    9.957460312206896E-1    6.036818114837986E-3
 1.589874448699104E5     9.956152758635838E-1    5.959928245235066E-3    4.392256326810554E-3   -6.423029319088677E-3    4.405793867439271E-3   -6.428212798280633E-3    9.957702644311466E-1    5.990836884706197E-3
 1.602004972368116E5     9.956630283850042E-1    5.917747750562957E-3    4.391944859365381E-3   -6.384428250247938E-3    4.403921418342411E-3   -6.385226154355157E-3    9.958385780534222E-1    5.933520808402937E-3
 1.614228050266550E5     9.956805045180535E-1    5.872006203479586E-3    4.385295372869743E-3   -6.343316318190853E-3    4.398081775267899E-3   -6.344858898736196E-3    9.958279446931242E-1    5.892313717883207E-3
 1.626544388570473E5     9.956522331753896E-1    5.814234112380644E-3    4.381864849372406E-3   -6.294809746396982E-3    4.393753645719638E-3   -6.299422210996840E-3    9.958110440529475E-1    5.847072849092772E-3
 1.638954698843964E5     9.956534291323271E-1    5.771928714631931E-3    4.377501468446507E-3   -6.256699806923806E-3    4.393522095787113E-3   -6.259357195601434E-3    9.958204825876794E-1    5.809893758344653E-3
 1.651459698080244E5     9.956607201603219E-1    5.742059481732553E-3    4.374230474170508E-3   -6.217321453456926E-3    4.388271259023673E-3   -6.217124920734283E-3    9.958022178055280E-1    5.761902433889501E-3
 1.664060108743095E5     9.956622880217264E-1    5.692961501208220E-3    4.369231633072779E-3   -6.172859686429583E-3    4.381638884236771E-3   -6.175412898980607E-3    9.958147489266432E-1    5.709509573355077E-3
 1.676756658808590E5     9.956707589033059E-1    5.632922106330724E-3    4.365186249182580E-3   -6.131981227752659E-3    4.381598987256465E-3   -6.130697987232136E-3    9.958114708482146E-1    5.674065021107792E-3
 1.689550081807175E5     9.956669303976347E-1    5.586544783468027E-3    4.362294667436673E-3   -6.093706423051931E-3    4.375718855645448E-3   -6.091916464067567E-3    9.958004073246098E-1    5.624767828958927E-3
 1.702441116866020E5     9.956468495815173E-1    5.549775387218123E-3    4.357838476171637E-3   -6.050640639720699E-3    4.372169577849862E-3   -6.053465977593298E-3    9.958170684701078E-1    5.598120993283242E-3
 1.715430508751738E5     9.956867514265811E-1    5.510513832729691E-3    4.354422390024409E-3   -6.011539036065811E-3    4.367950035149891E-3   -6.010786197859390E-3    9.958330310205737E-1    5.544017648390314E-3
 1.728519007913403E5     9.956808845589574E-1    5.463244767310796E-3    4.352983580280877E-3   -5.972781692766543E-3    4.366208135383197E-3   -5.969627759856044E-3    9.958303516719937E-1    5.497018153821369E-3
 1.741707370525927E5     9.956746739462011E-1    5.413063399679302E-3    4.349869261187403E-3   -5.937040198292205E-3    4.358419212963265E-3   -5.931407266484991E-3    9.958261307257767E-1    5.462825303369218E-3
 1.754996358533718E5     9.956478240837752E-1    5.363083233984512E-3    4.344075493560608E-3   -5.895870643742083E-3    4.357100045639600E-3   -5.891196722770126E-3    9.958113890492416E-1    5.411148074916364E-3
 1.768386739694722E5     9.956229812369728E-1    5.315557321052895E-3    4.337654305188273E-3   -5.855508729215060E-3    4.353124461369164E-3   -5.853281531261083E-3    9.958503158873390E-1    5.382727393661147E-3
 1.781879287624771E5     9.956185953318702E-1    5.198707896395070E-3    4.331773191280406E-3   -5.820946732666302E-3    4.346049282164258E-3   -5.815442720326467E-3    9.958646205092681E-1    5.350953992673524E-3
 1.795474781842276E5     9.956706312708035E-1    5.118885908013520E-3    4.327931761045052E-3   -5.781076446533398E-3    4.342734788811270E-3   -5.778342027436145E-3    9.958906566417456E-1    5.306367085636986E-3
 1.809174007813277E5     9.956487994955830E-1    5.069783592783170E-3    4.326835477245523E-3   -5.743720099722536E-3    4.338434163569401E-3   -5.739638311145954E-3    9.958494145308222E-1    5.257329315334703E-3
 1.822977756996804E5     9.956524802962026E-1    5.032562642155624E-3    4.319982815011774E-3   -5.705634023635713E-3    4.334341909096529E-3   -5.701551662698475E-3    9.958666753834602E-1    5.206388381110119E-3
 1.836886826890609E5     9.956870928341585E-1    5.001692596651297E-3    4.320099721225139E-3   -5.668490740216828E-3    4.328280417774787E-3   -5.661905882141178E-3    9.958384663796203E-1    5.160873653645018E-3
 1.850902021077247E5     9.956830765953592E-1    4.926557833681382E-3    4.313092877364964E-3   -5.633232445137180E-3    4.327042273132501E-3   -5.626100671423451E-3    9.958430640524766E-1    5.131294044621655E-3
 1.865024149270491E5     9.956731247086155E-1    4.864256765168893E-3    4.310223019539274E-3   -5.595551048178439E-3    4.321107922146856E-3   -5.588305433624899E-3    9.958714134504277E-1    5.106749322630139E-3
 1.879254027362132E5     9.956704306091972E-1    4.818796130861926E-3    4.306942695620038E-3   -5.560416385426102E-3    4.316401523021385E-3   -5.552209076201561E-3    9.958747487740364E-1    5.053449960328921E-3
 1.893592477469092E5     9.956478626005260E-1    4.738269272614872E-3    4.317969459897661E-3   -5.521286293757078E-3    4.312179566457840E-3   -5.528304503496293E-3    9.958856433256458E-1    4.981185140682653E-3
 1.908040327980933E5     9.956314483591239E-1    4.663083666284184E-3    4.293817846931169E-3   -5.485801242431569E-3    4.310462009223659E-3   -5.482695850692728E-3    9.958720235122059E-1    4.970539236711546E-3
 1.922598413607715E5     9.956742284755836E-1    4.663498225011729E-3    4.291213041461261E-3   -5.455288329129998E-3    4.304345811012659E-3   -5.447552982130124E-3    9.959126275283712E-1    4.915048015907480E-3
 1.937267575428232E5     9.956917098708026E-1    4.656363498074842E-3    4.285538444256884E-3   -5.419589417549422E-3    4.297337864388118E-3   -5.410826475905531E-3    9.959071506422394E-1    4.881993708507161E-3
 1.952048660938581E5     9.957088449773646E-1    4.568943174233077E-3    4.278130284396539E-3   -5.384699695012425E-3    4.294121342767777E-3   -5.374482935023290E-3    9.958894871068464E-1    4.832948772245290E-3
 1.966942524101142E5     9.956956466245774E-1    4.531423701331855E-3    4.278214295334625E-3   -5.349327140592565E-3    4.291823424169104E-3   -5.337469011776654E-3    9.959127454109254E-1    4.811894603846860E-3
 1.981950025393913E5     9.956579949983795E-1    4.487804710062724E-3    4.272596238431448E-3   -5.315623124075859E-3    4.285506759328578E-3   -5.303154385292689E-3    9.958944077120979E-1    4.792658365426950E-3
