#  HZ   S   RI   R     50.00 
! Rohde & Schwarz Vector Network Analyzer 
! Rohde-Schwarz,ZNLE6-2Port,1323001256200024,1.71.1.10-23.02.1.238
! Created: UTC 4/7/2025, 3:30:57 AM
! freq[Hz]                re:S11                  im:S11                  re:S21                  im:S21                  re:S12                  im:S12                  re:S22                  im:S22
 1.000000000000000E5     9.957515703772857E-1    9.099692782195050E-3    4.365100862480115E-3   -9.306939503278662E-3    4.380935353356624E-3   -9.333800910571149E-3    9.957993969063955E-1    9.010761462277779E-3
 1.007629862646662E5     9.957576509722691E-1    9.002694344909282E-3    4.360792945712685E-3   -9.241161132003274E-3    4.374269981678256E-3   -9.267458757809733E-3    9.958051714846413E-1    8.943059174270023E-3
 1.015317940097331E5     9.957472287362505E-1    8.919049219082530E-3    4.360514358826080E-3   -9.177695532591696E-3    4.376404552699689E-3   -9.203452905972581E-3    9.957717901573501E-1    8.858709066706964E-3
 1.023064676522963E5     9.957647590431861E-1    8.855096498004637E-3    4.358837789771280E-3   -9.112248791135293E-3    4.368802757539801E-3   -9.136041554994105E-3    9.957937385005625E-1    8.800893086027153E-3
 1.030870519483485E5     9.957373089855965E-1    8.789949447061605E-3    4.355093816039259E-3   -9.041945095882095E-3    4.367478658525338E-3   -9.071750583336384E-3    9.957942004937427E-1    8.723664375214237E-3
 1.038735919953636E5     9.957248852804139E-1    8.697172219725166E-3    4.350221897400180E-3   -8.979742455793201E-3    4.362733334544824E-3   -9.003333768169617E-3    9.957774881141912E-1    8.679977967120289E-3
 1.046661332349037E5     9.957289391684413E-1    8.646879503850827E-3    4.349905383812774E-3   -8.918838829740067E-3    4.359006923718987E-3   -8.941609937541834E-3    9.957706111536837E-1    8.606239598255554E-3
 1.054647214552430E5     9.957019160535809E-1    8.560535758421341E-3    4.345031770213466E-3   -8.855495592089119E-3    4.357933596894971E-3   -8.879857752217555E-3    9.958001843614694E-1    8.538094115776567E-3
 1.062694027940149E5     9.957390245523653E-1    8.499729806436587E-3    4.344040926441068E-3   -8.791327243715811E-3    4.357972675901488E-3   -8.814877251650085E-3    9.957916014831375E-1    8.492942948418451E-3
 1.070802237408760E5     9.957482177740137E-1    8.428925040676672E-3    4.340056271766818E-3   -8.730142946170048E-3    4.353950041407822E-3   -8.754250983019778E-3    9.958125483564222E-1    8.417553545034571E-3
 1.078972311401927E5     9.957392464385418E-1    8.356278971909591E-3    4.339035221428754E-3   -8.664245138454586E-3    4.350596555544311E-3   -8.692405775546030E-3    9.957684260172095E-1    8.333301308179887E-3
 1.087204721937475E5     9.957503460197090E-1    8.304199444626912E-3    4.335346473540034E-3   -8.606240235593992E-3    4.348618146844354E-3   -8.627561735092226E-3    9.957778505235673E-1    8.293556976829848E-3
 1.095499944634658E5     9.957612990662682E-1    8.220433523188599E-3    4.332406965586299E-3   -8.544821700308123E-3    4.345090990068982E-3   -8.567742122369128E-3    9.957608188528096E-1    8.213032210677084E-3
 1.103858458741646E5     9.957490335627508E-1    8.158155208750377E-3    4.330205281937327E-3   -8.482349457253997E-3    4.342752845664483E-3   -8.509944912204607E-3    9.957949428036397E-1    8.150830701593821E-3
 1.112280747163201E5     9.957674819709152E-1    8.083655557505358E-3    4.326313498042704E-3   -8.424326763272731E-3    4.340618252399888E-3   -8.447822832971517E-3    9.957826886433266E-1    8.089254715068260E-3
 1.120767296488583E5     9.957560381382891E-1    8.035621378375027E-3    4.325697274105278E-3   -8.363344940440300E-3    4.335694823022056E-3   -8.386912212643226E-3    9.958013883910165E-1    8.028027906121837E-3
 1.129318597019661E5     9.957545836465256E-1    7.971883241992307E-3    4.320118388386052E-3   -8.304785504053063E-3    4.331553574874994E-3   -8.328150157550547E-3    9.957573880055673E-1    7.959913738853849E-3
 1.137935142799240E5     9.957632222770197E-1    7.899038154535847E-3    4.317582841011611E-3   -8.246907830473462E-3    4.332306783565325E-3   -8.270847689474569E-3    9.957766909287844E-1    7.914119329805978E-3
 1.146617431639607E5     9.957537411359200E-1    7.843702442076175E-3    4.316197500497469E-3   -8.188604082901096E-3    4.327791685247571E-3   -8.211571404602994E-3    9.958030447296643E-1    7.847338173589914E-3
 1.155365965151286E5     9.957560548000427E-1    7.814295443519305E-3    4.313316835153086E-3   -8.132163376421675E-3    4.322086830427583E-3   -8.153207138285167E-3    9.957985123896622E-1    7.794719963386407E-3
 1.164181248772018E5     9.957380785126531E-1    7.746468104838398E-3    4.309329841675079E-3   -8.074945851293914E-3    4.322101490668070E-3   -8.095540215583992E-3    9.957958117206890E-1    7.735079224238674E-3
 1.173063791795965E5     9.957750005077111E-1    7.669332088519187E-3    4.305406307645587E-3   -8.017229949798392E-3    4.321294161258441E-3   -8.040668497695507E-3    9.957881993698156E-1    7.674799021935852E-3
 1.182014107403141E5     9.957875635258776E-1    7.636777602361720E-3    4.305260631721410E-3   -7.962825984490626E-3    4.316761563161246E-3   -7.982988574390061E-3    9.958180943316188E-1    7.598315669210559E-3
 1.191032712689044E5     9.957646700768996E-1    7.542989603669631E-3    4.297987451127929E-3   -7.909498214207529E-3    4.313470459588908E-3   -7.926029352579699E-3    9.958146311413221E-1    7.545334054000681E-3
 1.200120128694542E5     9.957395833613802E-1    7.491660413460091E-3    4.299696096189225E-3   -7.848987374189357E-3    4.308957788614913E-3   -7.871539922894999E-3    9.958074403252526E-1    7.487401435863251E-3
 1.209276880435975E5     9.957529735975732E-1    7.447187436485338E-3    4.295783779029234E-3   -7.799485775438669E-3    4.308164953268877E-3   -7.816225417451436E-3    9.958179602798823E-1    7.434298700708085E-3
 1.218503496935483E5     9.957857507875487E-1    7.417651364055039E-3    4.294134921502825E-3   -7.744776908219725E-3    4.306209664182352E-3   -7.763482372467020E-3    9.958021167561932E-1    7.385918982514820E-3
 1.227800511251578E5     9.957717203676597E-1    7.345723938122427E-3    4.293150508628342E-3   -7.692250817646845E-3    4.300196595244618E-3   -7.707184229650976E-3    9.958001450629693E-1    7.325320633343374E-3
 1.237168460509929E5     9.957417256464999E-1    7.278038179181074E-3    4.286681535370864E-3   -7.634982216801913E-3    4.298802673556390E-3   -7.654728448076087E-3    9.958013626889990E-1    7.261881838364547E-3
 1.246607885934402E5     9.957334134093364E-1    7.211741920412109E-3    4.285756788875629E-3   -7.580705306714334E-3    4.293573019877003E-3   -7.597416459066994E-3    9.957698666856811E-1    7.219007161509194E-3
 1.256119332878327E5     9.957856238209167E-1    7.177338669409300E-3    4.282516047776587E-3   -7.528797796589793E-3    4.290669956098048E-3   -7.545915372449296E-3    9.957796129243627E-1    7.147963723498499E-3
 1.265703350856002E5     9.957628492944030E-1    7.108202323619863E-3    4.278906206309534E-3   -7.475349134037293E-3    4.291492924546298E-3   -7.496043686340819E-3    9.958359116508669E-1    7.100742137150906E-3
 1.275360493574453E5     9.957502867768471E-1    7.025248342673402E-3    4.274499560444185E-3   -7.422672944310882E-3    4.283811119180391E-3   -7.445605258307160E-3    9.958239281036841E-1    7.041588421763643E-3
 1.285091318965405E5     9.957995575047793E-1    6.984891042444051E-3    4.272250325474822E-3   -7.371250615988977E-3    4.283524742110810E-3   -7.393339971293068E-3    9.958108490665574E-1    6.991362241531483E-3
 1.294896389217529E5     9.957608596694142E-1    6.940418583702091E-3    4.270314856521380E-3   -7.321031453723851E-3    4.281858833757636E-3   -7.343487228176816E-3    9.958115280631673E-1    6.954002758646221E-3
 1.304776270808914E5     9.957755735743984E-1    6.865651532281896E-3    4.265328293970656E-3   -7.272430162861265E-3    4.276961428632752E-3   -7.289456065566873E-3    9.958405001376176E-1    6.905056174145871E-3
 1.314731534539810E5     9.957615861061538E-1    6.811048708361466E-3    4.262259197727627E-3   -7.220246692080142E-3    4.275875676286955E-3   -7.239885984425942E-3    9.958064590088558E-1    6.826981170692582E-3
 1.324762755565583E5     9.957790594213282E-1    6.762321184321732E-3    4.260367070987232E-3   -7.168413761510997E-3    4.272636590032039E-3   -7.192644251674881E-3    9.958424505261191E-1    6.794833170603082E-3
 1.334870513429962E5     9.957598139580340E-1    6.717906770077913E-3    4.261019311072483E-3   -7.124018963514150E-3    4.270255196351342E-3   -7.139384782930734E-3    9.958309496321222E-1    6.749912227395688E-3
 1.345055392098512E5     9.957614835783457E-1    6.654779853968552E-3    4.251731532891301E-3   -7.071794006664684E-3    4.266551595193958E-3   -7.086784080868109E-3    9.958387103399035E-1    6.689945450513197E-3
 1.355317979992373E5     9.957684906089435E-1    6.625321600194535E-3    4.250684364870345E-3   -7.023198172118571E-3    4.259246606632528E-3   -7.043280492869935E-3    9.958382775799248E-1    6.653443034201864E-3
 1.365658870022265E5     9.957595230852289E-1    6.568834570340843E-3    4.247372438148940E-3   -6.974021679468818E-3    4.257909489178876E-3   -6.994044788452701E-3    9.958449914312392E-1    6.601032722988349E-3
 1.376078659622731E5     9.957841667368528E-1    6.505449977185379E-3    4.247240647370688E-3   -6.930026998255103E-3    4.256068480380799E-3   -6.945409332405101E-3    9.958763476065229E-1    6.537496272377056E-3
 1.386577950786655E5     9.957831067837447E-1    6.476717014974469E-3    4.240583406939854E-3   -6.880090919624825E-3    4.252414004565441E-3   -6.898635010058091E-3    9.958375779367029E-1    6.491960201652365E-3
 1.397157350100044E5     9.957941002026141E-1    6.401266020306822E-3    4.240926486235697E-3   -6.831351761340305E-3    4.250996239094401E-3   -6.851822116665055E-3    9.958787028155560E-1    6.429621196843736E-3
 1.407817468777081E5     9.958255514562093E-1    6.374222103806742E-3    4.235805186637684E-3   -6.787086868753190E-3    4.247158964557207E-3   -6.806125085582004E-3    9.958898050567796E-1    6.389459659739769E-3
 1.418558922695422E5     9.958340583865292E-1    6.332169535448570E-3    4.230056895825912E-3   -6.740134498433615E-3    4.243859113742521E-3   -6.756836136121520E-3    9.958782062940182E-1    6.336683552394246E-3
 1.429382332431784E5     9.958063117207019E-1    6.272813349982489E-3    4.229087852254806E-3   -6.696272343228065E-3    4.238638784254229E-3   -6.710568684606796E-3    9.958782415885910E-1    6.279101055524719E-3
 1.440288323297804E5     9.958251446276665E-1    6.234653229854619E-3    4.221648258147276E-3   -6.646277624256630E-3    4.238284155183162E-3   -6.665117575299812E-3    9.958848647400693E-1    6.240911603792594E-3
 1.451277525376154E5     9.957934652279046E-1    6.163040648236673E-3    4.222533868312035E-3   -6.600074222021677E-3    4.231472353626865E-3   -6.619929489569142E-3    9.959038901748697E-1    6.203404090935643E-3
 1.462350573556962E5     9.958096329137259E-1    6.127879978099213E-3    4.217406670023481E-3   -6.556039436162457E-3    4.228947930170873E-3   -6.572176360444841E-3    9.959018529991552E-1    6.150208162085458E-3
 1.473508107574468E5     9.958137306225250E-1    6.087913940009355E-3    4.215103197497601E-3   -6.512063604360348E-3    4.224990788224073E-3   -6.527024083775868E-3    9.959317335197239E-1    6.103811735133220E-3
 1.484750772044004E5     9.958258945998277E-1    6.021814809219337E-3    4.215212261840804E-3   -6.469370562764028E-3    4.223623972669495E-3   -6.485618183928860E-3    9.959086147757118E-1    6.061090168042125E-3
 1.496079216499225E5     9.958126509769720E-1    6.001877469775571E-3    4.211063972055071E-3   -6.426034381119654E-3    4.220090833837391E-3   -6.441742063908647E-3    9.958990328405473E-1    6.030588931559997E-3
 1.507494095429637E5     9.958115893411411E-1    5.946795195781815E-3    4.205978218064161E-3   -6.381482855275244E-3    4.219943786853433E-3   -6.395057600469177E-3    9.958912801098040E-1    5.966580393155392E-3
 1.518996068318418E5     9.958534511269781E-1    5.912385846545222E-3    4.203595908747286E-3   -6.338640308307086E-3    4.213707036972767E-3   -6.353157015029642E-3    9.959237140075701E-1    5.932233166623356E-3
 1.530585799680507E5     9.958269300101660E-1    5.842559739185429E-3    4.196800334916526E-3   -6.296318187328629E-3    4.210532766593832E-3   -6.310078803855611E-3    9.959030543744897E-1    5.869014685265285E-3
 1.542263959101001E5     9.958233893926814E-1    5.788065125755407E-3    4.197794729093179E-3   -6.252578499891906E-3    4.208403484186198E-3   -6.267023907854613E-3    9.958942759610916E-1    5.843371086942595E-3
 1.554031221273835E5     9.958648303302655E-1    5.762376445922254E-3    4.191938149021012E-3   -6.212387822185158E-3    4.202706607713011E-3   -6.226414669585607E-3    9.959239246172057E-1    5.784316870904319E-3
 1.565888266040779E5     9.958584474624493E-1    5.728055611361713E-3    4.186664017405323E-3   -6.168648246540506E-3    4.197399693278313E-3   -6.181811722973819E-3    9.959459536553211E-1    5.739829396865377E-3
 1.577835778430689E5     9.958329514754702E-1    5.670842885543925E-3    4.185047059483442E-3   -6.124989400202044E-3    4.197360917842307E-3   -6.139227669799977E-3    9.959373301908813E-1    5.692378969840610E-3
 1.589874448699104E5     9.958170109797816E-1    5.651421992923684E-3    4.180439290606658E-3   -6.086042146406329E-3    4.192228328884454E-3   -6.098684312861424E-3    9.959372508455199E-1    5.635969337589293E-3
 1.602004972368116E5     9.958804905211168E-1    5.593128302512476E-3    4.176674997976949E-3   -6.043335090202009E-3    4.187225114117436E-3   -6.059953306991633E-3    9.959786183659151E-1    5.601836086789756E-3
 1.614228050266550E5     9.958490252729256E-1    5.539020523733846E-3    4.174457945792954E-3   -6.003671640157989E-3    4.185277412116175E-3   -6.015627608697825E-3    9.959815182454747E-1    5.547151413016210E-3
 1.626544388570473E5     9.958536560461906E-1    5.492734179399172E-3    4.171487112644619E-3   -5.960265396481761E-3    4.183638230520923E-3   -5.979345184289213E-3    9.959351086419302E-1    5.504289099678270E-3
 1.638954698843964E5     9.958756463996863E-1    5.451273997202364E-3    4.168570970321142E-3   -5.921110226131197E-3    4.179450316417508E-3   -5.936803875668482E-3    9.959463641374089E-1    5.465160502639287E-3
 1.651459698080244E5     9.958612006537623E-1    5.411927155698701E-3    4.164910960094944E-3   -5.885120289073426E-3    4.176735397165530E-3   -5.899233126286684E-3    9.959710921203833E-1    5.430636608581140E-3
 1.664060108743095E5     9.958636868931010E-1    5.370107094488509E-3    4.158270259084700E-3   -5.840819296607796E-3    4.170093842692527E-3   -5.858398065206734E-3    9.959987689808627E-1    5.388021883872384E-3
 1.676756658808590E5     9.958873969557571E-1    5.314096845118987E-3    4.155901195413729E-3   -5.805882086576251E-3    4.168812067938457E-3   -5.818919020188797E-3    9.959844101764930E-1    5.345825256029584E-3
 1.689550081807175E5     9.958767291627181E-1    5.278187735258406E-3    4.153998120538966E-3   -5.764330403035312E-3    4.165385007799841E-3   -5.778500310181947E-3    9.959780263081944E-1    5.286055981233627E-3
 1.702441116866020E5     9.958853153863474E-1    5.230875764563175E-3    4.147813960569489E-3   -5.726564116320896E-3    4.157495429866619E-3   -5.741080310420936E-3    9.959995348268809E-1    5.272789566677776E-3
 1.715430508751738E5     9.958853192497606E-1    5.195655843628542E-3    4.143525379404004E-3   -5.686453682679673E-3    4.157031795617302E-3   -5.705604490854626E-3    9.959793700386977E-1    5.226035605026286E-3
 1.728519007913403E5     9.959160662512063E-1    5.164689746620528E-3    4.142772887556887E-3   -5.651475837776710E-3    4.152998835655318E-3   -5.662228385536208E-3    9.959939132715480E-1    5.179683172655127E-3
 1.741707370525927E5     9.959084477011041E-1    5.109276247559007E-3    4.136587678009314E-3   -5.613610403464028E-3    4.151158973025600E-3   -5.628717511135237E-3    9.959838409142430E-1    5.144033861948151E-3
 1.754996358533718E5     9.959040611589256E-1    5.071060701512317E-3    4.134604440830503E-3   -5.576940879423024E-3    4.146684047302475E-3   -5.588999277714130E-3    9.959738243432635E-1    5.095425131363176E-3
 1.768386739694722E5     9.959151182623691E-1    5.041295669470324E-3    4.128609844476266E-3   -5.537861574780764E-3    4.138000762662294E-3   -5.554002357242353E-3    9.960162573288874E-1    5.069606710774881E-3
 1.781879287624771E5     9.959063289260439E-1    4.986948856064662E-3    4.125804348381910E-3   -5.503571839346156E-3    4.134719868839298E-3   -5.513942124118696E-3    9.960593491579521E-1    5.027294182692290E-3
 1.795474781842276E5     9.959240001182896E-1    4.960667242357645E-3    4.125038897266611E-3   -5.462933285208997E-3    4.135574865604564E-3   -5.477290313255168E-3    9.960386724552516E-1    4.990994139779623E-3
 1.809174007813277E5     9.959246328260986E-1    4.913566460710269E-3    4.119946033390957E-3   -5.432494112021628E-3    4.129454534368953E-3   -5.444811264471956E-3    9.960310259778479E-1    4.959279972466962E-3
 1.822977756996804E5     9.959147166879571E-1    4.877728737407278E-3    4.114215337880858E-3   -5.395346720528148E-3    4.127791559585801E-3   -5.406561139123036E-3    9.960213561573278E-1    4.917406807958765E-3
 1.836886826890609E5     9.959345029109926E-1    4.845096492749909E-3    4.108823835227272E-3   -5.358457512294056E-3    4.123392483456159E-3   -5.369215828791030E-3    9.960256292535686E-1    4.872678476515311E-3
 1.850902021077247E5     9.959185633735979E-1    4.803000445652168E-3    4.104103921908356E-3   -5.321941035234075E-3    4.117496281574887E-3   -5.336955822446653E-3    9.960056056536892E-1    4.841510033829379E-3
 1.865024149270491E5     9.959342993243692E-1    4.758011144300157E-3    4.104657574364626E-3   -5.290119162126549E-3    4.114202957722715E-3   -5.300305416307767E-3    9.960213547642442E-1    4.804694023508559E-3
 1.879254027362132E5     9.959228152795703E-1    4.714272942842841E-3    4.099337549040839E-3   -5.254370817382452E-3    4.112544016495386E-3   -5.268219039494063E-3    9.960334732122053E-1    4.745051484406842E-3
 1.893592477469092E5     9.959658403507017E-1    4.671673628844824E-3    4.111469286157006E-3   -5.227270862609950E-3    4.094969741275483E-3   -5.244840273063140E-3    9.960710923020297E-1    4.675736340858203E-3
 1.908040327980933E5     9.959552966607268E-1    4.648633537126153E-3    4.092072886188526E-3   -5.185343252396986E-3    4.101244135767988E-3   -5.195686668074115E-3    9.960370641816384E-1    4.686625097581810E-3
 1.922598413607715E5     9.959654090131632E-1    4.599598723282762E-3    4.084832824743885E-3   -5.151021594771953E-3    4.099118715863565E-3   -5.158644987203568E-3    9.960531713024096E-1    4.633671048324131E-3
 1.937267575428232E5     9.959568612065182E-1    4.571675653785162E-3    4.082567995722819E-3   -5.111980058839131E-3    4.094535517085014E-3   -5.127241378315477E-3    9.960446459848750E-1    4.588828187786868E-3
 1.952048660938581E5     9.959948145736954E-1    4.529047905326911E-3    4.076194355403881E-3   -5.082770787619004E-3    4.088459591263976E-3   -5.093450044548069E-3    9.960478483022683E-1    4.555705907833641E-3
 1.966942524101142E5     9.959664076392413E-1    4.486488781196397E-3    4.071768260147925E-3   -5.049112693856695E-3    4.086107937250213E-3   -5.063530584942939E-3    9.960273995285310E-1    4.512248289625785E-3
 1.981950025393913E5     9.959534077649853E-1    4.458862974132349E-3    4.069945267199176E-3   -5.017621313270134E-3    4.080017948159684E-3   -5.025989619709887E-3    9.960433470066780E-1    4.479398629823074E-3
