#  HZ   S   RI   R     50.00 
! Rohde & Schwarz Vector Network Analyzer 
! Rohde-Schwarz,ZNLE6-2Port,1323001256200024,1.71.1.10-23.02.1.238
! Created: UTC 4/7/2025, 3:17:45 AM
! freq[Hz]                re:S11                  im:S11                  re:S21                  im:S21                  re:S12                  im:S12                  re:S22                  im:S22
 1.000000000000000E5     9.959731575103327E-1    8.694992069832453E-3    4.154581118883656E-3   -8.889445285674395E-3    4.167636956478549E-3   -8.914452009819702E-3    9.960401362765373E-1    8.603815925945902E-3
 1.007629862646662E5     9.959822946588756E-1    8.600055533309866E-3    4.151341482591796E-3   -8.828254356710754E-3    4.163727230926793E-3   -8.852463349849665E-3    9.960458712984855E-1    8.540770698468906E-3
 1.015317940097331E5     9.959614929665773E-1    8.515394118711562E-3    4.153257839988469E-3   -8.768646927552297E-3    4.163034191214614E-3   -8.786121948366442E-3    9.960048598830036E-1    8.450029671807162E-3
 1.023064676522963E5     9.959930391430767E-1    8.457482098391098E-3    4.149374867274815E-3   -8.704390750798426E-3    4.157736373788239E-3   -8.721121019700748E-3    9.960128850802183E-1    8.397500457614924E-3
 1.030870519483485E5     9.959685657500904E-1    8.377846662923696E-3    4.147491634316421E-3   -8.638059939286406E-3    4.153564135839566E-3   -8.664200889487076E-3    9.959937788943994E-1    8.333161509953597E-3
 1.038735919953636E5     9.959613519030758E-1    8.313158467257555E-3    4.145403027632668E-3   -8.577629633650403E-3    4.153176309085345E-3   -8.601042457900970E-3    9.960009123514529E-1    8.258301657532574E-3
 1.046661332349037E5     9.959502975836522E-1    8.263750793603740E-3    4.140209565356235E-3   -8.516197389592901E-3    4.147748457981441E-3   -8.539614535752301E-3    9.959938117765459E-1    8.191419926757300E-3
 1.054647214552430E5     9.959526787279480E-1    8.186864019336085E-3    4.138343258038391E-3   -8.456105644490746E-3    4.147679522575973E-3   -8.478216849252021E-3    9.960323034780073E-1    8.139219795586239E-3
 1.062694027940149E5     9.959497406298361E-1    8.120279939438995E-3    4.134433191059572E-3   -8.393443435632784E-3    4.144561789426043E-3   -8.416938376735556E-3    9.960159835554342E-1    8.098664083715493E-3
 1.070802237408760E5     9.959860575398980E-1    8.057345052374907E-3    4.129229870952187E-3   -8.337613849737848E-3    4.143873829467963E-3   -8.355688607473410E-3    9.960298187767501E-1    8.049020798756657E-3
 1.078972311401927E5     9.959667665883908E-1    8.000249429562319E-3    4.131165073106338E-3   -8.277042214547337E-3    4.141712754539832E-3   -8.296022178284523E-3    9.960235080854279E-1    7.950875008930287E-3
 1.087204721937475E5     9.959673309646189E-1    7.937895869145008E-3    4.127608587658671E-3   -8.215933966464965E-3    4.134344844870431E-3   -8.238329317333277E-3    9.960275281158563E-1    7.911071658232247E-3
 1.095499944634658E5     9.959758292538513E-1    7.863041867688332E-3    4.122327372561419E-3   -8.162629936906102E-3    4.134130647371001E-3   -8.180914607034372E-3    9.959840266021746E-1    7.843027421556540E-3
 1.103858458741646E5     9.959801308681110E-1    7.793323957570497E-3    4.118824917006506E-3   -8.099637400849133E-3    4.132505807501731E-3   -8.120889553003486E-3    9.960048850020626E-1    7.781918260569605E-3
 1.112280747163201E5     9.959795781769472E-1    7.737663329513112E-3    4.116789066781036E-3   -8.048656311660988E-3    4.129183106811688E-3   -8.067291148139664E-3    9.960187927063894E-1    7.712386176110833E-3
 1.120767296488583E5     9.959676979730518E-1    7.681366071039588E-3    4.116760724447496E-3   -7.986378051130115E-3    4.128465834300685E-3   -8.006118976410742E-3    9.960427859538519E-1    7.654779661557221E-3
 1.129318597019661E5     9.959721028346901E-1    7.620679290291889E-3    4.113449038781188E-3   -7.932030979738991E-3    4.123762334109024E-3   -7.951342508331703E-3    9.959803908536565E-1    7.579423204400145E-3
 1.137935142799240E5     9.960049176941426E-1    7.564906303036303E-3    4.110558333861829E-3   -7.877412818907765E-3    4.123124982455506E-3   -7.892940270957960E-3    9.960021659068556E-1    7.544468116146989E-3
 1.146617431639607E5     9.959838887393825E-1    7.504099881862123E-3    4.108762176333970E-3   -7.816825628873281E-3    4.118768845389550E-3   -7.837981847091812E-3    9.960003583526127E-1    7.486455467466679E-3
 1.155365965151286E5     9.959739703532028E-1    7.460042416285126E-3    4.105972220423979E-3   -7.765536364613180E-3    4.115710177858671E-3   -7.780983758865092E-3    9.960157361106010E-1    7.421384250402603E-3
 1.164181248772018E5     9.959689469156905E-1    7.392302675501086E-3    4.099546900332197E-3   -7.707111758327229E-3    4.116839878144136E-3   -7.725641015487363E-3    9.960058760514571E-1    7.361087581495018E-3
 1.173063791795965E5     9.959797666427935E-1    7.329742775314048E-3    4.097856591981079E-3   -7.657525495743320E-3    4.111600787697721E-3   -7.672428809727857E-3    9.960134152465762E-1    7.296772067929752E-3
 1.182014107403141E5     9.959891736156244E-1    7.290772208251444E-3    4.095699178525775E-3   -7.604339386197510E-3    4.108803591316440E-3   -7.620458164984337E-3    9.960170765919056E-1    7.246862499684678E-3
 1.191032712689044E5     9.959822204899894E-1    7.201188246821410E-3    4.091996880717321E-3   -7.547343838268299E-3    4.105873491873041E-3   -7.565957099531526E-3    9.960407327170021E-1    7.195535778542796E-3
 1.200120128694542E5     9.959497194323806E-1    7.156220867241668E-3    4.092837042641789E-3   -7.497587647414718E-3    4.103506682399793E-3   -7.512666396441710E-3    9.960245959919487E-1    7.130644776983318E-3
 1.209276880435975E5     9.959443781426949E-1    7.110645556856574E-3    4.092010609097993E-3   -7.445719549938313E-3    4.098459806018132E-3   -7.459056906167297E-3    9.960390678357598E-1    7.102537408444996E-3
 1.218503496935483E5     9.959605709361468E-1    7.066696869782292E-3    4.088286331453151E-3   -7.389673425195514E-3    4.098053960970723E-3   -7.405471436307030E-3    9.960056115634833E-1    7.040000749282496E-3
 1.227800511251578E5     9.959830603315729E-1    7.000492508195402E-3    4.085450667544202E-3   -7.337386945979291E-3    4.093286067691596E-3   -7.355630574668882E-3    9.960086226799573E-1    6.977726182990343E-3
 1.237168460509929E5     9.959843105478806E-1    6.939283018314307E-3    4.082114382976432E-3   -7.285252470558497E-3    4.090103659399985E-3   -7.302827207449823E-3    9.960250110825662E-1    6.933034789819966E-3
 1.246607885934402E5     9.959550425779179E-1    6.881221672213892E-3    4.078195153442715E-3   -7.234929922513038E-3    4.089910790329851E-3   -7.251000050511856E-3    9.960009367053859E-1    6.871026956757194E-3
 1.256119332878327E5     9.960002597071616E-1    6.836143381349660E-3    4.074574905203345E-3   -7.186225560401814E-3    4.086109157685549E-3   -7.200311967705562E-3    9.960229871795073E-1    6.806807738637336E-3
 1.265703350856002E5     9.959893401567449E-1    6.768712131365847E-3    4.075603419913996E-3   -7.132603649450793E-3    4.084071653651482E-3   -7.152493857304290E-3    9.960382133929996E-1    6.760870965795063E-3
 1.275360493574453E5     9.959702046611205E-1    6.713953905271493E-3    4.070135786738320E-3   -7.086656457045110E-3    4.082583752826626E-3   -7.102100670573077E-3    9.960430168550736E-1    6.716582593390627E-3
 1.285091318965405E5     9.959665330334537E-1    6.666927944928310E-3    4.071568786621708E-3   -7.035616219882118E-3    4.076661835873472E-3   -7.050196317271210E-3    9.960447701532330E-1    6.661381770012240E-3
 1.294896389217529E5     9.959464015634305E-1    6.610742814407882E-3    4.063479908906469E-3   -6.984895783899299E-3    4.072204317809377E-3   -7.003176611102796E-3    9.960880346513962E-1    6.618609979634370E-3
 1.304776270808914E5     9.959792965875652E-1    6.553551870353499E-3    4.063585323701405E-3   -6.940562953069150E-3    4.071867839296554E-3   -6.954831866762000E-3    9.960654515390608E-1    6.571529214028131E-3
 1.314731534539810E5     9.959667707386435E-1    6.504506179219902E-3    4.058920885309952E-3   -6.887332712391431E-3    4.066676555486716E-3   -6.906431401292277E-3    9.960630010344493E-1    6.498122085859687E-3
 1.324762755565583E5     9.960075980548383E-1    6.435379222318660E-3    4.055141198152849E-3   -6.844157843178956E-3    4.066392655559112E-3   -6.857176863591388E-3    9.960815431236871E-1    6.479229953226470E-3
 1.334870513429962E5     9.959684407754715E-1    6.407419922531855E-3    4.053801090222874E-3   -6.795408222765531E-3    4.063711270116530E-3   -6.812323516778108E-3    9.960763727423290E-1    6.437364139379674E-3
 1.345055392098512E5     9.960013756052648E-1    6.351524575313980E-3    4.049610784364653E-3   -6.747386850929992E-3    4.061194165953960E-3   -6.763094108300853E-3    9.960678954960333E-1    6.366636140724654E-3
 1.355317979992373E5     9.960000166099168E-1    6.312349245606991E-3    4.043881640102951E-3   -6.700731857211728E-3    4.056946097800610E-3   -6.716067796674178E-3    9.960995439295011E-1    6.331207848712983E-3
 1.365658870022265E5     9.959796728988055E-1    6.252184582615753E-3    4.043247207215011E-3   -6.654607188014794E-3    4.054443837217922E-3   -6.670357707052581E-3    9.960847202622873E-1    6.274791995412281E-3
 1.376078659622731E5     9.960090338359261E-1    6.214839279675133E-3    4.037343380057694E-3   -6.606994970320034E-3    4.052293061078219E-3   -6.622849512367772E-3    9.960822351231693E-1    6.224272072112257E-3
 1.386577950786655E5     9.960245447595425E-1    6.170398831597492E-3    4.037967877248676E-3   -6.564168987653198E-3    4.048758075671836E-3   -6.576379493807658E-3    9.960495002547228E-1    6.177026089561023E-3
 1.397157350100044E5     9.960177910181783E-1    6.107433219601379E-3    4.033725674306252E-3   -6.518622402311674E-3    4.044122640495731E-3   -6.528934263336798E-3    9.960801626312403E-1    6.130026947415708E-3
 1.407817468777081E5     9.960409150538717E-1    6.068923167106588E-3    4.033343054871974E-3   -6.470685088843921E-3    4.044104304509619E-3   -6.487110857606053E-3    9.961015987610230E-1    6.070697632544015E-3
 1.418558922695422E5     9.960352575101249E-1    6.034607171073923E-3    4.030403098853249E-3   -6.428353731331913E-3    4.041453910495959E-3   -6.439743781845936E-3    9.961201852735068E-1    6.022801749151430E-3
 1.429382332431784E5     9.960330113406447E-1    5.979179990603470E-3    4.027217500711441E-3   -6.384682125131379E-3    4.040252007403265E-3   -6.400085683132209E-3    9.960844425729750E-1    5.989661411453674E-3
 1.440288323297804E5     9.960106421845515E-1    5.951300201726322E-3    4.025452487965047E-3   -6.341031646654043E-3    4.032039473661885E-3   -6.357453619660490E-3    9.961055792946515E-1    5.942585493020496E-3
 1.451277525376154E5     9.959991580333587E-1    5.877723808917685E-3    4.021897386188867E-3   -6.297331486818485E-3    4.031527877052653E-3   -6.310315463366492E-3    9.961511793725478E-1    5.909221770856991E-3
 1.462350573556962E5     9.960245953735739E-1    5.834768026152085E-3    4.017318566982673E-3   -6.256172268814099E-3    4.027780886575957E-3   -6.265034695667892E-3    9.961630745272178E-1    5.856408176775739E-3
 1.473508107574468E5     9.960429450707828E-1    5.801298070924600E-3    4.015348726371845E-3   -6.211242779223323E-3    4.024415331369873E-3   -6.224353120705134E-3    9.961656936094966E-1    5.815401715493244E-3
 1.484750772044004E5     9.960279701512185E-1    5.730710363170527E-3    4.010526017237559E-3   -6.168419598053173E-3    4.021534753212840E-3   -6.180358637236607E-3    9.961372945028824E-1    5.765802881420450E-3
 1.496079216499225E5     9.960112677560412E-1    5.700710971727144E-3    4.007090842220746E-3   -6.126633757198977E-3    4.021065238838658E-3   -6.137797708178212E-3    9.961395177549561E-1    5.720707889563303E-3
 1.507494095429637E5     9.960190231244839E-1    5.672913485688397E-3    4.008685201954939E-3   -6.083813354635450E-3    4.016037145865127E-3   -6.094176272235779E-3    9.961445966381429E-1    5.682164828220710E-3
 1.518996068318418E5     9.960524335970846E-1    5.619397198035900E-3    4.001997171878461E-3   -6.044628991564393E-3    4.018362551600785E-3   -6.055240697893063E-3    9.961505345629794E-1    5.630065321544277E-3
 1.530585799680507E5     9.960235513037242E-1    5.580834030832920E-3    4.000779740654229E-3   -6.001204534648143E-3    4.008413774028074E-3   -6.014667732998497E-3    9.961527487092275E-1    5.576156971052360E-3
 1.542263959101001E5     9.960148035564547E-1    5.513630422002772E-3    3.996406862489288E-3   -5.962531389800639E-3    4.008552738661153E-3   -5.974012351261671E-3    9.961527243246741E-1    5.554842882697080E-3
 1.554031221273835E5     9.960546786207107E-1    5.476661998368743E-3    3.991884857944957E-3   -5.921524480720535E-3    4.003249209872186E-3   -5.933813309959126E-3    9.961800991254536E-1    5.500684583172565E-3
 1.565888266040779E5     9.960440465010892E-1    5.450014830630865E-3    3.985655500781247E-3   -5.876726421085434E-3    4.002952176285853E-3   -5.891790632866967E-3    9.961610736969719E-1    5.442849484973675E-3
 1.577835778430689E5     9.960489676752756E-1    5.399896629164226E-3    3.986833683407540E-3   -5.841202568748534E-3    3.996262609066117E-3   -5.853295728900211E-3    9.961786344108631E-1    5.418379066048285E-3
 1.589874448699104E5     9.960400075773053E-1    5.363573279529296E-3    3.980498428784559E-3   -5.801018336152551E-3    3.989131617549908E-3   -5.812165110519930E-3    9.961572243244775E-1    5.346034438662827E-3
 1.602004972368116E5     9.960875491611855E-1    5.324971931340370E-3    3.980568271210741E-3   -5.760899092858884E-3    3.986463513286689E-3   -5.772957979302723E-3    9.962102448259623E-1    5.305130561376004E-3
 1.614228050266550E5     9.960628711138522E-1    5.269638128194347E-3    3.972549027657428E-3   -5.724186570223069E-3    3.985886901202838E-3   -5.730242852832230E-3    9.962189797958356E-1    5.260177811169895E-3
 1.626544388570473E5     9.960483608268711E-1    5.230568669121472E-3    3.971654608544198E-3   -5.684996377373477E-3    3.983735434761352E-3   -5.695514486808237E-3    9.961869145113853E-1    5.232232319350324E-3
 1.638954698843964E5     9.960918072955625E-1    5.190346047319232E-3    3.971645352787705E-3   -5.644412341698671E-3    3.978445165816349E-3   -5.658989079474255E-3    9.962252049620929E-1    5.187920248914288E-3
 1.651459698080244E5     9.960836015568750E-1    5.155287145113561E-3    3.967845348713622E-3   -5.609101205698475E-3    3.976076543396134E-3   -5.617429078884157E-3    9.962232237503762E-1    5.140547529091577E-3
 1.664060108743095E5     9.960889688112512E-1    5.112558796614195E-3    3.961799007760154E-3   -5.569936652052346E-3    3.972577584124974E-3   -5.578448644156229E-3    9.962320402302898E-1    5.115209567400076E-3
 1.676756658808590E5     9.960944041416602E-1    5.061160826901201E-3    3.960572837188210E-3   -5.531786988520762E-3    3.970437211738567E-3   -5.542381405267634E-3    9.962049858851574E-1    5.070425409387075E-3
 1.689550081807175E5     9.961053100412067E-1    5.019204861037316E-3    3.954768607318413E-3   -5.492726559688903E-3    3.965108965433592E-3   -5.503134787080879E-3    9.962067895909595E-1    5.017426257826385E-3
 1.702441116866020E5     9.960736566989536E-1    4.980169237717306E-3    3.954377130053595E-3   -5.456976457348740E-3    3.961447899256956E-3   -5.470480355072860E-3    9.962298972652176E-1    4.993661674773121E-3
 1.715430508751738E5     9.960870484695395E-1    4.929991157907818E-3    3.949567535844325E-3   -5.420472207801382E-3    3.956830515877015E-3   -5.433009569579535E-3    9.961940387931915E-1    4.940594845883821E-3
 1.728519007913403E5     9.961086815162866E-1    4.901872219431100E-3    3.943341554979284E-3   -5.386344028046702E-3    3.956554016996608E-3   -5.390947292762674E-3    9.962320957330228E-1    4.898892162226146E-3
 1.741707370525927E5     9.961011250318192E-1    4.868754837911192E-3    3.938218010852745E-3   -5.347027727580716E-3    3.955145638938268E-3   -5.358387246804520E-3    9.962427865262362E-1    4.879953292492482E-3
 1.754996358533718E5     9.961020789799110E-1    4.818312717001662E-3    3.939300795426593E-3   -5.312658401043785E-3    3.950576975726095E-3   -5.321924090836270E-3    9.961820773745528E-1    4.828172019587199E-3
 1.768386739694722E5     9.961010880495857E-1    4.772246244454040E-3    3.932730926828902E-3   -5.273672990989954E-3    3.944621258700480E-3   -5.284014146883785E-3    9.962512503083597E-1    4.801877540626268E-3
 1.781879287624771E5     9.960942557015414E-1    4.735601830481111E-3    3.931815559445981E-3   -5.240524300305391E-3    3.939527092892071E-3   -5.250027853575876E-3    9.962712034378540E-1    4.764314958412690E-3
 1.795474781842276E5     9.961136494586085E-1    4.694525556752008E-3    3.930006627440668E-3   -5.202872504169060E-3    3.936410620124285E-3   -5.217215456567127E-3    9.962623897059319E-1    4.731679571756885E-3
 1.809174007813277E5     9.961120425290922E-1    4.658729659918012E-3    3.925180476135828E-3   -5.167895488451807E-3    3.937065940009818E-3   -5.180273846717159E-3    9.962267019315152E-1    4.694649701834410E-3
 1.822977756996804E5     9.960787968449588E-1    4.626123894758765E-3    3.920286345644676E-3   -5.135166487755414E-3    3.928536108900277E-3   -5.145077810938766E-3    9.962323272197634E-1    4.655779509874146E-3
 1.836886826890609E5     9.961033913661127E-1    4.599627385552994E-3    3.918795718056978E-3   -5.100050916340449E-3    3.927472976625098E-3   -5.109978096638631E-3    9.962215225436870E-1    4.605111164113456E-3
 1.850902021077247E5     9.961347394030349E-1    4.555133202247844E-3    3.914162774851476E-3   -5.065224553856826E-3    3.925814875410992E-3   -5.077426254800655E-3    9.962324916574888E-1    4.563373502703513E-3
 1.865024149270491E5     9.961345642581946E-1    4.512425488734394E-3    3.911133953048988E-3   -5.034004962877853E-3    3.919580932899665E-3   -5.042482909226060E-3    9.962624952520281E-1    4.544549970146390E-3
 1.879254027362132E5     9.961259745146493E-1    4.473006308057256E-3    3.905609942602017E-3   -4.999068812406827E-3    3.914591613705088E-3   -5.008742427707937E-3    9.962739045344042E-1    4.483303474472736E-3
 1.893592477469092E5     9.961740391723901E-1    4.427585388583285E-3    3.918653457774431E-3   -4.979601936635013E-3    3.902411042100789E-3   -4.974002072974547E-3    9.962593435885357E-1    4.435050287469898E-3
 1.908040327980933E5     9.961397648036380E-1    4.411247593608935E-3    3.897937779065355E-3   -4.932992674110607E-3    3.908329154129741E-3   -4.940981572324736E-3    9.962823928631889E-1    4.421877788225084E-3
 1.922598413607715E5     9.961697382432838E-1    4.367470589154271E-3    3.895440212887456E-3   -4.901940774028892E-3    3.903896227703639E-3   -4.912897505522207E-3    9.962569978855801E-1    4.373855364656402E-3
 1.937267575428232E5     9.961399854604287E-1    4.315997398577628E-3    3.888685504438424E-3   -4.867470151992462E-3    3.899723137403625E-3   -4.877310911135761E-3    9.962868541604001E-1    4.338204119737558E-3
 1.952048660938581E5     9.961525151478816E-1    4.299221637678193E-3    3.883805386019610E-3   -4.835837091880423E-3    3.895964909559170E-3   -4.846570376648919E-3    9.962696839191889E-1    4.296020551865554E-3
 1.966942524101142E5     9.961282243205706E-1    4.241179782424062E-3    3.879689717036541E-3   -4.805395232966817E-3    3.896182151729664E-3   -4.812225431500426E-3    9.962788385573375E-1    4.259389057461806E-3
 1.981950025393913E5     9.961205212172783E-1    4.226387463705960E-3    3.878455321959962E-3   -4.772792466831930E-3    3.888414232147938E-3   -4.783175021163002E-3    9.962695043619898E-1    4.229351273483841E-3
