#  HZ   S   RI   R     50.00 
! Rohde & Schwarz Vector Network Analyzer 
! Rohde-Schwarz,ZNLE6-2Port,1323001256200024,1.71.1.10-23.02.1.238
! Created: UTC 4/7/2025, 3:05:38 AM
! freq[Hz]                re:S11                  im:S11                  re:S21                  im:S21                  re:S12                  im:S12                  re:S22                  im:S22
 1.000000000000000E5     9.962346142364938E-1    8.268245994617212E-3    3.964196216524496E-3   -8.471623772151212E-3    3.974341294477607E-3   -8.494144645295326E-3    9.961594607964767E-1    8.159391271727061E-3
 1.007629862646662E5     9.962505271935120E-1    8.192641139047833E-3    3.959757442669858E-3   -8.415580866957862E-3    3.970330346335717E-3   -8.436043177173360E-3    9.961752942361839E-1    8.112405329323525E-3
 1.015317940097331E5     9.962456766925808E-1    8.138182874078283E-3    3.959268475404309E-3   -8.352847885985188E-3    3.967272429629668E-3   -8.374557766284397E-3    9.961649762532724E-1    8.025577830813391E-3
 1.023064676522963E5     9.962435935275459E-1    8.051496940796253E-3    3.955676449433360E-3   -8.291441898046446E-3    3.963601840395168E-3   -8.313604876087309E-3    9.961543851690726E-1    7.968554078618621E-3
 1.030870519483485E5     9.962208455984112E-1    7.988226471006894E-3    3.952066122547000E-3   -8.233426658218187E-3    3.964673990791684E-3   -8.257750692748042E-3    9.961615339466258E-1    7.911779471684158E-3
 1.038735919953636E5     9.962389863152078E-1    7.911780561773442E-3    3.952175767566980E-3   -8.174833216985746E-3    3.958041495364674E-3   -8.195602907370455E-3    9.961551701477127E-1    7.857873839032734E-3
 1.046661332349037E5     9.962233153348198E-1    7.857818729834709E-3    3.950369221420421E-3   -8.121726506798639E-3    3.956725597441909E-3   -8.136224548683128E-3    9.961457804287237E-1    7.778218896305406E-3
 1.054647214552430E5     9.961853357601972E-1    7.791491664688982E-3    3.945904498967184E-3   -8.061349523204560E-3    3.954675665877649E-3   -8.079092688021369E-3    9.961862379566941E-1    7.733925193419654E-3
 1.062694027940149E5     9.961910787924746E-1    7.732079634514710E-3    3.943578983167542E-3   -8.004284367338700E-3    3.953507309080212E-3   -8.021673655044264E-3    9.961569799690857E-1    7.690155405472250E-3
 1.070802237408760E5     9.962385266904783E-1    7.673232515772174E-3    3.938341414509782E-3   -7.948312849153316E-3    3.948453443692832E-3   -7.962307438470926E-3    9.961713125048127E-1    7.614525130917928E-3
 1.078972311401927E5     9.962318033406908E-1    7.614760891390426E-3    3.942749832318816E-3   -7.890975026214686E-3    3.947728117802186E-3   -7.907818275655036E-3    9.961584768811905E-1    7.551530250030329E-3
 1.087204721937475E5     9.962207808910034E-1    7.552709951243801E-3    3.937012677307210E-3   -7.831152299230633E-3    3.945016984618405E-3   -7.850998854263892E-3    9.961562541226080E-1    7.516861704119381E-3
 1.095499944634658E5     9.962407205586508E-1    7.485948292035008E-3    3.934581120256147E-3   -7.776673224397819E-3    3.941468731386357E-3   -7.792894623548685E-3    9.961064639065467E-1    7.430602112653957E-3
 1.103858458741646E5     9.962335002849515E-1    7.424064538277573E-3    3.934561950107977E-3   -7.720664482971209E-3    3.939368813187352E-3   -7.743090972850912E-3    9.961690500635362E-1    7.370597330902484E-3
 1.112280747163201E5     9.962318675815217E-1    7.367110905317318E-3    3.930012730423763E-3   -7.667052226069394E-3    3.940215667772598E-3   -7.682311132821278E-3    9.961816919139902E-1    7.322907628344094E-3
 1.120767296488583E5     9.962397960714527E-1    7.314882434696529E-3    3.925313177545457E-3   -7.612578009940420E-3    3.937218598560248E-3   -7.629912543542515E-3    9.961942977745675E-1    7.258369645736902E-3
 1.129318597019661E5     9.962246634414619E-1    7.249580476276842E-3    3.923280388922246E-3   -7.558768426319749E-3    3.935291529932027E-3   -7.574552883404134E-3    9.961708840096603E-1    7.196536950938913E-3
 1.137935142799240E5     9.962466463320956E-1    7.186359805404377E-3    3.918967053744103E-3   -7.504891629804645E-3    3.930897061004106E-3   -7.520220944903789E-3    9.961790150021828E-1    7.143580338628370E-3
 1.146617431639607E5     9.962276712386490E-1    7.123328941821746E-3    3.917039500301155E-3   -7.454606468621462E-3    3.929449370312373E-3   -7.467745400691352E-3    9.961494562552834E-1    7.094036193040600E-3
 1.155365965151286E5     9.962456513591452E-1    7.098558393208475E-3    3.915560198391346E-3   -7.397189342658875E-3    3.923538907040665E-3   -7.414726943941336E-3    9.961710415975663E-1    7.049192637363910E-3
 1.164181248772018E5     9.962360728064958E-1    7.042489682678266E-3    3.910473956517532E-3   -7.345762275083032E-3    3.925984350723095E-3   -7.364952828455868E-3    9.961624017123271E-1    6.976611725029917E-3
 1.173063791795965E5     9.962654037949044E-1    6.975068541837212E-3    3.913397445798125E-3   -7.293618681352722E-3    3.922129411802228E-3   -7.312415166779608E-3    9.961640687321138E-1    6.919222520441739E-3
 1.182014107403141E5     9.962416218383660E-1    6.944595493728389E-3    3.911232513542965E-3   -7.242865418474566E-3    3.917590614434048E-3   -7.260000879199825E-3    9.961844496157916E-1    6.876032518973781E-3
 1.191032712689044E5     9.962432835170105E-1    6.861823181691200E-3    3.909111333124174E-3   -7.193729350198933E-3    3.915354370371464E-3   -7.209808172266386E-3    9.962211300593967E-1    6.834823313303422E-3
 1.200120128694542E5     9.962370946207814E-1    6.812462884762067E-3    3.905240219874894E-3   -7.142320864636596E-3    3.913892456247550E-3   -7.157155592809395E-3    9.962093694778027E-1    6.760179525913307E-3
 1.209276880435975E5     9.962477031323829E-1    6.768423976681817E-3    3.902478458914668E-3   -7.089865119007469E-3    3.910071837382217E-3   -7.110008338434637E-3    9.961893682977987E-1    6.726336033197011E-3
 1.218503496935483E5     9.962616359730564E-1    6.732519965086200E-3    3.896265612472046E-3   -7.042005839565221E-3    3.907973778681022E-3   -7.058974691322109E-3    9.961671167620234E-1    6.680681665471684E-3
 1.227800511251578E5     9.962668190853824E-1    6.664835335428288E-3    3.897231642008769E-3   -6.992890701760355E-3    3.905516583061672E-3   -7.007996971982946E-3    9.961736630340192E-1    6.627630413280455E-3
 1.237168460509929E5     9.962407131400719E-1    6.594817131915212E-3    3.892364791848688E-3   -6.944661035646597E-3    3.902562657946639E-3   -6.959213202359791E-3    9.961937229083343E-1    6.578818730213265E-3
 1.246607885934402E5     9.962324461964638E-1    6.539335144056168E-3    3.888667062380706E-3   -6.891551184264442E-3    3.902954009393892E-3   -6.909715746302264E-3    9.961894913022076E-1    6.528358299236408E-3
 1.256119332878327E5     9.962764001562839E-1    6.519824247270990E-3    3.884355753242892E-3   -6.845974989439219E-3    3.896158790417650E-3   -6.859654340073825E-3    9.961698729029729E-1    6.458521073050661E-3
 1.265703350856002E5     9.962516764439081E-1    6.450073257350700E-3    3.884716708732939E-3   -6.797882402991730E-3    3.893652910976827E-3   -6.810530268801705E-3    9.962296319036487E-1    6.425582025719180E-3
 1.275360493574453E5     9.962488697369549E-1    6.384279481866713E-3    3.884574962018611E-3   -6.752923227767612E-3    3.893511012513542E-3   -6.763707860576800E-3    9.962184327381933E-1    6.363989996921961E-3
 1.285091318965405E5     9.962670202204614E-1    6.340708724506834E-3    3.879862308155908E-3   -6.703160307402580E-3    3.888418158322701E-3   -6.715375898219926E-3    9.962090737157524E-1    6.317185309527885E-3
 1.294896389217529E5     9.962658479829832E-1    6.279540256395429E-3    3.877315742325783E-3   -6.657468043207652E-3    3.885860796484588E-3   -6.667558356414784E-3    9.962136110528954E-1    6.270440194679094E-3
 1.304776270808914E5     9.962518996807225E-1    6.235726642543513E-3    3.874776928911416E-3   -6.610393820545304E-3    3.884364928212064E-3   -6.618016846075240E-3    9.962389462734230E-1    6.242615408194743E-3
 1.314731534539810E5     9.962369944561322E-1    6.181016299743438E-3    3.869041352603719E-3   -6.562979910265446E-3    3.885255151618332E-3   -6.578072215804508E-3    9.961963832852591E-1    6.162745848940805E-3
 1.324762755565583E5     9.962614372911511E-1    6.130179972404681E-3    3.868587101465778E-3   -6.520520766311548E-3    3.878614777470223E-3   -6.532477281057523E-3    9.962216142881404E-1    6.128949113284140E-3
 1.334870513429962E5     9.962411217834318E-1    6.094670353539199E-3    3.865014159199077E-3   -6.469677651251399E-3    3.878965127975610E-3   -6.484562744483437E-3    9.962198458033609E-1    6.084204675549715E-3
 1.345055392098512E5     9.962436986431270E-1    6.037051514079562E-3    3.866684559675576E-3   -6.425009087307865E-3    3.872876195953648E-3   -6.437869925794765E-3    9.962324492032240E-1    6.032184327749575E-3
 1.355317979992373E5     9.962640336339453E-1    5.991145989310510E-3    3.858819887098771E-3   -6.384978862256175E-3    3.869872076176792E-3   -6.397606007275223E-3    9.962423305996888E-1    6.003870186400600E-3
 1.365658870022265E5     9.962615209244193E-1    5.942710959552787E-3    3.860546965940289E-3   -6.340244801890905E-3    3.865328527924171E-3   -6.350604361065096E-3    9.962580438638086E-1    5.957637660223104E-3
 1.376078659622731E5     9.962729716538598E-1    5.881738458209003E-3    3.855479579479637E-3   -6.293070357487311E-3    3.861736686772505E-3   -6.307263661476234E-3    9.962519013462310E-1    5.900193652260709E-3
 1.386577950786655E5     9.962627946947857E-1    5.856987282574834E-3    3.851711225039808E-3   -6.250354038588569E-3    3.864607273879468E-3   -6.263127020944847E-3    9.962357585962998E-1    5.847940764898282E-3
 1.397157350100044E5     9.962740173851509E-1    5.809222088611920E-3    3.850740921864785E-3   -6.207484087746960E-3    3.860350709890619E-3   -6.218676499010135E-3    9.962330999136629E-1    5.794125864974512E-3
 1.407817468777081E5     9.963000537092831E-1    5.760835767876699E-3    3.845498758663654E-3   -6.162040271752808E-3    3.857305884525338E-3   -6.177584364005742E-3    9.962544277931467E-1    5.746948027867377E-3
 1.418558922695422E5     9.962877511029837E-1    5.719989291387226E-3    3.844664227619381E-3   -6.123479541489279E-3    3.851385049437786E-3   -6.134657327654334E-3    9.962436759935375E-1    5.715473961572679E-3
 1.429382332431784E5     9.962871496464748E-1    5.679266487630816E-3    3.838936156903932E-3   -6.080529475631079E-3    3.852868563258002E-3   -6.091483565183151E-3    9.962584519403875E-1    5.661459623018520E-3
 1.440288323297804E5     9.962633872379363E-1    5.649093035882140E-3    3.836447918115725E-3   -6.036427772125561E-3    3.847742664365952E-3   -6.047970163227218E-3    9.962622305205007E-1    5.621554553354600E-3
 1.451277525376154E5     9.962521228958207E-1    5.588675352578903E-3    3.836592673740898E-3   -5.996765596355797E-3    3.845043650905633E-3   -6.007643435709751E-3    9.962712936938620E-1    5.583599650699622E-3
 1.462350573556962E5     9.962858526026031E-1    5.546011288447296E-3    3.831829351269148E-3   -5.956255433445969E-3    3.842503994453397E-3   -5.967172392377007E-3    9.962775298830713E-1    5.541707780408507E-3
 1.473508107574468E5     9.962761556103836E-1    5.501302280301270E-3    3.830669445638717E-3   -5.915265657697628E-3    3.838005018684082E-3   -5.924823258697901E-3    9.962807283438057E-1    5.493153888813951E-3
 1.484750772044004E5     9.962670908763009E-1    5.450549760212696E-3    3.829747250443721E-3   -5.876802381499851E-3    3.836961253833153E-3   -5.883919190308905E-3    9.962499209154779E-1    5.449459710179805E-3
 1.496079216499225E5     9.963034045720666E-1    5.416280074843984E-3    3.823715485318365E-3   -5.832275528704398E-3    3.834927488646701E-3   -5.843223706573061E-3    9.962407857703686E-1    5.408052463468244E-3
 1.507494095429637E5     9.962944379805040E-1    5.382246309348385E-3    3.821427645112567E-3   -5.792933745100625E-3    3.831115861865454E-3   -5.802958859602096E-3    9.962571223396450E-1    5.370963761925062E-3
 1.518996068318418E5     9.963394643822778E-1    5.329136556568059E-3    3.820680224272668E-3   -5.752428197756509E-3    3.826651269951255E-3   -5.764505575364343E-3    9.962910401272310E-1    5.326264370421997E-3
 1.530585799680507E5     9.963048724330573E-1    5.290804215667133E-3    3.815884034412457E-3   -5.709722003689429E-3    3.825910273659055E-3   -5.723124468822271E-3    9.962806484605964E-1    5.278927670937217E-3
 1.542263959101001E5     9.962756938514693E-1    5.215266696974767E-3    3.812200948433552E-3   -5.673792229344177E-3    3.824839376706799E-3   -5.682956135057931E-3    9.962625854057723E-1    5.241458827731823E-3
 1.554031221273835E5     9.962717949350033E-1    5.194144872484601E-3    3.809003727347091E-3   -5.634643222490640E-3    3.817588127687443E-3   -5.647357245216537E-3    9.962653569537396E-1    5.191905349173401E-3
 1.565888266040779E5     9.963149288092306E-1    5.157025394832085E-3    3.807292280128347E-3   -5.598775544175250E-3    3.816198294255740E-3   -5.605891908805344E-3    9.962841086233344E-1    5.153361130926486E-3
 1.577835778430689E5     9.963237213612320E-1    5.100207671712238E-3    3.803402394939543E-3   -5.558657581068411E-3    3.813784963661260E-3   -5.571412905703274E-3    9.962477263433206E-1    5.104080190546898E-3
 1.589874448699104E5     9.963161003489486E-1    5.082063116357067E-3    3.801674278475411E-3   -5.525390726740866E-3    3.808765836196409E-3   -5.532234767246601E-3    9.963061894341705E-1    5.053573282886302E-3
 1.602004972368116E5     9.963401629066491E-1    5.049556218873084E-3    3.796080283406480E-3   -5.483812649656620E-3    3.807430685154818E-3   -5.494928975440200E-3    9.963775701425971E-1    5.026209195755613E-3
 1.614228050266550E5     9.963286653154413E-1    4.999817228653835E-3    3.792123996905890E-3   -5.447504348292841E-3    3.800544331776025E-3   -5.458170633651755E-3    9.963246740169478E-1    4.966966385234843E-3
 1.626544388570473E5     9.963349092392746E-1    4.971625612541151E-3    3.789965040928482E-3   -5.408685495930539E-3    3.801361094170532E-3   -5.420803324471646E-3    9.963050293475639E-1    4.937644914410869E-3
 1.638954698843964E5     9.963354198127090E-1    4.929407860001764E-3    3.786315909628116E-3   -5.373686347591880E-3    3.794310399060075E-3   -5.380625048429032E-3    9.963304453141453E-1    4.897054809471633E-3
 1.651459698080244E5     9.963485476869293E-1    4.891824916121413E-3    3.785598583571478E-3   -5.336324195345816E-3    3.795521311940431E-3   -5.346485074622758E-3    9.963247217089976E-1    4.855889597438923E-3
 1.664060108743095E5     9.963560595857062E-1    4.851087791059219E-3    3.780464272947114E-3   -5.297669460828012E-3    3.787938751690649E-3   -5.308010784755842E-3    9.963033426363337E-1    4.818286725893425E-3
 1.676756658808590E5     9.963731538867442E-1    4.810449229471886E-3    3.777971225122433E-3   -5.263280692248462E-3    3.784109556153127E-3   -5.273968972109367E-3    9.963061479295793E-1    4.780606400202507E-3
 1.689550081807175E5     9.963478740644751E-1    4.754822391474519E-3    3.775569815577659E-3   -5.223908906256513E-3    3.784064254566219E-3   -5.237466491106262E-3    9.963490826314715E-1    4.734633643727720E-3
 1.702441116866020E5     9.963589533577552E-1    4.731446925825855E-3    3.770267123666923E-3   -5.193781951538261E-3    3.781750828325329E-3   -5.202221630719930E-3    9.963380853812920E-1    4.710775890279447E-3
 1.715430508751738E5     9.963782922754956E-1    4.693847284512559E-3    3.768337292409366E-3   -5.158142544660559E-3    3.775210645065087E-3   -5.168087486032300E-3    9.963257262869850E-1    4.667261134810245E-3
 1.728519007913403E5     9.963973948940201E-1    4.655882769247057E-3    3.766006712618507E-3   -5.122022744309436E-3    3.776112815878938E-3   -5.129923432647635E-3    9.963355820851992E-1    4.632042995682676E-3
 1.741707370525927E5     9.963572237140599E-1    4.601060752893491E-3    3.761103601869760E-3   -5.088027344533838E-3    3.770773500648011E-3   -5.099270072952259E-3    9.963280770459469E-1    4.596642084107652E-3
 1.754996358533718E5     9.963744075050015E-1    4.571943170407781E-3    3.757548528243546E-3   -5.051043113610440E-3    3.765993191087016E-3   -5.063310544396714E-3    9.963106555743084E-1    4.541133864586709E-3
 1.768386739694722E5     9.963453552431820E-1    4.516109798195539E-3    3.755249318096330E-3   -5.018208324260039E-3    3.764334406236131E-3   -5.026988857222696E-3    9.963754508544855E-1    4.535201298696824E-3
 1.781879287624771E5     9.963760287416630E-1    4.486042556196039E-3    3.752036681035519E-3   -4.984668775846216E-3    3.760933198590373E-3   -4.994386444836584E-3    9.963888637397517E-1    4.481270999241151E-3
 1.795474781842276E5     9.963665762547301E-1    4.466379322078940E-3    3.745292794503152E-3   -4.948529721844416E-3    3.755568588696357E-3   -4.960595509028754E-3    9.963513083659618E-1    4.462056348004909E-3
 1.809174007813277E5     9.963822195413464E-1    4.407717012270828E-3    3.742038699282444E-3   -4.914535016696075E-3    3.752890503524753E-3   -4.930243581594949E-3    9.963295807201805E-1    4.414946088129509E-3
 1.822977756996804E5     9.963717700180931E-1    4.377594304471526E-3    3.738638887849468E-3   -4.884618298312483E-3    3.749759617124792E-3   -4.892889962884270E-3    9.963718539408596E-1    4.394376713375539E-3
 1.836886826890609E5     9.963807207409007E-1    4.345482251311856E-3    3.740416942636915E-3   -4.851397672989431E-3    3.747399406665562E-3   -4.861012383146838E-3    9.963591479467504E-1    4.345703210714333E-3
 1.850902021077247E5     9.963743701039419E-1    4.302476698630891E-3    3.729418134337065E-3   -4.819091404736050E-3    3.743218311480171E-3   -4.828160769147813E-3    9.963642793667311E-1    4.302730242765731E-3
 1.865024149270491E5     9.963761780739363E-1    4.274626106414394E-3    3.728711477943095E-3   -4.783827027975178E-3    3.738754508398377E-3   -4.795789608674335E-3    9.963727368563025E-1    4.278482045612596E-3
 1.879254027362132E5     9.963951140909232E-1    4.251728881575717E-3    3.727413200424134E-3   -4.756448892650761E-3    3.735516103160240E-3   -4.762524886417213E-3    9.964087747944255E-1    4.225886992815998E-3
 1.893592477469092E5     9.963983757920526E-1    4.162209985210992E-3    3.715907304484247E-3   -4.709155175022579E-3    3.736211896787917E-3   -4.745174985765890E-3    9.964105390732251E-1    4.190127933861100E-3
 1.908040327980933E5     9.964349795712346E-1    4.183887793448684E-3    3.717135731354887E-3   -4.686886538201059E-3    3.727372321327518E-3   -4.700125187575051E-3    9.963840558709682E-1    4.169127387454941E-3
 1.922598413607715E5     9.964256414004347E-1    4.136960096401404E-3    3.718572679400696E-3   -4.659528777087799E-3    3.726540812475021E-3   -4.668024327259978E-3    9.963819558228046E-1    4.123818166546217E-3
 1.937267575428232E5     9.964136713484383E-1    4.094743597936616E-3    3.710659110125568E-3   -4.631063393339551E-3    3.722772182283752E-3   -4.634559964869313E-3    9.964187474983650E-1    4.088340740320262E-3
 1.952048660938581E5     9.964610575952390E-1    4.067354619810378E-3    3.705218051234318E-3   -4.597051884090579E-3    3.716636461282221E-3   -4.605081844225805E-3    9.964094143481979E-1    4.049944898490599E-3
 1.966942524101142E5     9.964257105524459E-1    4.018309748292086E-3    3.705260962091733E-3   -4.565652089184939E-3    3.712797247875280E-3   -4.572847298945243E-3    9.964144296126277E-1    4.019038961524880E-3
 1.981950025393913E5     9.964307850752661E-1    4.004235261267574E-3    3.704247779594621E-3   -4.536899559951105E-3    3.706817089976488E-3   -4.543663640930204E-3    9.964321419992783E-1    3.994954901867725E-3
