#  HZ   S   RI   R     50.00 
! Rohde & Schwarz Vector Network Analyzer 
! Rohde-Schwarz,ZNLE6-2Port,1323001256200024,1.71.1.10-23.02.1.238
! Created: UTC 4/7/2025, 2:53:10 AM
! freq[Hz]                re:S11                  im:S11                  re:S21                  im:S21                  re:S12                  im:S12                  re:S22                  im:S22
 1.000000000000000E5     9.964237438881925E-1    7.898494666961634E-3    3.781185678111726E-3   -8.073873605877148E-3    3.791737386200421E-3   -8.093676345647508E-3    9.963724926180275E-1    7.769463886663502E-3
 1.007629862646662E5     9.964290957052242E-1    7.803638607791969E-3    3.783449535930248E-3   -8.015200785230343E-3    3.789198223069530E-3   -8.036597279618056E-3    9.963535180368895E-1    7.713883222730304E-3
 1.015317940097331E5     9.964289609096796E-1    7.759860697931270E-3    3.782026606211266E-3   -7.958917780563379E-3    3.788680961268953E-3   -7.978864956752874E-3    9.963386422589169E-1    7.636904167865624E-3
 1.023064676522963E5     9.964656381229190E-1    7.676137538161845E-3    3.777508595131917E-3   -7.900497442967428E-3    3.785248296673835E-3   -7.919260935547533E-3    9.963391377983056E-1    7.575469616920820E-3
 1.030870519483485E5     9.964161791047246E-1    7.614432109988234E-3    3.775522157244712E-3   -7.846719505415409E-3    3.780517262006601E-3   -7.862108578364708E-3    9.963312548384928E-1    7.512783668145825E-3
 1.038735919953636E5     9.964353027508610E-1    7.561813688480384E-3    3.769509319962388E-3   -7.787065822478964E-3    3.780149702350638E-3   -7.807432781223285E-3    9.963391963441171E-1    7.472110924427122E-3
 1.046661332349037E5     9.964225185760507E-1    7.523257957630741E-3    3.770091628609348E-3   -7.733331141969384E-3    3.777907113289734E-3   -7.751995202731787E-3    9.963367540601800E-1    7.413342517062394E-3
 1.054647214552430E5     9.963771921805589E-1    7.425188992951333E-3    3.768127582750135E-3   -7.676605973881039E-3    3.776394887579386E-3   -7.694336671629075E-3    9.963676237397223E-1    7.358177333278403E-3
 1.062694027940149E5     9.963796846220171E-1    7.374104029272049E-3    3.766056479275277E-3   -7.622015841633231E-3    3.772887425424194E-3   -7.637577356235686E-3    9.963485773840947E-1    7.300361242712568E-3
 1.070802237408760E5     9.964084766294913E-1    7.321593495725157E-3    3.760458872741495E-3   -7.567496776190600E-3    3.772528704215216E-3   -7.588461873174896E-3    9.963750093553119E-1    7.247168670684706E-3
 1.078972311401927E5     9.964143256690463E-1    7.242814172881572E-3    3.758579905319752E-3   -7.513398359072956E-3    3.772051370176659E-3   -7.531803176520432E-3    9.963790064722221E-1    7.177770767990871E-3
 1.087204721937475E5     9.963844230160364E-1    7.183614278514856E-3    3.759611525534953E-3   -7.463552887305366E-3    3.767339058294714E-3   -7.473818700409601E-3    9.963673343729279E-1    7.144670891183542E-3
 1.095499944634658E5     9.964009918592605E-1    7.123300006712930E-3    3.756826452524286E-3   -7.409584326139693E-3    3.764749491996193E-3   -7.422353526539424E-3    9.963296564904615E-1    7.073961609196874E-3
 1.103858458741646E5     9.964110811156558E-1    7.073485729413473E-3    3.755721119546064E-3   -7.354709858734601E-3    3.761990724319688E-3   -7.370809862776708E-3    9.963653245184809E-1    7.014416693038449E-3
 1.112280747163201E5     9.964214916706291E-1    7.011330997144307E-3    3.752249444022700E-3   -7.297568756100067E-3    3.763289876778235E-3   -7.317447182502764E-3    9.963745310597735E-1    6.955034503618479E-3
 1.120767296488583E5     9.964251134329508E-1    6.956883282027255E-3    3.746763659164854E-3   -7.250276779352492E-3    3.758474183929252E-3   -7.268218366219480E-3    9.963942246719882E-1    6.889743453715853E-3
 1.129318597019661E5     9.963935228245235E-1    6.908895247504315E-3    3.747901327962859E-3   -7.196591723156182E-3    3.756227940975274E-3   -7.216547985144917E-3    9.963444266820255E-1    6.831044307728515E-3
 1.137935142799240E5     9.964035327755977E-1    6.849138089646146E-3    3.744681564991060E-3   -7.147010966915474E-3    3.755984716934112E-3   -7.160243612544931E-3    9.963782042223035E-1    6.793832050480453E-3
 1.146617431639607E5     9.963802845677804E-1    6.788924753574482E-3    3.742276261361236E-3   -7.096601951543983E-3    3.750977010792489E-3   -7.107911423609335E-3    9.963407494388570E-1    6.738866700583876E-3
 1.155365965151286E5     9.964032499604161E-1    6.760670243806698E-3    3.737955575541068E-3   -7.046231657775299E-3    3.745505025842251E-3   -7.059127269760192E-3    9.963567671548345E-1    6.690096105061371E-3
 1.164181248772018E5     9.963943100030750E-1    6.681625267421342E-3    3.737983531613308E-3   -6.994235521785458E-3    3.746850564373531E-3   -7.009563094922392E-3    9.963405498321229E-1    6.630690626880021E-3
 1.173063791795965E5     9.964207567803636E-1    6.638270952999878E-3    3.734829219660005E-3   -6.943235396492340E-3    3.740739027398782E-3   -6.961093380425935E-3    9.963748618087837E-1    6.579905605256882E-3
 1.182014107403141E5     9.963816546424256E-1    6.590347044498400E-3    3.737977108390359E-3   -6.897892349306168E-3    3.740247398183703E-3   -6.908870807858000E-3    9.963703712179854E-1    6.530770548703413E-3
 1.191032712689044E5     9.963799176837014E-1    6.531530226878820E-3    3.727949714790474E-3   -6.850629776876889E-3    3.736226993514509E-3   -6.863183964214084E-3    9.963976138710565E-1    6.481957907776629E-3
 1.200120128694542E5     9.963749334921471E-1    6.482022415459619E-3    3.726439028102730E-3   -6.797338464067861E-3    3.735244587283392E-3   -6.812519818502276E-3    9.963902795318832E-1    6.430158490366115E-3
 1.209276880435975E5     9.963965706102366E-1    6.429472869610691E-3    3.720724794895298E-3   -6.752265995506683E-3    3.733497516095808E-3   -6.765854247706258E-3    9.963619837941317E-1    6.390864342331137E-3
 1.218503496935483E5     9.964209520865167E-1    6.393360608839985E-3    3.723007680713395E-3   -6.700700486524557E-3    3.735305330995881E-3   -6.718026958799820E-3    9.963755375443016E-1    6.340824266533883E-3
 1.227800511251578E5     9.964184775150154E-1    6.334764358162073E-3    3.718485588539163E-3   -6.656171372353446E-3    3.730091466551045E-3   -6.671984253326015E-3    9.963726924459592E-1    6.282935632267104E-3
 1.237168460509929E5     9.964288494993215E-1    6.281136783159852E-3    3.718041995741761E-3   -6.610169039955724E-3    3.730143874135053E-3   -6.623992487346626E-3    9.963721178784206E-1    6.227151661053703E-3
 1.246607885934402E5     9.963765204315342E-1    6.220628614866466E-3    3.714914731719862E-3   -6.562936198724808E-3    3.723367991945715E-3   -6.574949836796060E-3    9.963741914818204E-1    6.179232325997032E-3
 1.256119332878327E5     9.964118020408458E-1    6.191298831699952E-3    3.712878987507023E-3   -6.516655185169585E-3    3.726903798575825E-3   -6.529111836154696E-3    9.963796413047410E-1    6.121694189887212E-3
 1.265703350856002E5     9.964080123587976E-1    6.132450908046732E-3    3.707966323038098E-3   -6.470713607057699E-3    3.720082764791472E-3   -6.484561353151530E-3    9.964041976622060E-1    6.091010976996292E-3
 1.275360493574453E5     9.964261806676568E-1    6.077645095318902E-3    3.706699479168955E-3   -6.424334855722596E-3    3.717545498775622E-3   -6.438345633039204E-3    9.963714110215357E-1    6.028570221234372E-3
 1.285091318965405E5     9.964278053885579E-1    6.033718732144842E-3    3.708649027323965E-3   -6.379903971823819E-3    3.713455313282826E-3   -6.393454046227541E-3    9.963545415607195E-1    5.990079115054558E-3
 1.294896389217529E5     9.963953809542365E-1    5.975615512888645E-3    3.702419840651963E-3   -6.337445214741164E-3    3.715832356760068E-3   -6.346455847851764E-3    9.963955445410847E-1    5.958327520121186E-3
 1.304776270808914E5     9.963900367975592E-1    5.924274071418939E-3    3.701737371062139E-3   -6.292159525493050E-3    3.708460281449489E-3   -6.301141228277820E-3    9.963947781401145E-1    5.906851586294861E-3
 1.314731534539810E5     9.963922189133070E-1    5.876817556795769E-3    3.698386369248497E-3   -6.248610773197026E-3    3.709253571618219E-3   -6.256416274379398E-3    9.963943338555648E-1    5.849226442519366E-3
 1.324762755565583E5     9.964212703213353E-1    5.828102133975526E-3    3.696442954766103E-3   -6.203281591542021E-3    3.707297774020839E-3   -6.214872242936079E-3    9.964003567292231E-1    5.815596791259172E-3
 1.334870513429962E5     9.964162738905226E-1    5.800097668268325E-3    3.691232210218207E-3   -6.158818385691996E-3    3.701717800282556E-3   -6.174647482661543E-3    9.963975738194953E-1    5.777873424139889E-3
 1.345055392098512E5     9.964182487827304E-1    5.749725075301658E-3    3.689984079980795E-3   -6.117866964455634E-3    3.700809234483560E-3   -6.128539304881887E-3    9.964221471611537E-1    5.709597536768882E-3
 1.355317979992373E5     9.964475348196461E-1    5.714972669738853E-3    3.686542220028811E-3   -6.074058057225054E-3    3.696060174892424E-3   -6.091157007033961E-3    9.964337793643563E-1    5.698702179689692E-3
 1.365658870022265E5     9.964382195461378E-1    5.660798452716833E-3    3.687202431047036E-3   -6.031328406314635E-3    3.690614480054494E-3   -6.044579466621042E-3    9.964300218799549E-1    5.648037856888812E-3
 1.376078659622731E5     9.964411569004528E-1    5.621470336929671E-3    3.684537863650445E-3   -5.992607071524480E-3    3.689877206295091E-3   -6.003105226394430E-3    9.964056024583795E-1    5.587969495397043E-3
 1.386577950786655E5     9.964419116669144E-1    5.586541086168040E-3    3.681265606663758E-3   -5.947634081898716E-3    3.688217425547101E-3   -5.958941955119932E-3    9.964130428872786E-1    5.542814484292532E-3
 1.397157350100044E5     9.964400393005828E-1    5.527437627951015E-3    3.678785538059357E-3   -5.907817808745172E-3    3.684854255316680E-3   -5.917696281889125E-3    9.964257317624375E-1    5.504009151197062E-3
 1.407817468777081E5     9.964684970923497E-1    5.497867046570445E-3    3.672932273739046E-3   -5.863744242130168E-3    3.685129469647177E-3   -5.875921535705613E-3    9.964129536750244E-1    5.456781145349801E-3
 1.418558922695422E5     9.964659226467412E-1    5.456575623161630E-3    3.673150705580064E-3   -5.828251289457028E-3    3.683615572460191E-3   -5.836638609532352E-3    9.964354300399006E-1    5.423669257646140E-3
 1.429382332431784E5     9.964535330862713E-1    5.405113693968521E-3    3.668915889490816E-3   -5.785460292532320E-3    3.681550193261697E-3   -5.795554254757100E-3    9.964578922726228E-1    5.379814211880079E-3
 1.440288323297804E5     9.964395479305559E-1    5.367687315245417E-3    3.665871588842559E-3   -5.746311538787044E-3    3.677565700042718E-3   -5.754761392753069E-3    9.964516990207078E-1    5.341076867714021E-3
 1.451277525376154E5     9.964437562390339E-1    5.317077535315457E-3    3.663884659378929E-3   -5.702815794949144E-3    3.672493273816031E-3   -5.714389609853293E-3    9.964675806285983E-1    5.292174007233620E-3
 1.462350573556962E5     9.964561599893138E-1    5.277697718976532E-3    3.664238080503537E-3   -5.665659987122690E-3    3.669304885282102E-3   -5.674710908273901E-3    9.964425296240000E-1    5.251172410486219E-3
 1.473508107574468E5     9.964497502811812E-1    5.242066777714248E-3    3.657259281518487E-3   -5.624485713549280E-3    3.668022760332565E-3   -5.638111357688750E-3    9.964509476860611E-1    5.204900666724196E-3
 1.484750772044004E5     9.964571021269899E-1    5.174418732108572E-3    3.655488049815319E-3   -5.583896814101169E-3    3.665634043665774E-3   -5.595290468270572E-3    9.964589832506561E-1    5.170826102819692E-3
 1.496079216499225E5     9.964701190536646E-1    5.147435198555908E-3    3.654781274213281E-3   -5.549651818443923E-3    3.660460386071944E-3   -5.556937294189785E-3    9.964670729837892E-1    5.131480115555202E-3
 1.507494095429637E5     9.964683633336496E-1    5.120283324670502E-3    3.650343002426302E-3   -5.509316544990389E-3    3.662154812563725E-3   -5.519578797006439E-3    9.964650257179551E-1    5.075083250150267E-3
 1.518996068318418E5     9.964874330228002E-1    5.069623225285827E-3    3.648218576967777E-3   -5.470871364884150E-3    3.654825143397795E-3   -5.481454540121730E-3    9.964921724173211E-1    5.048901452352796E-3
 1.530585799680507E5     9.964799774022008E-1    5.029167632058285E-3    3.643288175898720E-3   -5.431111812655212E-3    3.652701592149606E-3   -5.444165949682478E-3    9.964858731943853E-1    5.003678942688189E-3
 1.542263959101001E5     9.964499921163567E-1    4.979828673807299E-3    3.639460332549215E-3   -5.395830687445818E-3    3.651763653690558E-3   -5.407303481878697E-3    9.964810168511589E-1    4.982935047580089E-3
 1.554031221273835E5     9.964815209092928E-1    4.953818528907732E-3    3.639765560796129E-3   -5.361994373074527E-3    3.648645827352377E-3   -5.368545093650390E-3    9.964822735798352E-1    4.940553119490299E-3
 1.565888266040779E5     9.964880435729976E-1    4.910607156085415E-3    3.637222315707960E-3   -5.320078783978858E-3    3.646347674509306E-3   -5.331108860941933E-3    9.964741025142811E-1    4.884526069790362E-3
 1.577835778430689E5     9.964608913468735E-1    4.861770894815773E-3    3.632231021090929E-3   -5.284817691000608E-3    3.642006734690311E-3   -5.295418526025053E-3    9.964715053377412E-1    4.835846588986605E-3
 1.589874448699104E5     9.964536340983914E-1    4.836500107322642E-3    3.626607139974084E-3   -5.250428970482717E-3    3.641188308008198E-3   -5.258691938475516E-3    9.964592683852214E-1    4.791202106527370E-3
 1.602004972368116E5     9.964844942187924E-1    4.791751700696655E-3    3.629225370819797E-3   -5.213214095217466E-3    3.636342946609131E-3   -5.221151615453630E-3    9.965232665905409E-1    4.755292867233276E-3
 1.614228050266550E5     9.964888267243308E-1    4.756713662998270E-3    3.625442394950367E-3   -5.175947916855610E-3    3.633721795041115E-3   -5.184347570204244E-3    9.965494136175402E-1    4.702917092959081E-3
 1.626544388570473E5     9.964710039551261E-1    4.719340595192592E-3    3.618442178552581E-3   -5.144164132486970E-3    3.633155068601130E-3   -5.147873300618035E-3    9.964882872540364E-1    4.670777675414802E-3
 1.638954698843964E5     9.964990641076426E-1    4.680498639036070E-3    3.617749251018406E-3   -5.108345099545488E-3    3.629285091242357E-3   -5.115956204818323E-3    9.965101436502313E-1    4.629723615850356E-3
 1.651459698080244E5     9.965098619073064E-1    4.637236479455456E-3    3.616778513929796E-3   -5.069795183549015E-3    3.624324981770974E-3   -5.081457899779202E-3    9.964808755297393E-1    4.598846684440229E-3
 1.664060108743095E5     9.965248701851465E-1    4.605470295116008E-3    3.611499055720864E-3   -5.037508971792184E-3    3.622677315241336E-3   -5.046990545311044E-3    9.965222936248479E-1    4.555354452216368E-3
 1.676756658808590E5     9.965404722060907E-1    4.554561437282539E-3    3.611729695614100E-3   -5.000430704283735E-3    3.617148847826089E-3   -5.011893972660986E-3    9.965215322925597E-1    4.528458644097267E-3
 1.689550081807175E5     9.965088215128100E-1    4.507509859634860E-3    3.608316621476983E-3   -4.968785226661662E-3    3.616505944772860E-3   -4.977896715849976E-3    9.965273049054106E-1    4.488016766507626E-3
 1.702441116866020E5     9.964829619504303E-1    4.476386500209147E-3    3.602417091121139E-3   -4.932498912710599E-3    3.610465071884723E-3   -4.944033786726855E-3    9.965593014887505E-1    4.456491590869437E-3
 1.715430508751738E5     9.965112254992804E-1    4.448744537985898E-3    3.598481294322918E-3   -4.899418740682289E-3    3.608782818298909E-3   -4.909860157260209E-3    9.965189787300689E-1    4.422629115640649E-3
 1.728519007913403E5     9.965437180851664E-1    4.408196104151944E-3    3.598962072129092E-3   -4.864874155369197E-3    3.608227696466510E-3   -4.875301747781983E-3    9.965457559227073E-1    4.388602077104946E-3
 1.741707370525927E5     9.965301483810626E-1    4.376549649700386E-3    3.594151014305681E-3   -4.831490498343062E-3    3.605592657162135E-3   -4.840380010757819E-3    9.965617919160769E-1    4.353375671849519E-3
 1.754996358533718E5     9.965256486165770E-1    4.330161408711828E-3    3.591353401372531E-3   -4.799342151737724E-3    3.601869788940632E-3   -4.808202647497354E-3    9.965375866398296E-1    4.316687624696733E-3
 1.768386739694722E5     9.965156880635920E-1    4.300445870104386E-3    3.587115280759171E-3   -4.765943830156162E-3    3.596831989168177E-3   -4.775262642826377E-3    9.965734450243751E-1    4.288720187466656E-3
 1.781879287624771E5     9.965206681480315E-1    4.254397964437465E-3    3.582179651839446E-3   -4.734348521208823E-3    3.592896884921778E-3   -4.743088534289619E-3    9.965797044223957E-1    4.260674557761626E-3
 1.795474781842276E5     9.965295978206435E-1    4.226249551805393E-3    3.585018263274971E-3   -4.704249531187547E-3    3.590370111783669E-3   -4.709448740470868E-3    9.965441563949958E-1    4.214800054316558E-3
 1.809174007813277E5     9.965260796508513E-1    4.171644136095547E-3    3.578899066196798E-3   -4.670146892702771E-3    3.587977278652375E-3   -4.678884501653597E-3    9.965288710906945E-1    4.196013453176138E-3
 1.822977756996804E5     9.965320942161209E-1    4.142816385436367E-3    3.575485020304288E-3   -4.637287691262837E-3    3.581542439610809E-3   -4.645406602190926E-3    9.965580713306356E-1    4.152811358190412E-3
 1.836886826890609E5     9.965507663120599E-1    4.119196498145124E-3    3.571315826288924E-3   -4.608074041728125E-3    3.578714264405231E-3   -4.616139521942166E-3    9.965233994598350E-1    4.108161271276216E-3
 1.850902021077247E5     9.965583987877458E-1    4.093405355004592E-3    3.564379205420656E-3   -4.576126907971737E-3    3.577136309551450E-3   -4.584153558932953E-3    9.965415059145306E-1    4.064345524970875E-3
 1.865024149270491E5     9.965438020355135E-1    4.063166571016200E-3    3.562581696931607E-3   -4.544879866651856E-3    3.572555023774294E-3   -4.553658226595500E-3    9.965374336791160E-1    4.045924696677552E-3
 1.879254027362132E5     9.965507826099708E-1    4.022637361029545E-3    3.560385417449565E-3   -4.513874989594951E-3    3.568665002753830E-3   -4.522833367210191E-3    9.965540871806376E-1    3.993005140955332E-3
 1.893592477469092E5     9.965901015415729E-1    3.949393636316431E-3    3.551599150411549E-3   -4.501530170438703E-3    3.564848449681628E-3   -4.474185598859085E-3    9.965732812504540E-1    3.967240665453969E-3
 1.908040327980933E5     9.965745212057526E-1    3.962965703736767E-3    3.553544796241149E-3   -4.453790585335226E-3    3.560912628910758E-3   -4.459667284754995E-3    9.965554072412103E-1    3.931502816958936E-3
 1.922598413607715E5     9.965551343581784E-1    3.919696256413137E-3    3.547920739214045E-3   -4.423284446408983E-3    3.558217060692249E-3   -4.434179985713793E-3    9.965771451985159E-1    3.890086735227710E-3
 1.937267575428232E5     9.965599455900850E-1    3.884990511196007E-3    3.543754084462765E-3   -4.390057270477953E-3    3.555856938797947E-3   -4.400496753564558E-3    9.965886773166640E-1    3.861314136118029E-3
 1.952048660938581E5     9.965782742037308E-1    3.868041153068794E-3    3.540860967261352E-3   -4.364258370482199E-3    3.551361928410311E-3   -4.371806408674927E-3    9.965660873000292E-1    3.818527135687141E-3
 1.966942524101142E5     9.965784053961168E-1    3.818555105659831E-3    3.536410846802865E-3   -4.334601546697747E-3    3.549443132703142E-3   -4.339737912919628E-3    9.965633766787012E-1    3.782738148905865E-3
 1.981950025393913E5     9.965533397835939E-1    3.804428326438741E-3    3.532787369431028E-3   -4.302969985150776E-3    3.543559732570251E-3   -4.312951559181698E-3    9.965761590752716E-1    3.765939401165658E-3
