#  HZ   S   RI   R     50.00 
! Rohde & Schwarz Vector Network Analyzer 
! Rohde-Schwarz,ZNLE6-2Port,1323001256200024,1.71.1.10-23.02.1.238
! Created: UTC 4/7/2025, 2:43:51 AM
! freq[Hz]                re:S11                  im:S11                  re:S21                  im:S21                  re:S12                  im:S12                  re:S22                  im:S22
 1.000000000000000E5     9.965288537186792E-1    7.538159342072851E-3    3.613658068794870E-3   -7.711054042180344E-3    3.628035439066995E-3   -7.725929878960300E-3    9.965139837015982E-1    7.403591004135821E-3
 1.007629862646662E5     9.965313893525499E-1    7.437204745189560E-3    3.613567479408602E-3   -7.653988513953133E-3    3.623700770825871E-3   -7.669819386325815E-3    9.964843323711303E-1    7.334391050334595E-3
 1.015317940097331E5     9.965314470397786E-1    7.397617383016402E-3    3.613654505111181E-3   -7.600614703940538E-3    3.621480579083560E-3   -7.616590139724029E-3    9.964724624984460E-1    7.279291489834069E-3
 1.023064676522963E5     9.965132858275421E-1    7.329303750594547E-3    3.610241948955529E-3   -7.546965705371177E-3    3.618611926796265E-3   -7.560959821535236E-3    9.964794160730243E-1    7.223689939880785E-3
 1.030870519483485E5     9.964950263612962E-1    7.272262534886830E-3    3.606309395545507E-3   -7.489292356991607E-3    3.617774574256125E-3   -7.507615247132069E-3    9.964640942078974E-1    7.160574247327075E-3
 1.038735919953636E5     9.965010710793153E-1    7.197602928849402E-3    3.604683104092514E-3   -7.438851265338185E-3    3.613831697742844E-3   -7.451262036022650E-3    9.964397643175884E-1    7.113016003068266E-3
 1.046661332349037E5     9.964858024393236E-1    7.139522262070343E-3    3.604180252105395E-3   -7.384650213028075E-3    3.612420485668136E-3   -7.400830917510795E-3    9.964545726838551E-1    7.057415071857770E-3
 1.054647214552430E5     9.964714519014649E-1    7.069000920744299E-3    3.601317732425470E-3   -7.331992225533920E-3    3.609693820928526E-3   -7.344984854039668E-3    9.964609484991177E-1    7.002245865562796E-3
 1.062694027940149E5     9.964616105723045E-1    7.012956081027579E-3    3.599246748816647E-3   -7.275339429508245E-3    3.609633726515007E-3   -7.291541810519436E-3    9.964676716950581E-1    6.954107642052841E-3
 1.070802237408760E5     9.964933510616166E-1    6.963556635527840E-3    3.596314738757601E-3   -7.226037284291023E-3    3.606850374613326E-3   -7.242473374004931E-3    9.964801450399263E-1    6.905360976043363E-3
 1.078972311401927E5     9.964999138625277E-1    6.918335042499946E-3    3.593854484895190E-3   -7.174514804380117E-3    3.601548643476126E-3   -7.188895871174447E-3    9.964770654973820E-1    6.839439311523899E-3
 1.087204721937475E5     9.965023454116618E-1    6.844691773869018E-3    3.589793432841795E-3   -7.124154385925122E-3    3.604622652674512E-3   -7.136169511589210E-3    9.964740586520664E-1    6.805291650459986E-3
 1.095499944634658E5     9.965240816510786E-1    6.793070457827177E-3    3.587346505371838E-3   -7.072766762210266E-3    3.600756324095975E-3   -7.086936656891538E-3    9.964355895651206E-1    6.727344301791920E-3
 1.103858458741646E5     9.965156970552117E-1    6.755357049647319E-3    3.587699340519271E-3   -7.020900141010749E-3    3.595406072207269E-3   -7.036863784324482E-3    9.964680954363055E-1    6.683002255799546E-3
 1.112280747163201E5     9.964977128326775E-1    6.688068516207912E-3    3.585981244252699E-3   -6.972186626982408E-3    3.593146146557451E-3   -6.987160997874207E-3    9.964950932855687E-1    6.632331537270992E-3
 1.120767296488583E5     9.964910083632906E-1    6.631452772846195E-3    3.580794323475317E-3   -6.923448472234613E-3    3.593989308230857E-3   -6.936907302722787E-3    9.964710692016364E-1    6.569624046483754E-3
 1.129318597019661E5     9.964668139916679E-1    6.577149455154892E-3    3.578466496064063E-3   -6.875669168052440E-3    3.592946039327623E-3   -6.884012560876465E-3    9.964553896640075E-1    6.505509536381329E-3
 1.137935142799240E5     9.965080849948359E-1    6.514291623115763E-3    3.575993405264182E-3   -6.823826486499409E-3    3.590887865955578E-3   -6.840079086795068E-3    9.964746686141703E-1    6.479853731259282E-3
 1.146617431639607E5     9.965107947543616E-1    6.468208370498665E-3    3.577183230012299E-3   -6.776834972655374E-3    3.588008015620793E-3   -6.786244986558785E-3    9.964806603181474E-1    6.434757338329134E-3
 1.155365965151286E5     9.965147598630446E-1    6.438954593887322E-3    3.573219976948917E-3   -6.725116429335283E-3    3.586432240890705E-3   -6.740810673098719E-3    9.964889927817142E-1    6.372169499953398E-3
 1.164181248772018E5     9.965022296742794E-1    6.366343498878509E-3    3.571494983161486E-3   -6.680305959249780E-3    3.583768095438861E-3   -6.691914442954735E-3    9.964499268566513E-1    6.314727666610439E-3
 1.173063791795965E5     9.965251242777912E-1    6.318159239385947E-3    3.570266940585855E-3   -6.632875735442936E-3    3.580469790885208E-3   -6.645637728429649E-3    9.964733024805459E-1    6.278538822134080E-3
 1.182014107403141E5     9.965236644586157E-1    6.268952715889762E-3    3.564987340081612E-3   -6.588819852939484E-3    3.578487584869056E-3   -6.596099491846382E-3    9.964657183527034E-1    6.224453935172957E-3
 1.191032712689044E5     9.965394143449954E-1    6.217534781416723E-3    3.565820937423175E-3   -6.538887857995277E-3    3.576793551711138E-3   -6.549240714723419E-3    9.964965392165035E-1    6.176731498432033E-3
 1.200120128694542E5     9.965144175622864E-1    6.166668247049931E-3    3.564204558802856E-3   -6.491638874797183E-3    3.571937148955892E-3   -6.503296789497198E-3    9.964800006942433E-1    6.118357928973060E-3
 1.209276880435975E5     9.965072446815406E-1    6.130527658205748E-3    3.560145083280736E-3   -6.446627388720661E-3    3.573050910182644E-3   -6.455719177240108E-3    9.964507733889169E-1    6.078703558278430E-3
 1.218503496935483E5     9.965274105361697E-1    6.089478443555631E-3    3.557566657728261E-3   -6.407376954757348E-3    3.567165230524446E-3   -6.411322571113158E-3    9.964645635261574E-1    6.026513650007430E-3
 1.227800511251578E5     9.965203972924390E-1    6.037218792172827E-3    3.555093873262204E-3   -6.354275528655269E-3    3.568336719611506E-3   -6.367693919367453E-3    9.964673251894726E-1    5.977572364308151E-3
 1.237168460509929E5     9.965070382196471E-1    5.973445338496847E-3    3.551459863118496E-3   -6.314227209683391E-3    3.563035359903396E-3   -6.320002299795738E-3    9.964641847986846E-1    5.933686482610098E-3
 1.246607885934402E5     9.965026831750365E-1    5.917165469325233E-3    3.548620693440520E-3   -6.267912192927044E-3    3.559987267034500E-3   -6.274504077826257E-3    9.964673603889709E-1    5.891354204098771E-3
 1.256119332878327E5     9.965504826975677E-1    5.893203766472464E-3    3.548493858203706E-3   -6.221998449687575E-3    3.559217809832293E-3   -6.231649832040806E-3    9.964573187337848E-1    5.844764210328558E-3
 1.265703350856002E5     9.965173086483117E-1    5.827177662678562E-3    3.548157187802222E-3   -6.175915129572274E-3    3.559370452977205E-3   -6.185945452291057E-3    9.965056637094268E-1    5.800060025136940E-3
 1.275360493574453E5     9.965400283144358E-1    5.769916493971116E-3    3.546371858664924E-3   -6.134065067773512E-3    3.554861477755121E-3   -6.145425322153030E-3    9.965043659577506E-1    5.761671654095255E-3
 1.285091318965405E5     9.965371736572513E-1    5.739703934213310E-3    3.540743245341153E-3   -6.090563791244055E-3    3.552115493099097E-3   -6.099953238766666E-3    9.964794203963109E-1    5.717748624064730E-3
 1.294896389217529E5     9.965184944818163E-1    5.678973182075858E-3    3.536116459099620E-3   -6.049400499978594E-3    3.550623133084258E-3   -6.056955115791467E-3    9.964893138631680E-1    5.667053691533279E-3
 1.304776270808914E5     9.965024502599326E-1    5.637122951565976E-3    3.536223267428875E-3   -6.003959398674470E-3    3.544464253912714E-3   -6.014852111336531E-3    9.964828764199727E-1    5.638789451051260E-3
 1.314731534539810E5     9.965071069041086E-1    5.587298087300602E-3    3.534180998422992E-3   -5.966000510648270E-3    3.545432753638651E-3   -5.974518761562133E-3    9.964909196711617E-1    5.575852905649056E-3
 1.324762755565583E5     9.964972511915891E-1    5.544478869212699E-3    3.534814601619531E-3   -5.925145316568793E-3    3.542864579293885E-3   -5.930325549978603E-3    9.965070232092639E-1    5.553654050633305E-3
 1.334870513429962E5     9.965091064903429E-1    5.508749985267403E-3    3.529055996674215E-3   -5.881131784388360E-3    3.539382306449465E-3   -5.887118852036965E-3    9.965078655110219E-1    5.503441097238099E-3
 1.345055392098512E5     9.965338280699434E-1    5.458643932825666E-3    3.527529496696917E-3   -5.840237558166494E-3    3.540624784567903E-3   -5.848717917204954E-3    9.964982096710773E-1    5.454457727387337E-3
 1.355317979992373E5     9.965245572553105E-1    5.422324076518875E-3    3.525173253010113E-3   -5.798804350667083E-3    3.534501421266673E-3   -5.808878934493221E-3    9.964953054518094E-1    5.413146137238428E-3
 1.365658870022265E5     9.965077470506795E-1    5.390761247109080E-3    3.522021833731393E-3   -5.758732765027516E-3    3.533739017185181E-3   -5.766839810223997E-3    9.964828722809710E-1    5.375691488161648E-3
 1.376078659622731E5     9.965484393742430E-1    5.334770013983319E-3    3.521500227667772E-3   -5.716182188445347E-3    3.528146047663357E-3   -5.722642242553875E-3    9.965090524043846E-1    5.321490339818290E-3
 1.386577950786655E5     9.965330376521307E-1    5.291428738326338E-3    3.516720946241383E-3   -5.681420481208431E-3    3.527209657324709E-3   -5.684328466962875E-3    9.965113952247147E-1    5.280043693150717E-3
 1.397157350100044E5     9.965592550770456E-1    5.255521808086278E-3    3.512497670049926E-3   -5.637405387032233E-3    3.525483634198098E-3   -5.644078005484747E-3    9.965171634079655E-1    5.239887434003938E-3
 1.407817468777081E5     9.965738766345842E-1    5.225601117730025E-3    3.510636265802006E-3   -5.599564744212758E-3    3.526208484330227E-3   -5.607211619608945E-3    9.965214785004908E-1    5.188206424009001E-3
 1.418558922695422E5     9.965490670584842E-1    5.183536972239293E-3    3.512507521835115E-3   -5.559723405241377E-3    3.522329887386041E-3   -5.567697177574419E-3    9.965243079634699E-1    5.149177943236292E-3
 1.429382332431784E5     9.965740803302223E-1    5.149131791879013E-3    3.507945011936294E-3   -5.520986221757335E-3    3.517311563564775E-3   -5.529853126966015E-3    9.965311610333667E-1    5.122368563262906E-3
 1.440288323297804E5     9.965690629217371E-1    5.117862256304367E-3    3.507162571227913E-3   -5.480490472059352E-3    3.517769090248824E-3   -5.491155810557972E-3    9.965401558310855E-1    5.085376956547240E-3
 1.451277525376154E5     9.965347692111168E-1    5.067786325013680E-3    3.501800655255434E-3   -5.446064723802737E-3    3.511979359873061E-3   -5.450570624558483E-3    9.965550045251311E-1    5.036362909556407E-3
 1.462350573556962E5     9.965366611228753E-1    5.015972413394926E-3    3.499925101842974E-3   -5.407975873867998E-3    3.509493683199530E-3   -5.418077246592116E-3    9.965549018120202E-1    4.990109563309354E-3
 1.473508107574468E5     9.965367261687137E-1    4.982385285721553E-3    3.495652742738416E-3   -5.368904736872058E-3    3.510256554665441E-3   -5.372885527982678E-3    9.965725465168154E-1    4.951892192219060E-3
 1.484750772044004E5     9.965374881777036E-1    4.920225266245235E-3    3.495792493305020E-3   -5.332113679909010E-3    3.503276975023425E-3   -5.340191609359191E-3    9.965271650817588E-1    4.909220234901010E-3
 1.496079216499225E5     9.965357409647236E-1    4.899642006446396E-3    3.490472509662738E-3   -5.294876367655395E-3    3.500941394027324E-3   -5.301451600172723E-3    9.965180793519929E-1    4.881109761587594E-3
 1.507494095429637E5     9.965449572223685E-1    4.858871289769672E-3    3.490570781113773E-3   -5.259525486793139E-3    3.501373714311542E-3   -5.266764372515124E-3    9.965290792343467E-1    4.847320468884987E-3
 1.518996068318418E5     9.965711521325036E-1    4.807801048474617E-3    3.487140595819909E-3   -5.223689726262390E-3    3.497134026231077E-3   -5.228509304910052E-3    9.965524009622928E-1    4.787294453441729E-3
 1.530585799680507E5     9.965569578324787E-1    4.777892906863416E-3    3.479451097990921E-3   -5.183150877642008E-3    3.498011002075194E-3   -5.193380601277046E-3    9.965350578470668E-1    4.752832531023630E-3
 1.542263959101001E5     9.965453836676503E-1    4.721306958323614E-3    3.480408931132896E-3   -5.150899123246650E-3    3.492699183810252E-3   -5.155538088775112E-3    9.965561964580375E-1    4.726237192832725E-3
 1.554031221273835E5     9.965598663705052E-1    4.692374994086659E-3    3.478257834916499E-3   -5.112259323310848E-3    3.493738493206359E-3   -5.120456133596854E-3    9.965569178172002E-1    4.673228301748704E-3
 1.565888266040779E5     9.965795960173600E-1    4.665447388231369E-3    3.479847694203408E-3   -5.077915976643658E-3    3.484207603449239E-3   -5.083467108960619E-3    9.965459441728074E-1    4.644092400996712E-3
 1.577835778430689E5     9.965653725890692E-1    4.607750021595316E-3    3.473199000230646E-3   -5.042605827618960E-3    3.484573228596370E-3   -5.049791127526894E-3    9.965521644438520E-1    4.602437437312091E-3
 1.589874448699104E5     9.965852031627215E-1    4.609535171699719E-3    3.472976533570026E-3   -5.007756729932997E-3    3.481363646286880E-3   -5.018050002579637E-3    9.965630796446432E-1    4.548236604807874E-3
 1.602004972368116E5     9.966315069155027E-1    4.552730684573135E-3    3.467583553776921E-3   -4.972580810699942E-3    3.477940729332024E-3   -4.981758148416052E-3    9.966241714714786E-1    4.507181320767949E-3
 1.614228050266550E5     9.966224263130167E-1    4.514617207761638E-3    3.465432932678439E-3   -4.936558858660661E-3    3.476662509642328E-3   -4.945749164438747E-3    9.966224799110321E-1    4.479028952158207E-3
 1.626544388570473E5     9.966087946515757E-1    4.481164429364945E-3    3.461475030802694E-3   -4.906480552432961E-3    3.471197092735902E-3   -4.913834523514201E-3    9.965886767563684E-1    4.433689350253617E-3
 1.638954698843964E5     9.966308674432157E-1    4.450418161629179E-3    3.458717617447447E-3   -4.872039008760714E-3    3.471180467590934E-3   -4.879263220932477E-3    9.966059016555784E-1    4.404541446843174E-3
 1.651459698080244E5     9.966386998715124E-1    4.405514190085460E-3    3.460686725874264E-3   -4.837246526777210E-3    3.466823177451389E-3   -4.847982710053807E-3    9.966144285640635E-1    4.372865801421063E-3
 1.664060108743095E5     9.966415064681221E-1    4.372916272097072E-3    3.452446501358582E-3   -4.804621705192744E-3    3.465692544510793E-3   -4.811454817086736E-3    9.966362531629330E-1    4.334276820366994E-3
 1.676756658808590E5     9.966314521765841E-1    4.328610356119145E-3    3.451298030666485E-3   -4.770452258413216E-3    3.458124695817117E-3   -4.778069599930209E-3    9.966131561319213E-1    4.302046999121327E-3
 1.689550081807175E5     9.966310620979363E-1    4.285790764031406E-3    3.445962358168720E-3   -4.737981567483252E-3    3.456940934644881E-3   -4.745658992571853E-3    9.966282552954221E-1    4.259486747058880E-3
 1.702441116866020E5     9.966356572547406E-1    4.243123074616300E-3    3.446231564119928E-3   -4.702748898566173E-3    3.454949571469698E-3   -4.716203568955963E-3    9.966424445445774E-1    4.247776884426646E-3
 1.715430508751738E5     9.966504546896923E-1    4.214585129779248E-3    3.441501011068348E-3   -4.676006257381924E-3    3.448916521969670E-3   -4.684507244273272E-3    9.965889703276000E-1    4.202175235961013E-3
 1.728519007913403E5     9.966415898545079E-1    4.187014750532995E-3    3.440346309950092E-3   -4.638890623207284E-3    3.446685031729153E-3   -4.647867430146686E-3    9.966270153303946E-1    4.155708818599350E-3
 1.741707370525927E5     9.966328688036490E-1    4.141379024798037E-3    3.439055619812692E-3   -4.611739429048805E-3    3.443646861696337E-3   -4.617351927489765E-3    9.966254322561208E-1    4.132632012492930E-3
 1.754996358533718E5     9.966341652734598E-1    4.104868119363436E-3    3.432903170206592E-3   -4.580418929196416E-3    3.441234016979083E-3   -4.585739343528658E-3    9.966004091417844E-1    4.100626590526982E-3
 1.768386739694722E5     9.966300972398621E-1    4.071133266885861E-3    3.426937953154894E-3   -4.546344274754669E-3    3.436564664895825E-3   -4.554477027144571E-3    9.966715810304044E-1    4.064096905941976E-3
 1.781879287624771E5     9.966376154988842E-1    4.030514670129291E-3    3.427223468786893E-3   -4.515702146364959E-3    3.437792445884097E-3   -4.524722668187091E-3    9.966709026163605E-1    4.037515199851874E-3
 1.795474781842276E5     9.966344022847887E-1    4.011587266998812E-3    3.420989694983648E-3   -4.484923901403219E-3    3.434159937726116E-3   -4.492779260619588E-3    9.966473229872587E-1    4.001347691587854E-3
 1.809174007813277E5     9.966401920461758E-1    3.969277230433441E-3    3.419152217751380E-3   -4.455519492613158E-3    3.429281190324838E-3   -4.462428822205389E-3    9.966366890410263E-1    3.970507775877499E-3
 1.822977756996804E5     9.966096293118868E-1    3.932512673047651E-3    3.417744810911560E-3   -4.424476967042681E-3    3.425690898203436E-3   -4.430509058652493E-3    9.966614042050861E-1    3.935540807623873E-3
 1.836886826890609E5     9.966333157230186E-1    3.914640011037799E-3    3.411952762225999E-3   -4.393909953363251E-3    3.421088687806133E-3   -4.399863265108500E-3    9.966184246329453E-1    3.892908874447826E-3
 1.850902021077247E5     9.966423137127610E-1    3.876350439393908E-3    3.410391151101001E-3   -4.365964472201190E-3    3.420877413049477E-3   -4.372453740484422E-3    9.966342582416154E-1    3.855463106884607E-3
 1.865024149270491E5     9.966274392711313E-1    3.828573846812734E-3    3.408255657920701E-3   -4.333635220878929E-3    3.413200249839039E-3   -4.340032630321429E-3    9.966375523255838E-1    3.829872386275302E-3
 1.879254027362132E5     9.966263184028580E-1    3.807726973548391E-3    3.401497605164121E-3   -4.304676941421939E-3    3.414229586746833E-3   -4.311642914552644E-3    9.966520997614435E-1    3.788748286276434E-3
 1.893592477469092E5     9.966756810132253E-1    3.718267847917325E-3    3.380206162679964E-3   -4.280724218642395E-3    3.423366814429531E-3   -4.283461640949476E-3    9.966646008758747E-1    3.778588245306527E-3
 1.908040327980933E5     9.966505718678799E-1    3.745894628690082E-3    3.394375568640479E-3   -4.246054271551649E-3    3.405598335380670E-3   -4.248964170509511E-3    9.966441952487789E-1    3.724937931375581E-3
 1.922598413607715E5     9.966469981242433E-1    3.698161356890640E-3    3.391553392811215E-3   -4.217146356859547E-3    3.401905033377451E-3   -4.227457817803040E-3    9.966629904500123E-1    3.687662739191899E-3
 1.937267575428232E5     9.966716874729773E-1    3.670238632631326E-3    3.388501930334832E-3   -4.189223648496129E-3    3.401959491991981E-3   -4.194707721558743E-3    9.966747882703996E-1    3.670798797693116E-3
 1.952048660938581E5     9.966803405814254E-1    3.635565784616220E-3    3.384209436382566E-3   -4.161168389616702E-3    3.394814354088985E-3   -4.164283542331772E-3    9.966396311341587E-1    3.624808548679557E-3
 1.966942524101142E5     9.966708542356405E-1    3.607290848253959E-3    3.381567695291125E-3   -4.132205833507403E-3    3.392848923059577E-3   -4.137541193374384E-3    9.966611533497812E-1    3.593892340102387E-3
 1.981950025393913E5     9.966635749691007E-1    3.598660493668234E-3    3.379786553114343E-3   -4.102018228002500E-3    3.388421928953149E-3   -4.109413028680555E-3    9.966567350051032E-1    3.568969273627042E-3
