#  HZ   S   RI   R     50.00 
! Rohde & Schwarz Vector Network Analyzer 
! Rohde-Schwarz,ZNLE6-2Port,1323001256200024,1.71.1.10-23.02.1.238
! Created: UTC 4/7/2025, 2:33:16 AM
! freq[Hz]                re:S11                  im:S11                  re:S21                  im:S21                  re:S12                  im:S12                  re:S22                  im:S22
 1.000000000000000E5     9.967392343767946E-1    7.217755231864245E-3    3.457555539654557E-3   -7.385360405236424E-3    3.466059259060131E-3   -7.402575592769455E-3    9.966327519908692E-1    7.076442897625181E-3
 1.007629862646662E5     9.967588568705334E-1    7.130802030266160E-3    3.456305247150558E-3   -7.334235704137643E-3    3.463966851448873E-3   -7.347807263465212E-3    9.966066188364613E-1    7.011566189526988E-3
 1.015317940097331E5     9.967545178867880E-1    7.085554683982101E-3    3.454973826984273E-3   -7.277964186223024E-3    3.461865450574897E-3   -7.297039569854956E-3    9.965995926012379E-1    6.950091463829522E-3
 1.023064676522963E5     9.967349712753094E-1    7.004976663437957E-3    3.451054139531189E-3   -7.227838868045959E-3    3.456189735310383E-3   -7.239893253023554E-3    9.965637701567839E-1    6.903279646431299E-3
 1.030870519483485E5     9.967072384581821E-1    6.959785105186701E-3    3.447308600836841E-3   -7.177217771173967E-3    3.455899995528237E-3   -7.191903309452448E-3    9.965664450616626E-1    6.848836779544380E-3
 1.038735919953636E5     9.967411061660467E-1    6.895840392111562E-3    3.445700335503316E-3   -7.125769224534283E-3    3.455919651574664E-3   -7.140523388194773E-3    9.965841292610351E-1    6.817006929414087E-3
 1.046661332349037E5     9.967075768997098E-1    6.836775957960118E-3    3.443551599918518E-3   -7.074984098125484E-3    3.454246273520274E-3   -7.088990918444656E-3    9.965814997137152E-1    6.750048490367032E-3
 1.054647214552430E5     9.966957864735660E-1    6.782351526142565E-3    3.444434673316458E-3   -7.023573067545945E-3    3.453316717996204E-3   -7.035889931139918E-3    9.965787253952568E-1    6.704834095119711E-3
 1.062694027940149E5     9.967190416054091E-1    6.725535065611107E-3    3.442816807299101E-3   -6.971648245633755E-3    3.452269891853493E-3   -6.984694212961642E-3    9.965946725691384E-1    6.656781875514423E-3
 1.070802237408760E5     9.967283167492027E-1    6.668174750507643E-3    3.436936711880396E-3   -6.921646175862091E-3    3.444362575398923E-3   -6.934650344728115E-3    9.966030305141566E-1    6.595894589928878E-3
 1.078972311401927E5     9.967099660648364E-1    6.597106716246513E-3    3.438140837701616E-3   -6.873592922469688E-3    3.443564197718507E-3   -6.889609061506174E-3    9.965916559863744E-1    6.533881296732165E-3
 1.087204721937475E5     9.966924498119862E-1    6.559140156444152E-3    3.433073887922615E-3   -6.823336943171804E-3    3.445758148938251E-3   -6.835762022877327E-3    9.966194720918766E-1    6.508049863208937E-3
 1.095499944634658E5     9.967100143862184E-1    6.476147304713121E-3    3.432751480067775E-3   -6.774802700949396E-3    3.440796416201763E-3   -6.790420440341116E-3    9.965477688900455E-1    6.435397738252726E-3
 1.103858458741646E5     9.967278877983856E-1    6.444682939585752E-3    3.429551979554602E-3   -6.724456856511741E-3    3.440491554956286E-3   -6.737199818407803E-3    9.965823444386523E-1    6.386265563271362E-3
 1.112280747163201E5     9.966814554958207E-1    6.385119750134395E-3    3.428955749109312E-3   -6.678433416126216E-3    3.438611367557870E-3   -6.692553360977584E-3    9.966152377029371E-1    6.327419553271701E-3
 1.120767296488583E5     9.966733921021321E-1    6.335494001248445E-3    3.428408314614006E-3   -6.631337895434229E-3    3.435392363378553E-3   -6.642039349378271E-3    9.966061688701924E-1    6.272323954514824E-3
 1.129318597019661E5     9.966864512134520E-1    6.277249358214598E-3    3.423536219727666E-3   -6.581152985429202E-3    3.435175958587200E-3   -6.593653533391601E-3    9.965622160314760E-1    6.202679627334311E-3
 1.137935142799240E5     9.967231129751248E-1    6.228773121969295E-3    3.422270080674558E-3   -6.535323072489853E-3    3.429886748112585E-3   -6.546916927242907E-3    9.965795391360819E-1    6.192739521449163E-3
 1.146617431639607E5     9.967292663304664E-1    6.179797040960857E-3    3.419936720891833E-3   -6.487133999726313E-3    3.429928451617873E-3   -6.502640375781721E-3    9.965921095129556E-1    6.129183951926219E-3
 1.155365965151286E5     9.966977734901592E-1    6.153192648854564E-3    3.420144287097846E-3   -6.441700049472275E-3    3.427421687984939E-3   -6.457076550727777E-3    9.966130675259016E-1    6.084375926255579E-3
 1.164181248772018E5     9.966897479548358E-1    6.103196826600058E-3    3.413140608593025E-3   -6.393185004794960E-3    3.421537842862909E-3   -6.405976180157873E-3    9.966065622167029E-1    6.038434340092702E-3
 1.173063791795965E5     9.966964267396841E-1    6.039330754907624E-3    3.416078340688218E-3   -6.350669538913879E-3    3.426720327137025E-3   -6.361051851058318E-3    9.965890673418000E-1    5.988719223213278E-3
 1.182014107403141E5     9.966880100424151E-1    6.001205796438921E-3    3.412099972074582E-3   -6.310691046115509E-3    3.419194507963881E-3   -6.319235629565544E-3    9.965817565320424E-1    5.935833335986740E-3
 1.191032712689044E5     9.966788719073465E-1    5.936627635851180E-3    3.410036122385429E-3   -6.259461223787910E-3    3.419018829202832E-3   -6.273166753516856E-3    9.966363382455887E-1    5.900947347736180E-3
 1.200120128694542E5     9.966677192656196E-1    5.891512883361314E-3    3.407702285529510E-3   -6.214088802296175E-3    3.416589748076466E-3   -6.226169163502687E-3    9.966285928115260E-1    5.855394294112372E-3
 1.209276880435975E5     9.966586314208992E-1    5.855139964535362E-3    3.403034226870049E-3   -6.173031856613532E-3    3.416256347573031E-3   -6.183401605676903E-3    9.966447902711817E-1    5.813831168113561E-3
 1.218503496935483E5     9.967067761107790E-1    5.805108631341043E-3    3.401719062139835E-3   -6.125902627983968E-3    3.415112809342767E-3   -6.135883700591457E-3    9.966199383554921E-1    5.771251864140656E-3
 1.227800511251578E5     9.967241757417330E-1    5.753491039145468E-3    3.399142270649990E-3   -6.082869271218948E-3    3.412979050287332E-3   -6.095900406912087E-3    9.966127147448998E-1    5.717520711989289E-3
 1.237168460509929E5     9.967354856231651E-1    5.729092161790502E-3    3.396652291992272E-3   -6.041921133666370E-3    3.408332955508284E-3   -6.050787370911213E-3    9.966319216281557E-1    5.683983253755459E-3
 1.246607885934402E5     9.967346442120265E-1    5.658397407472203E-3    3.397315575901319E-3   -5.999661208886272E-3    3.407057573225842E-3   -6.010944159706238E-3    9.966484404092657E-1    5.635140693931168E-3
 1.256119332878327E5     9.967356008861733E-1    5.631932604022159E-3    3.397366167581682E-3   -5.955470858709803E-3    3.400810273671304E-3   -5.966185685418706E-3    9.966027213970490E-1    5.574234353903329E-3
 1.265703350856002E5     9.967288190004348E-1    5.555516294076911E-3    3.393432494957773E-3   -5.912738968069937E-3    3.402208525108768E-3   -5.924444412023484E-3    9.966610808252186E-1    5.520881924551509E-3
 1.275360493574453E5     9.967235186544910E-1    5.524964432046814E-3    3.391386954137105E-3   -5.869511579447262E-3    3.399987801054172E-3   -5.880922239096918E-3    9.966380988312251E-1    5.486338455745711E-3
 1.285091318965405E5     9.967533568852365E-1    5.478612081522103E-3    3.388447327040949E-3   -5.829852021765853E-3    3.397875888027157E-3   -5.842217949624543E-3    9.966639343111198E-1    5.447563022683040E-3
 1.294896389217529E5     9.967058820185556E-1    5.405335814939614E-3    3.387861484927267E-3   -5.791083131404588E-3    3.397279529341456E-3   -5.799040364175872E-3    9.966664587014389E-1    5.413464179054979E-3
 1.304776270808914E5     9.967002235645940E-1    5.367174088175748E-3    3.384879564002112E-3   -5.747584323688685E-3    3.395134711651853E-3   -5.756787492459663E-3    9.966719908718845E-1    5.382436913354411E-3
 1.314731534539810E5     9.966913433694000E-1    5.333933208258079E-3    3.380259790498696E-3   -5.706793194064476E-3    3.391725696982655E-3   -5.715078717880569E-3    9.966623941980056E-1    5.324949555234920E-3
 1.324762755565583E5     9.967418430253818E-1    5.272880456370051E-3    3.379889196397755E-3   -5.667462501679642E-3    3.388665944708178E-3   -5.678379959209242E-3    9.966771506276672E-1    5.287949718281310E-3
 1.334870513429962E5     9.967232320967637E-1    5.240641459678201E-3    3.377992692559372E-3   -5.625432689053754E-3    3.382366139009903E-3   -5.637582390633496E-3    9.966788734815674E-1    5.240533086539404E-3
 1.345055392098512E5     9.967404103205867E-1    5.208645558430989E-3    3.376119712832952E-3   -5.587055953794458E-3    3.383340235212267E-3   -5.599690486249692E-3    9.966568289783609E-1    5.187841707422912E-3
 1.355317979992373E5     9.967172518696804E-1    5.165854193527662E-3    3.375087787466905E-3   -5.548396243196480E-3    3.381173264254348E-3   -5.559135559279547E-3    9.966621038253164E-1    5.172050348275266E-3
 1.365658870022265E5     9.967184800121983E-1    5.119263851159093E-3    3.371243187073619E-3   -5.507100734422385E-3    3.379600478691575E-3   -5.517611691691612E-3    9.966702713555471E-1    5.128693467739466E-3
 1.376078659622731E5     9.967265386697205E-1    5.068829673314972E-3    3.367752308918376E-3   -5.472757879531727E-3    3.376374211169868E-3   -5.483015315445804E-3    9.966693350105528E-1    5.071181113690202E-3
 1.386577950786655E5     9.966940331877526E-1    5.026646495702797E-3    3.364531789737634E-3   -5.430419516475166E-3    3.374332994832628E-3   -5.441416340583026E-3    9.966473548822995E-1    5.042013614106248E-3
 1.397157350100044E5     9.967222917200399E-1    4.997734879245440E-3    3.365780963159144E-3   -5.393706928717313E-3    3.371858327673838E-3   -5.401132947845190E-3    9.966455841081525E-1    4.996170139623778E-3
 1.407817468777081E5     9.967574620736369E-1    4.953189396287803E-3    3.360901456141483E-3   -5.355693528968041E-3    3.373029068230596E-3   -5.366872640486518E-3    9.966861253705757E-1    4.948437093595100E-3
 1.418558922695422E5     9.967385381336423E-1    4.930303078232859E-3    3.360341541793229E-3   -5.316864716117897E-3    3.368463094312960E-3   -5.325520580794376E-3    9.966753723829727E-1    4.908020537735920E-3
 1.429382332431784E5     9.967473913813175E-1    4.877968028750182E-3    3.356151352287132E-3   -5.279226714977399E-3    3.366372170138445E-3   -5.291729675619757E-3    9.966738162155102E-1    4.876489800168985E-3
 1.440288323297804E5     9.967373156239959E-1    4.859945043971393E-3    3.350737120601295E-3   -5.242448296585082E-3    3.361807595191668E-3   -5.252979924498792E-3    9.966830617565391E-1    4.829414769906657E-3
 1.451277525376154E5     9.967119568216677E-1    4.789787321051844E-3    3.354011788030177E-3   -5.208638115153879E-3    3.360123965832260E-3   -5.215203646757888E-3    9.967160448571759E-1    4.807731987123676E-3
 1.462350573556962E5     9.967379330715830E-1    4.761395498562840E-3    3.347023446746073E-3   -5.170367579006512E-3    3.357513122097143E-3   -5.179081221885143E-3    9.966939616779227E-1    4.772456439697023E-3
 1.473508107574468E5     9.967096013818720E-1    4.733530022038678E-3    3.345755983694731E-3   -5.135097319437638E-3    3.354785022550615E-3   -5.141333656359380E-3    9.967099495799707E-1    4.730916294833442E-3
 1.484750772044004E5     9.967159844969313E-1    4.669164257425995E-3    3.342232060750342E-3   -5.098461953399457E-3    3.352270708172626E-3   -5.105792941089562E-3    9.966785692812880E-1    4.680481960975929E-3
 1.496079216499225E5     9.967050074569039E-1    4.650475558468501E-3    3.344021886419737E-3   -5.062461697874349E-3    3.352167331661733E-3   -5.071201155959293E-3    9.966692322043135E-1    4.647649770493892E-3
 1.507494095429637E5     9.967112280589860E-1    4.607854163387868E-3    3.340347085850892E-3   -5.025435755141613E-3    3.348659736627251E-3   -5.036397110946564E-3    9.966581449781530E-1    4.613637078942866E-3
 1.518996068318418E5     9.967480214694254E-1    4.582926693021358E-3    3.335278833586854E-3   -4.989047554557382E-3    3.346983575600393E-3   -5.002937975681504E-3    9.966994405066609E-1    4.569838318662005E-3
 1.530585799680507E5     9.967517963166688E-1    4.541906172153453E-3    3.330852058755216E-3   -4.960875313375898E-3    3.343270720986013E-3   -4.966444371720096E-3    9.966911213395439E-1    4.523113607425200E-3
 1.542263959101001E5     9.967234749034304E-1    4.478890821772322E-3    3.330773687874710E-3   -4.923782990162468E-3    3.341288179681122E-3   -4.932671632047950E-3    9.966855353629852E-1    4.502710684685914E-3
 1.554031221273835E5     9.967604304740116E-1    4.449543879754228E-3    3.327401578077382E-3   -4.888176008270245E-3    3.338834254859569E-3   -4.899343980551523E-3    9.966899652128969E-1    4.445914091643796E-3
 1.565888266040779E5     9.967766497762525E-1    4.427380604281030E-3    3.327433895716081E-3   -4.852771171697505E-3    3.333669914891845E-3   -4.863207843940647E-3    9.967062941077909E-1    4.414956958187505E-3
 1.577835778430689E5     9.967817021733830E-1    4.396080363563698E-3    3.325971352052314E-3   -4.818556892100651E-3    3.334413142393309E-3   -4.827699660653629E-3    9.966681506216426E-1    4.371147835244700E-3
 1.589874448699104E5     9.967661638171115E-1    4.365736269039404E-3    3.322952615312491E-3   -4.788827566734574E-3    3.329102186525032E-3   -4.796413831661699E-3    9.967393754487920E-1    4.328690908099246E-3
 1.602004972368116E5     9.967899215076015E-1    4.322595778109222E-3    3.316292247704667E-3   -4.753880221893779E-3    3.325196364268931E-3   -4.758993072404619E-3    9.967626276205038E-1    4.297478734728671E-3
 1.614228050266550E5     9.967747393337716E-1    4.281335199673396E-3    3.315150407063970E-3   -4.720571117683503E-3    3.325214283059469E-3   -4.729518517599503E-3    9.967809267745742E-1    4.261749648924021E-3
 1.626544388570473E5     9.968115865242778E-1    4.245273571323028E-3    3.315529639719147E-3   -4.687127531245484E-3    3.323931458123378E-3   -4.691870669791276E-3    9.967406069490901E-1    4.223244917704890E-3
 1.638954698843964E5     9.968006865032903E-1    4.209693990666690E-3    3.311082115645240E-3   -4.654674020505465E-3    3.319309616342752E-3   -4.663926336154272E-3    9.967433522721463E-1    4.200519961084955E-3
 1.651459698080244E5     9.967907120636056E-1    4.174207492834178E-3    3.308468542132754E-3   -4.623934160659311E-3    3.315664479507176E-3   -4.632655235468460E-3    9.967506883996129E-1    4.166669159522497E-3
 1.664060108743095E5     9.968082732735425E-1    4.137814634798637E-3    3.306015293096523E-3   -4.590147304562391E-3    3.315784023363547E-3   -4.597302114423973E-3    9.967546078539106E-1    4.137419203158847E-3
 1.676756658808590E5     9.968070246102453E-1    4.086426785206485E-3    3.299767122541280E-3   -4.558126823403871E-3    3.314113362086676E-3   -4.567801052870246E-3    9.967404837486981E-1    4.103258867547683E-3
 1.689550081807175E5     9.968107888968765E-1    4.061417920706019E-3    3.296861085193487E-3   -4.528195542839781E-3    3.308083384325334E-3   -4.532809873750132E-3    9.967420579355362E-1    4.049903799204659E-3
 1.702441116866020E5     9.968012827495850E-1    4.018381809483087E-3    3.294920702469574E-3   -4.493988261399384E-3    3.307781895828755E-3   -4.506377353186459E-3    9.967574107984020E-1    4.025059320870521E-3
 1.715430508751738E5     9.967992072592443E-1    3.999701012742017E-3    3.294584103772903E-3   -4.465755648140490E-3    3.303091451131362E-3   -4.473135720555409E-3    9.967431542193183E-1    3.987487415513523E-3
 1.728519007913403E5     9.968174747751057E-1    3.969708614746119E-3    3.286688840463507E-3   -4.434071723267661E-3    3.297609340429827E-3   -4.439153061768595E-3    9.967488220095622E-1    3.953155137074551E-3
 1.741707370525927E5     9.968218359229778E-1    3.935085988364358E-3    3.287062594852206E-3   -4.401688619304949E-3    3.294819506321588E-3   -4.409433953109919E-3    9.967561253618714E-1    3.937665310420254E-3
 1.754996358533718E5     9.968127071033744E-1    3.890824182084031E-3    3.283204272440953E-3   -4.371863950297239E-3    3.295607721657033E-3   -4.380998714579247E-3    9.967444624500656E-1    3.888307365798553E-3
 1.768386739694722E5     9.968120360447276E-1    3.859857499705154E-3    3.279189023261799E-3   -4.339988363220778E-3    3.290887558612075E-3   -4.351174953748105E-3    9.967962449314849E-1    3.864004161819800E-3
 1.781879287624771E5     9.968452839516538E-1    3.818991153012772E-3    3.280311897721387E-3   -4.310000530386658E-3    3.288732020672864E-3   -4.321879759777725E-3    9.968166982973177E-1    3.826586290132286E-3
 1.795474781842276E5     9.967947768642047E-1    3.791647611089149E-3    3.274586976964738E-3   -4.284433486833465E-3    3.285053279058858E-3   -4.288631338306970E-3    9.968030986894397E-1    3.798498987793098E-3
 1.809174007813277E5     9.968172971596644E-1    3.755523271496640E-3    3.273256396646270E-3   -4.252209808327826E-3    3.285296070551332E-3   -4.260411061393706E-3    9.967665823753754E-1    3.756130460333055E-3
 1.822977756996804E5     9.968326933696099E-1    3.734819918462209E-3    3.271165148548149E-3   -4.223754320529014E-3    3.277835806623765E-3   -4.234356544224859E-3    9.967726379194705E-1    3.733923588031862E-3
 1.836886826890609E5     9.968321295985193E-1    3.704026194324330E-3    3.267341424221480E-3   -4.191690916858704E-3    3.276291195257400E-3   -4.200316508333173E-3    9.967755076772640E-1    3.687696199627078E-3
 1.850902021077247E5     9.968365266205212E-1    3.667569637178183E-3    3.264562575022401E-3   -4.163331239626234E-3    3.272270219426482E-3   -4.173984678616875E-3    9.968139603871703E-1    3.656054558895659E-3
 1.865024149270491E5     9.968387420948585E-1    3.623478398237521E-3    3.259477886768954E-3   -4.136334225787810E-3    3.271657062871764E-3   -4.142701342669232E-3    9.968145160638914E-1    3.643489246305348E-3
 1.879254027362132E5     9.968705154384320E-1    3.599677182273752E-3    3.257615838346336E-3   -4.107147875031251E-3    3.264539411464387E-3   -4.116037029453823E-3    9.967854829158058E-1    3.590029354151928E-3
 1.893592477469092E5     9.968886207581893E-1    3.535600048571066E-3    3.261686278313093E-3   -4.098758562591194E-3    3.252905444301663E-3   -4.090469688984522E-3    9.968151659626042E-1    3.544801430372163E-3
 1.908040327980933E5     9.968435904745166E-1    3.533939789312181E-3    3.250331932116829E-3   -4.049547845183148E-3    3.261422178752378E-3   -4.059683683100823E-3    9.968019639796187E-1    3.537291138218164E-3
 1.922598413607715E5     9.968334500638319E-1    3.489807163261967E-3    3.247234401523968E-3   -4.024171304110121E-3    3.256731231558033E-3   -4.029007151972372E-3    9.968028532849883E-1    3.506592523305854E-3
 1.937267575428232E5     9.968585487102557E-1    3.459644941210857E-3    3.245378461549364E-3   -3.994870803798481E-3    3.252111590978408E-3   -4.004209730213127E-3    9.968241916629335E-1    3.471149998441063E-3
 1.952048660938581E5     9.968658164920058E-1    3.437990929531269E-3    3.239765372890185E-3   -3.968735143922887E-3    3.248240951613194E-3   -3.974585322352476E-3    9.968032762968847E-1    3.430367028582420E-3
 1.966942524101142E5     9.968451473969520E-1    3.402173119884513E-3    3.232766643479730E-3   -3.940901102220402E-3    3.243668639485798E-3   -3.948535364530881E-3    9.968216587641588E-1    3.401607124619606E-3
 1.981950025393913E5     9.968471418487901E-1    3.382624149044727E-3    3.234788688103385E-3   -3.917434607544285E-3    3.241174499421049E-3   -3.921074935140749E-3    9.968255958109522E-1    3.384480340127745E-3
