#  HZ   S   RI   R     50.00 
! Rohde & Schwarz Vector Network Analyzer 
! Rohde-Schwarz,ZNLE6-2Port,1323001256200024,1.71.1.10-23.02.1.238
! Created: UTC 4/7/2025, 2:24:06 AM
! freq[Hz]                re:S11                  im:S11                  re:S21                  im:S21                  re:S12                  im:S12                  re:S22                  im:S22
 1.000000000000000E5     9.968340878453402E-1    6.913365713564622E-3    3.313887532626263E-3   -7.069375582270104E-3    3.320390248786591E-3   -7.085039786577674E-3    9.967404349134255E-1    6.763343161658906E-3
 1.007629862646662E5     9.968516849612287E-1    6.810281992456248E-3    3.312497804295440E-3   -7.024286444185525E-3    3.317100591000585E-3   -7.032706445911809E-3    9.967362237476465E-1    6.706450487004976E-3
 1.015317940097331E5     9.968359957769369E-1    6.768975659321775E-3    3.309111726257826E-3   -6.968534230616674E-3    3.315200740724348E-3   -6.980135296580874E-3    9.967418988974375E-1    6.648564130729613E-3
 1.023064676522963E5     9.968542190135189E-1    6.712890322592536E-3    3.304496970394002E-3   -6.920987676696662E-3    3.315296684696722E-3   -6.928130474359725E-3    9.967573953585582E-1    6.590323892691830E-3
 1.030870519483485E5     9.968158922357215E-1    6.653194516928428E-3    3.308036249372415E-3   -6.872463342753213E-3    3.310911728538886E-3   -6.880624895237296E-3    9.967366892219558E-1    6.549774389172530E-3
 1.038735919953636E5     9.968314910306482E-1    6.587431813827228E-3    3.302865090438966E-3   -6.823258053195338E-3    3.311213518626073E-3   -6.833340310887864E-3    9.967537363256188E-1    6.517208621542609E-3
 1.046661332349037E5     9.968169549279532E-1    6.548448634145393E-3    3.298226356629329E-3   -6.772259706918861E-3    3.306845529840757E-3   -6.782717424227703E-3    9.967198876551803E-1    6.441565185618798E-3
 1.054647214552430E5     9.968220397636233E-1    6.475674775576684E-3    3.296957974143217E-3   -6.723028574119941E-3    3.308858492204591E-3   -6.732587039928907E-3    9.967618142755414E-1    6.400397829686529E-3
 1.062694027940149E5     9.968028883075650E-1    6.419071179126775E-3    3.302556551483566E-3   -6.675449530864933E-3    3.303822886816595E-3   -6.687289023552792E-3    9.967407410792560E-1    6.336532098879362E-3
 1.070802237408760E5     9.968171359451954E-1    6.378109093199499E-3    3.296032088176010E-3   -6.627267518557488E-3    3.303299666488473E-3   -6.637640165951368E-3    9.967588619576560E-1    6.304264895287257E-3
 1.078972311401927E5     9.968257593062195E-1    6.322669074713462E-3    3.294872753391827E-3   -6.576613013668057E-3    3.301848673421796E-3   -6.588547312855955E-3    9.967555387091067E-1    6.238019009683493E-3
 1.087204721937475E5     9.968028570285410E-1    6.277847407609076E-3    3.289241935752658E-3   -6.531803971090865E-3    3.298847795371537E-3   -6.538501902944686E-3    9.967729975501329E-1    6.208460531034846E-3
 1.095499944634658E5     9.968102357714768E-1    6.199399837147096E-3    3.289566691670305E-3   -6.485407669681187E-3    3.296948981550391E-3   -6.494636030814264E-3    9.967359616893139E-1    6.136332563763238E-3
 1.103858458741646E5     9.968021468777709E-1    6.163117068263088E-3    3.288598668768102E-3   -6.435820383731508E-3    3.295710226340671E-3   -6.446851025041127E-3    9.967564304705205E-1    6.087823584217204E-3
 1.112280747163201E5     9.968089549179173E-1    6.105902416390811E-3    3.284257317759258E-3   -6.391990664120461E-3    3.296899898678693E-3   -6.400280838793259E-3    9.967965814670252E-1    6.043551314310489E-3
 1.120767296488583E5     9.968072092856460E-1    6.056429876678621E-3    3.280111777433912E-3   -6.346324015237542E-3    3.295584935140997E-3   -6.351529348350985E-3    9.968003861673184E-1    6.000558747667578E-3
 1.129318597019661E5     9.968068415199374E-1    6.002265983374729E-3    3.280815627507379E-3   -6.300197118304049E-3    3.288873998450926E-3   -6.307683225814414E-3    9.967675751226024E-1    5.926260126371312E-3
 1.137935142799240E5     9.968395997653356E-1    5.953753432209378E-3    3.279272706772559E-3   -6.257571088144519E-3    3.287772371599212E-3   -6.262303405370180E-3    9.967887937697979E-1    5.903422781655058E-3
 1.146617431639607E5     9.968246174809500E-1    5.898441850010684E-3    3.277107156984280E-3   -6.208264722054662E-3    3.286086756560580E-3   -6.216722272806488E-3    9.967549373870126E-1    5.854940990465234E-3
 1.155365965151286E5     9.968520375142178E-1    5.891296089403560E-3    3.275863544195667E-3   -6.164442470316977E-3    3.285374180472090E-3   -6.176213344537212E-3    9.967731165988023E-1    5.815434861512947E-3
 1.164181248772018E5     9.967970590615867E-1    5.820673606254941E-3    3.275906627337530E-3   -6.121703135783719E-3    3.278498634256376E-3   -6.129302589630792E-3    9.967196288889421E-1    5.761557744929449E-3
 1.173063791795965E5     9.968553567303827E-1    5.785170628774786E-3    3.271795178032207E-3   -6.080069404088948E-3    3.279103220909886E-3   -6.084225810898350E-3    9.967568438862155E-1    5.714218746808634E-3
 1.182014107403141E5     9.968343743302234E-1    5.745795234093118E-3    3.268325461639400E-3   -6.035779529942754E-3    3.278048618409035E-3   -6.041829097432021E-3    9.967535129101988E-1    5.663099443526447E-3
 1.191032712689044E5     9.968195052373826E-1    5.668982961456818E-3    3.265669804911269E-3   -5.989543315096793E-3    3.278610585279393E-3   -5.998409117779434E-3    9.967820694784474E-1    5.630218745662090E-3
 1.200120128694542E5     9.968057293997460E-1    5.612826285075146E-3    3.269112484668851E-3   -5.950732785457391E-3    3.274446094812281E-3   -5.956491406846131E-3    9.967796498235709E-1    5.565367052351307E-3
 1.209276880435975E5     9.968123765131532E-1    5.589697628387919E-3    3.264122122518467E-3   -5.907245951567998E-3    3.272308298124913E-3   -5.913921298158873E-3    9.968095982433786E-1    5.537485802737225E-3
 1.218503496935483E5     9.968592335776806E-1    5.560056337636393E-3    3.259967913015310E-3   -5.863538881683610E-3    3.271974790980912E-3   -5.870490550587686E-3    9.967893448277320E-1    5.488778407132302E-3
 1.227800511251578E5     9.968404413709057E-1    5.503688407071248E-3    3.258538578733784E-3   -5.825886802816843E-3    3.271402904445116E-3   -5.827840977158331E-3    9.967475381415515E-1    5.433142349121037E-3
 1.237168460509929E5     9.968349000236371E-1    5.454673402738497E-3    3.256019703068980E-3   -5.779931242938935E-3    3.266590512323769E-3   -5.788792160199836E-3    9.967552248011643E-1    5.401779020084986E-3
 1.246607885934402E5     9.967956155615750E-1    5.391903135528316E-3    3.256736588746683E-3   -5.738035891881581E-3    3.262588853860254E-3   -5.745234878790201E-3    9.967413937254823E-1    5.361487801345777E-3
 1.256119332878327E5     9.968162377079335E-1    5.354289582199634E-3    3.251236766099083E-3   -5.701381399461534E-3    3.260305791624141E-3   -5.706126592882444E-3    9.967513823461828E-1    5.302989715406920E-3
 1.265703350856002E5     9.968002394118427E-1    5.312779420254482E-3    3.247958872541108E-3   -5.658841966234599E-3    3.260087905457439E-3   -5.662299990188375E-3    9.967778761779195E-1    5.267374628545931E-3
 1.275360493574453E5     9.968236941224141E-1    5.266678904362194E-3    3.246834787334299E-3   -5.618724417978449E-3    3.260221454088751E-3   -5.625452091694664E-3    9.967690215883862E-1    5.222308621918218E-3
 1.285091318965405E5     9.968360904980179E-1    5.226690188909634E-3    3.248069031597530E-3   -5.578249401224958E-3    3.257788662987474E-3   -5.584281220966991E-3    9.967605111846980E-1    5.188194442712520E-3
 1.294896389217529E5     9.968157331036868E-1    5.190033181156670E-3    3.245171339098854E-3   -5.538215754033467E-3    3.254181899219975E-3   -5.546688914789715E-3    9.967940467518548E-1    5.149120862381326E-3
 1.304776270808914E5     9.968150513849109E-1    5.131596935560654E-3    3.244311367995078E-3   -5.498152248286037E-3    3.250907339105191E-3   -5.502945588223992E-3    9.967950561214456E-1    5.126339180548801E-3
 1.314731534539810E5     9.968262842955667E-1    5.087149236535973E-3    3.241038859006225E-3   -5.458197556155834E-3    3.247410745333595E-3   -5.467809592884194E-3    9.967754740388944E-1    5.059679094820833E-3
 1.324762755565583E5     9.968647753597436E-1    5.054127631263218E-3    3.238041880463472E-3   -5.423559238578172E-3    3.246659672904789E-3   -5.428376348476751E-3    9.968023052217498E-1    5.041706398426863E-3
 1.334870513429962E5     9.968134007755608E-1    5.017819910667472E-3    3.235448916569218E-3   -5.386617841269832E-3    3.246990567149798E-3   -5.386889561310382E-3    9.968238406710763E-1    5.007458651142624E-3
 1.345055392098512E5     9.968214883951912E-1    4.969815663310524E-3    3.234069374840357E-3   -5.344952886969003E-3    3.242570757273245E-3   -5.353316461428469E-3    9.968265379746549E-1    4.943375421705274E-3
 1.355317979992373E5     9.968690224746743E-1    4.936556145953606E-3    3.232069387682191E-3   -5.310200223871965E-3    3.244949718585565E-3   -5.313781334114320E-3    9.968285481198573E-1    4.912209115187600E-3
 1.365658870022265E5     9.968426205189523E-1    4.895971736320637E-3    3.231569552609214E-3   -5.272164860560340E-3    3.239745827756625E-3   -5.274940064085070E-3    9.968151760660314E-1    4.875699859152352E-3
 1.376078659622731E5     9.968595388401186E-1    4.859253016828363E-3    3.227641758001751E-3   -5.231540905883779E-3    3.234878597890367E-3   -5.235495500579326E-3    9.968202850763964E-1    4.830585189668869E-3
 1.386577950786655E5     9.968743863042642E-1    4.824582828952587E-3    3.226927129123482E-3   -5.192614314260953E-3    3.233034016948089E-3   -5.199716938776792E-3    9.968045216110982E-1    4.798703181117767E-3
 1.397157350100044E5     9.968806834871669E-1    4.783586317799559E-3    3.222851115395723E-3   -5.157165552431594E-3    3.232444665983353E-3   -5.164677466721870E-3    9.968157473501670E-1    4.766296589312521E-3
 1.407817468777081E5     9.969125938026282E-1    4.740027304956691E-3    3.218973361261106E-3   -5.122617001448400E-3    3.230228404134694E-3   -5.128080991310411E-3    9.968156037613440E-1    4.710934178928861E-3
 1.418558922695422E5     9.969022438142633E-1    4.714048230087474E-3    3.216729463925698E-3   -5.084525748764123E-3    3.226183864716162E-3   -5.090115844317338E-3    9.968276850558608E-1    4.675107130407676E-3
 1.429382332431784E5     9.968869568536786E-1    4.662860434540559E-3    3.217709082545883E-3   -5.048952783685653E-3    3.224004595938272E-3   -5.056260619505183E-3    9.968415772551342E-1    4.637026688509577E-3
 1.440288323297804E5     9.968743920517588E-1    4.640339707717180E-3    3.213683569653842E-3   -5.016831528166827E-3    3.224657095810411E-3   -5.019643476465835E-3    9.968478497544049E-1    4.611875966132496E-3
 1.451277525376154E5     9.968844612535257E-1    4.581932612865948E-3    3.212792508552763E-3   -4.978756023506966E-3    3.220357047837306E-3   -4.984764857301705E-3    9.968786534944633E-1    4.566381821096379E-3
 1.462350573556962E5     9.968599926729385E-1    4.552538553020470E-3    3.208126586288441E-3   -4.942610004208378E-3    3.220146396128320E-3   -4.950219803654477E-3    9.968704506348798E-1    4.534532842123676E-3
 1.473508107574468E5     9.969043889856252E-1    4.525631145102453E-3    3.207828460783008E-3   -4.907425436287863E-3    3.215295184944822E-3   -4.915144435120295E-3    9.968606761552836E-1    4.493083234649259E-3
 1.484750772044004E5     9.969063511606031E-1    4.458892275813229E-3    3.203415472159239E-3   -4.869127078358085E-3    3.214934249849499E-3   -4.876134093254210E-3    9.968345404365151E-1    4.457751516953274E-3
 1.496079216499225E5     9.969220666827826E-1    4.439898840095271E-3    3.200188603931443E-3   -4.840578662568765E-3    3.215136920099128E-3   -4.847410108011833E-3    9.968229017972654E-1    4.414429532557310E-3
 1.507494095429637E5     9.969120310071534E-1    4.408077126581526E-3    3.202150948129781E-3   -4.805024788216265E-3    3.208114156156272E-3   -4.811166015537898E-3    9.968262417472948E-1    4.377729595894431E-3
 1.518996068318418E5     9.969255616953839E-1    4.388436789413234E-3    3.196803898308763E-3   -4.769506650165717E-3    3.208541534931943E-3   -4.776134059583906E-3    9.968610060104660E-1    4.348272549131121E-3
 1.530585799680507E5     9.969132769029768E-1    4.339047806736973E-3    3.193400168511941E-3   -4.736103743880734E-3    3.204791541057607E-3   -4.743311552679283E-3    9.968630551409401E-1    4.298980630281380E-3
 1.542263959101001E5     9.969023520585432E-1    4.285398852105085E-3    3.195170689241341E-3   -4.704034613501115E-3    3.204212244889048E-3   -4.707466156568060E-3    9.968567985673996E-1    4.270022701501440E-3
 1.554031221273835E5     9.969195959059877E-1    4.254324046110191E-3    3.190126701439549E-3   -4.673352690910828E-3    3.200186551156533E-3   -4.677133645128524E-3    9.968660590900262E-1    4.230757456969165E-3
 1.565888266040779E5     9.969538362304116E-1    4.248442176998845E-3    3.187785631518974E-3   -4.634477707991134E-3    3.200673633298640E-3   -4.644994936708338E-3    9.968634688370919E-1    4.200960043623550E-3
 1.577835778430689E5     9.969486021551479E-1    4.190967459338556E-3    3.185922903100396E-3   -4.605141597906165E-3    3.192455113820628E-3   -4.612512331536612E-3    9.968845062968440E-1    4.167221850342182E-3
 1.589874448699104E5     9.969213640426661E-1    4.171127262765098E-3    3.184466864807151E-3   -4.571816134627982E-3    3.190799689167348E-3   -4.579469193474215E-3    9.969104594151855E-1    4.115903762721999E-3
 1.602004972368116E5     9.969320195234100E-1    4.130589044526951E-3    3.179546894546838E-3   -4.541847032696267E-3    3.189796184677489E-3   -4.548562597425801E-3    9.969378279862585E-1    4.078545013554659E-3
 1.614228050266550E5     9.969609616449383E-1    4.080140197347050E-3    3.176087835214282E-3   -4.508342570820609E-3    3.189977157540915E-3   -4.511827825187497E-3    9.969238586979365E-1    4.048088958650805E-3
 1.626544388570473E5     9.969487152543001E-1    4.058988344340124E-3    3.173817296679234E-3   -4.476097001540959E-3    3.185352711929242E-3   -4.483545958693988E-3    9.968809571885016E-1    4.018463468666744E-3
 1.638954698843964E5     9.969287784100775E-1    4.014273578643417E-3    3.173355489878635E-3   -4.444425196457625E-3    3.181712576375526E-3   -4.452011005331451E-3    9.969045573410753E-1    3.990280732663623E-3
 1.651459698080244E5     9.969005065638644E-1    3.986950533341998E-3    3.172991138905215E-3   -4.414073614525074E-3    3.179091710013246E-3   -4.424719042572861E-3    9.969026696216404E-1    3.945627868314957E-3
 1.664060108743095E5     9.969303034625174E-1    3.958519377157974E-3    3.165355443182889E-3   -4.382653864645570E-3    3.177743324928116E-3   -4.390272124523343E-3    9.969288867675834E-1    3.911729785420170E-3
 1.676756658808590E5     9.969567688371778E-1    3.912231120339336E-3    3.164123917876916E-3   -4.353039571676633E-3    3.173698892622607E-3   -4.359048607643248E-3    9.969012814418952E-1    3.890697912988130E-3
 1.689550081807175E5     9.969502715988826E-1    3.861961690596391E-3    3.163740261820743E-3   -4.323930017158342E-3    3.171311964756882E-3   -4.331264758118411E-3    9.969217292631349E-1    3.849137614018255E-3
 1.702441116866020E5     9.969598462788016E-1    3.835943520055903E-3    3.159870198839643E-3   -4.287089788850187E-3    3.166993461812280E-3   -4.298725710510129E-3    9.969384559181579E-1    3.825403649998949E-3
 1.715430508751738E5     9.969325643912359E-1    3.797186036605364E-3    3.153978920779126E-3   -4.261297317122394E-3    3.163331153481308E-3   -4.268829084337354E-3    9.969087766651825E-1    3.777345285579936E-3
 1.728519007913403E5     9.969253978676003E-1    3.775291078115020E-3    3.153283721644930E-3   -4.232180506152052E-3    3.164603554116165E-3   -4.238594111565633E-3    9.969437930003431E-1    3.755112942464671E-3
 1.741707370525927E5     9.969282810934796E-1    3.733505941823896E-3    3.150275389672900E-3   -4.204988579289158E-3    3.159632627187648E-3   -4.208286078369839E-3    9.969516385701751E-1    3.718871774794153E-3
 1.754996358533718E5     9.969297533270707E-1    3.702380913426277E-3    3.150331092554049E-3   -4.174417180044633E-3    3.157933368328924E-3   -4.181978089883190E-3    9.969093939179670E-1    3.676765724731200E-3
 1.768386739694722E5     9.969226462863129E-1    3.655542516029332E-3    3.146103621304011E-3   -4.142162946506777E-3    3.155635244516869E-3   -4.149761089782174E-3    9.970047867135996E-1    3.669723301166353E-3
 1.781879287624771E5     9.969374506767110E-1    3.626918606373806E-3    3.142234566041369E-3   -4.113527151011188E-3    3.151500356353719E-3   -4.123113405295768E-3    9.969787849883415E-1    3.636903187888947E-3
 1.795474781842276E5     9.969431227463258E-1    3.609338042383568E-3    3.140531927002633E-3   -4.085332869964930E-3    3.149484142317795E-3   -4.093988178153738E-3    9.969512927886791E-1    3.603648593787770E-3
 1.809174007813277E5     9.969516820553551E-1    3.560005753775902E-3    3.134375583395797E-3   -4.057581398779860E-3    3.145660195675834E-3   -4.065826313998352E-3    9.969295735267799E-1    3.565198374933689E-3
 1.822977756996804E5     9.969901448415095E-1    3.535583917888452E-3    3.133595390503435E-3   -4.029069017918251E-3    3.144323348869576E-3   -4.037558886566026E-3    9.969580152976728E-1    3.540789180509720E-3
 1.836886826890609E5     9.969767275793815E-1    3.516368814313964E-3    3.132594194394108E-3   -3.999273424786934E-3    3.141321707438196E-3   -4.007129940002810E-3    9.969452705170585E-1    3.498074234721676E-3
 1.850902021077247E5     9.970056673120922E-1    3.488683102426374E-3    3.126412531183414E-3   -3.973055912312600E-3    3.136565690492737E-3   -3.979639551784307E-3    9.969520040690006E-1    3.473874321980488E-3
 1.865024149270491E5     9.969864256526474E-1    3.435414966492050E-3    3.124130854669020E-3   -3.944716885046899E-3    3.134255810480590E-3   -3.950526351039493E-3    9.969402984396540E-1    3.449667719431170E-3
 1.879254027362132E5     9.969862962636848E-1    3.418398610625749E-3    3.119958288918380E-3   -3.920952950830792E-3    3.132639221193756E-3   -3.924782769219954E-3    9.969549454116921E-1    3.386806230149281E-3
 1.893592477469092E5     9.969893342165725E-1    3.334248912692597E-3    3.115738176913736E-3   -3.875348342119669E-3    3.129985040604424E-3   -3.911610407905742E-3    9.969921022208618E-1    3.372810257513074E-3
 1.908040327980933E5     9.969979568238951E-1    3.348091715119069E-3    3.115618548994483E-3   -3.861910557760684E-3    3.127602291243585E-3   -3.869907606826911E-3    9.969701830253782E-1    3.348830867422594E-3
 1.922598413607715E5     9.970087154854117E-1    3.305823366621109E-3    3.110950347491184E-3   -3.833900088112306E-3    3.122499617292428E-3   -3.841065010424964E-3    9.969612875559560E-1    3.312539660822951E-3
 1.937267575428232E5     9.969747421135233E-1    3.293759578848575E-3    3.110659753770750E-3   -3.807566416102914E-3    3.123455725447951E-3   -3.815762931675562E-3    9.969745040988581E-1    3.281399854040613E-3
 1.952048660938581E5     9.969931177379725E-1    3.257239305025756E-3    3.106784483347406E-3   -3.783389209692144E-3    3.116330047372796E-3   -3.790255791453739E-3    9.969871033871177E-1    3.246902822900332E-3
 1.966942524101142E5     9.969864384340866E-1    3.221031225508060E-3    3.104548361459450E-3   -3.757819236065130E-3    3.113426473725119E-3   -3.761164914611377E-3    9.969776557012574E-1    3.210783443810050E-3
 1.981950025393913E5     9.969647561453308E-1    3.203248545248514E-3    3.102721898730591E-3   -3.729229205089915E-3    3.111083869620372E-3   -3.736767545217518E-3    9.969899322872525E-1    3.198611726196243E-3
