#  HZ   S   RI   R     50.00 
! Rohde & Schwarz Vector Network Analyzer 
! Rohde-Schwarz,ZNLE6-2Port,1323001256200024,1.71.1.10-23.02.1.238
! Created: UTC 4/7/2025, 2:14:36 AM
! freq[Hz]                re:S11                  im:S11                  re:S21                  im:S21                  re:S12                  im:S12                  re:S22                  im:S22
 1.000000000000000E5     9.969723328589267E-1    6.606254607558245E-3    3.173566507073673E-3   -6.774438680519280E-3    3.182369013318639E-3   -6.785736389972477E-3    9.968578917148964E-1    6.479592161985094E-3
 1.007629862646662E5     9.969828565438144E-1    6.520999207117972E-3    3.174246613097149E-3   -6.724178453046565E-3    3.181355191619643E-3   -6.738820391056252E-3    9.968458907635843E-1    6.421452822247461E-3
 1.015317940097331E5     9.969696036255067E-1    6.481429594658384E-3    3.170449903334445E-3   -6.677115874160307E-3    3.179506550079337E-3   -6.688989893790416E-3    9.968571247865929E-1    6.364951599935938E-3
 1.023064676522963E5     9.969776992809750E-1    6.435960188284047E-3    3.169234768215037E-3   -6.627840654928109E-3    3.178482425763653E-3   -6.641491355909478E-3    9.968542570672463E-1    6.309415373751999E-3
 1.030870519483485E5     9.969703635476064E-1    6.376110962760575E-3    3.165558902505262E-3   -6.576335197638740E-3    3.177331886239437E-3   -6.592132304739770E-3    9.968463169158871E-1    6.270519912667497E-3
 1.038735919953636E5     9.969754514944700E-1    6.305402751982894E-3    3.161294654606960E-3   -6.528489013921342E-3    3.173509682955087E-3   -6.543419621927120E-3    9.968307052119940E-1    6.218236743616610E-3
 1.046661332349037E5     9.969482285314625E-1    6.267298408630991E-3    3.162331805912044E-3   -6.486474499766046E-3    3.175374506477785E-3   -6.496835937488609E-3    9.968239009538198E-1    6.171564488896852E-3
 1.054647214552430E5     9.969186929194720E-1    6.205919528154923E-3    3.161530398974583E-3   -6.439623800414959E-3    3.171339375272991E-3   -6.450652695668761E-3    9.968737640918837E-1    6.109811233847421E-3
 1.062694027940149E5     9.969261723454919E-1    6.147582871568405E-3    3.157268366197921E-3   -6.395700952942761E-3    3.170096478440024E-3   -6.402865968966856E-3    9.968376104786141E-1    6.066517017369184E-3
 1.070802237408760E5     9.969573065699534E-1    6.107297349269313E-3    3.158786795706706E-3   -6.345388972793189E-3    3.169876878760585E-3   -6.353639376905106E-3    9.968959671981696E-1    6.026488988738336E-3
 1.078972311401927E5     9.969456386863254E-1    6.064409172592496E-3    3.158131635610598E-3   -6.298895401310576E-3    3.164675675817260E-3   -6.309074477235815E-3    9.968467154694314E-1    5.971373651769696E-3
 1.087204721937475E5     9.969505797734358E-1    6.009693687115026E-3    3.152549168302792E-3   -6.255026914317373E-3    3.165053455425481E-3   -6.264707708459736E-3    9.968743001992929E-1    5.936446441226998E-3
 1.095499944634658E5     9.969632735031981E-1    5.942133648330646E-3    3.155170473613669E-3   -6.211267701477893E-3    3.164865212270157E-3   -6.221374703891346E-3    9.968423940799802E-1    5.873789052686785E-3
 1.103858458741646E5     9.969369444669751E-1    5.904749660547917E-3    3.151110485711344E-3   -6.162989765033288E-3    3.159316663931449E-3   -6.175521885484096E-3    9.968663914202136E-1    5.821970237317407E-3
 1.112280747163201E5     9.969652359332444E-1    5.849943315265321E-3    3.148658267508054E-3   -6.120616535077371E-3    3.156674189371004E-3   -6.128091841421660E-3    9.968732060657903E-1    5.785647845755720E-3
 1.120767296488583E5     9.969619026438300E-1    5.806346539793786E-3    3.147199172171953E-3   -6.072361712000688E-3    3.155037175983218E-3   -6.089346483244311E-3    9.968820337677307E-1    5.735798884749273E-3
 1.129318597019661E5     9.969336441942315E-1    5.739735895743879E-3    3.144877260330195E-3   -6.032589042330064E-3    3.154649389508454E-3   -6.044257098995821E-3    9.968536452207227E-1    5.685155371164522E-3
 1.137935142799240E5     9.969566264846381E-1    5.707952404624283E-3    3.140948601261475E-3   -5.990257714895849E-3    3.152051461983537E-3   -5.997052861016632E-3    9.968276357327376E-1    5.653067507180967E-3
 1.146617431639607E5     9.969483129475494E-1    5.650968492098015E-3    3.139433845200840E-3   -5.946959873321695E-3    3.152344793277286E-3   -5.957246222412814E-3    9.968413938511813E-1    5.596201043277642E-3
 1.155365965151286E5     9.969506453092764E-1    5.631959187523967E-3    3.141276047151246E-3   -5.901952646071163E-3    3.148684382591474E-3   -5.914429481563234E-3    9.968621255353139E-1    5.553982068646180E-3
 1.164181248772018E5     9.969106967863595E-1    5.561892888992299E-3    3.138045617897699E-3   -5.863080601039635E-3    3.149858654112589E-3   -5.871916514753099E-3    9.968670513791116E-1    5.502196627550784E-3
 1.173063791795965E5     9.969357105982548E-1    5.521481540144008E-3    3.136082799854990E-3   -5.819508962048657E-3    3.144443493253738E-3   -5.829020815222605E-3    9.968863465077844E-1    5.468087983384191E-3
 1.182014107403141E5     9.969405745792316E-1    5.476319808672604E-3    3.132466316626050E-3   -5.777372295248827E-3    3.144808430471264E-3   -5.785208650776911E-3    9.968859315704931E-1    5.425678408417238E-3
 1.191032712689044E5     9.969374410427263E-1    5.408663587039317E-3    3.133531022754698E-3   -5.738455409847880E-3    3.137953092760839E-3   -5.745737477854862E-3    9.969267773605847E-1    5.390551661269147E-3
 1.200120128694542E5     9.969177384171654E-1    5.371746711433922E-3    3.128234850072805E-3   -5.697535560303684E-3    3.139658921054736E-3   -5.702985252905474E-3    9.968950290638875E-1    5.347224314692897E-3
 1.209276880435975E5     9.969148203284230E-1    5.330618274551746E-3    3.126573393052614E-3   -5.654702713737223E-3    3.139482373560487E-3   -5.666927885075689E-3    9.968866285093141E-1    5.299360385713479E-3
 1.218503496935483E5     9.969782490487280E-1    5.294578360173169E-3    3.127295927753643E-3   -5.609974841922539E-3    3.135036122597898E-3   -5.623324553977222E-3    9.968981292584345E-1    5.259159618162254E-3
 1.227800511251578E5     9.969662791828319E-1    5.266283039323883E-3    3.125171734031055E-3   -5.576443746830937E-3    3.133472912642979E-3   -5.581722875892463E-3    9.968573008888729E-1    5.197072461995528E-3
 1.237168460509929E5     9.969805047543142E-1    5.202345173803988E-3    3.119406344457032E-3   -5.533197903273343E-3    3.129526119214380E-3   -5.543675270909029E-3    9.968849042078345E-1    5.170008563838247E-3
 1.246607885934402E5     9.969342927554496E-1    5.159348411482018E-3    3.122845627423535E-3   -5.494805233221986E-3    3.128731711562821E-3   -5.502736285106894E-3    9.968552157094693E-1    5.127820339537113E-3
 1.256119332878327E5     9.969773726678436E-1    5.134406729425452E-3    3.116557836765059E-3   -5.452896226629230E-3    3.129884035050508E-3   -5.460338933388900E-3    9.968530398647354E-1    5.076771199956081E-3
 1.265703350856002E5     9.969758978458416E-1    5.073938158056204E-3    3.116287071832336E-3   -5.415853932993789E-3    3.125103172744420E-3   -5.422491942757328E-3    9.968847245499899E-1    5.054829312973631E-3
 1.275360493574453E5     9.969606820345134E-1    5.026412997647709E-3    3.112954825159696E-3   -5.378160903409695E-3    3.124822610532675E-3   -5.387178363991930E-3    9.968666273608320E-1    5.004818319498889E-3
 1.285091318965405E5     9.969724714921511E-1    5.001633091724791E-3    3.111965418807342E-3   -5.342181770518097E-3    3.123422553478154E-3   -5.349674670510020E-3    9.968780342879892E-1    4.951903770700415E-3
 1.294896389217529E5     9.969542390389812E-1    4.938172309290283E-3    3.109129450663002E-3   -5.299637674201237E-3    3.123470926630936E-3   -5.310785948158812E-3    9.968802185120486E-1    4.921320207224344E-3
 1.304776270808914E5     9.969614667543943E-1    4.905836540329754E-3    3.108887026000655E-3   -5.261144842969521E-3    3.117412087771201E-3   -5.272409829748057E-3    9.968682681232760E-1    4.900269857204550E-3
 1.314731534539810E5     9.969599255552863E-1    4.852537620010869E-3    3.105409081778146E-3   -5.227522478841463E-3    3.114407703423197E-3   -5.233078747875687E-3    9.968624997056065E-1    4.829973805652121E-3
 1.324762755565583E5     9.969823384349047E-1    4.806979303639400E-3    3.103639620788166E-3   -5.188990922735825E-3    3.114092386525743E-3   -5.197176263598190E-3    9.968651088196903E-1    4.804222554985745E-3
 1.334870513429962E5     9.969480072553946E-1    4.777057432473186E-3    3.103253345400737E-3   -5.151744314991894E-3    3.110605700600383E-3   -5.160600005333305E-3    9.968728920567058E-1    4.770857784204156E-3
 1.345055392098512E5     9.969901502392627E-1    4.735029055784202E-3    3.100933548491049E-3   -5.116766644647676E-3    3.110106206469211E-3   -5.125527392455578E-3    9.968750028154881E-1    4.722723822674798E-3
 1.355317979992373E5     9.969757792216473E-1    4.713817212018135E-3    3.098075217263412E-3   -5.079188291201892E-3    3.108277663387221E-3   -5.085196886265046E-3    9.969069540335019E-1    4.696775605119149E-3
 1.365658870022265E5     9.969757120899408E-1    4.668480072502222E-3    3.095852257140859E-3   -5.044596206265630E-3    3.104339519460863E-3   -5.052151549770397E-3    9.968757721803957E-1    4.677299093314252E-3
 1.376078659622731E5     9.970190280750769E-1    4.620477069728678E-3    3.093412626055666E-3   -5.008849952610481E-3    3.105226031443051E-3   -5.014779662549939E-3    9.968972425602939E-1    4.612700673796415E-3
 1.386577950786655E5     9.969966507476639E-1    4.589969663717296E-3    3.089471846829307E-3   -4.970874195538605E-3    3.101943469217150E-3   -4.978206874139976E-3    9.968970912975389E-1    4.573231348260701E-3
 1.397157350100044E5     9.969837395956823E-1    4.552891833680463E-3    3.091674549387715E-3   -4.935211348678571E-3    3.099722648601636E-3   -4.942172820826734E-3    9.969152430763470E-1    4.543665262403954E-3
 1.407817468777081E5     9.970278218102830E-1    4.508629286764523E-3    3.088957690165187E-3   -4.899855080220880E-3    3.095080011513994E-3   -4.908764175669767E-3    9.968978855646538E-1    4.494180117948766E-3
 1.418558922695422E5     9.970046871191902E-1    4.484915149004489E-3    3.083332060056011E-3   -4.867518271882700E-3    3.096552358172862E-3   -4.872771830075351E-3    9.969027848816043E-1    4.457575416894649E-3
 1.429382332431784E5     9.970019792362730E-1    4.440812374627071E-3    3.082312309797895E-3   -4.829645958989116E-3    3.095634483028901E-3   -4.840539563338710E-3    9.969302580701728E-1    4.426867088317445E-3
 1.440288323297804E5     9.969801500718267E-1    4.411854681494938E-3    3.080622012952653E-3   -4.797299541589812E-3    3.092320423102584E-3   -4.805210387345394E-3    9.969219761735248E-1    4.380615622582062E-3
 1.451277525376154E5     9.969859597098337E-1    4.378724384621497E-3    3.080926881077156E-3   -4.762567032989506E-3    3.086277403242031E-3   -4.770553648063283E-3    9.969534126039732E-1    4.361274009158886E-3
 1.462350573556962E5     9.969953747759401E-1    4.329486923011528E-3    3.077794966006295E-3   -4.730000362006086E-3    3.088098717231300E-3   -4.739538109975665E-3    9.969362236389139E-1    4.319280217636139E-3
 1.473508107574468E5     9.969886726021361E-1    4.290619718969227E-3    3.072716161554398E-3   -4.696826905543507E-3    3.084004691057905E-3   -4.704727325560372E-3    9.969453759690625E-1    4.279669526304228E-3
 1.484750772044004E5     9.969649545698434E-1    4.245312758662135E-3    3.072524391217993E-3   -4.664196042344504E-3    3.084343556299703E-3   -4.669195475537222E-3    9.969403288612878E-1    4.254358088708892E-3
 1.496079216499225E5     9.969499288430854E-1    4.218763259131370E-3    3.072544159221502E-3   -4.630942747294513E-3    3.077291233249507E-3   -4.637128216553218E-3    9.969291469477823E-1    4.226312111165482E-3
 1.507494095429637E5     9.969671552204032E-1    4.192067677457196E-3    3.069214595066341E-3   -4.600122699914660E-3    3.077262950491940E-3   -4.604567854094326E-3    9.969266711287245E-1    4.181170160619224E-3
 1.518996068318418E5     9.970098665448441E-1    4.169087047995754E-3    3.065233705552570E-3   -4.566706960900602E-3    3.074034797955675E-3   -4.575591343497603E-3    9.969568310472178E-1    4.138280806336697E-3
 1.530585799680507E5     9.969887208633836E-1    4.115731519375497E-3    3.061742193888985E-3   -4.533665133908731E-3    3.074417960520249E-3   -4.540775999091445E-3    9.969670874712319E-1    4.102120736042872E-3
 1.542263959101001E5     9.970020716750329E-1    4.078201365303837E-3    3.060734336639222E-3   -4.503750336214604E-3    3.074290547643362E-3   -4.509906548215405E-3    9.969802877497314E-1    4.078287060638682E-3
 1.554031221273835E5     9.970330330785723E-1    4.042095547518357E-3    3.056549681068733E-3   -4.470363512298077E-3    3.067207188649460E-3   -4.478938758909325E-3    9.970067566411066E-1    4.028407189829603E-3
 1.565888266040779E5     9.970317381956111E-1    4.024088467026162E-3    3.054201476174872E-3   -4.436330723345686E-3    3.065927339430512E-3   -4.447561508137106E-3    9.969803333904432E-1    4.001194728730824E-3
 1.577835778430689E5     9.970259290787529E-1    3.988738235581177E-3    3.052280624804541E-3   -4.406967502176376E-3    3.064499419991791E-3   -4.415877324438157E-3    9.969812809595718E-1    3.967288446559276E-3
 1.589874448699104E5     9.970139919237213E-1    3.960856878892261E-3    3.050050483040118E-3   -4.374007471351063E-3    3.060687335829804E-3   -4.386720387221919E-3    9.969867926646050E-1    3.927628499830431E-3
 1.602004972368116E5     9.970464611469597E-1    3.911342700618242E-3    3.046859462145753E-3   -4.343885387191632E-3    3.059750744348076E-3   -4.355253045939484E-3    9.970434697245254E-1    3.900474260448998E-3
 1.614228050266550E5     9.970319560861669E-1    3.881729819260893E-3    3.043737145221079E-3   -4.317185231981635E-3    3.057021082020943E-3   -4.325449565702319E-3    9.970331279818988E-1    3.867867214387406E-3
 1.626544388570473E5     9.970477206755864E-1    3.846194139447650E-3    3.042480759651229E-3   -4.287502171516683E-3    3.053828997005055E-3   -4.292664188779852E-3    9.970060003683922E-1    3.835841572273363E-3
 1.638954698843964E5     9.970129429942081E-1    3.809858106224909E-3    3.039822648218280E-3   -4.254750234574819E-3    3.055108831980001E-3   -4.263317161067747E-3    9.970309783226913E-1    3.808624431649459E-3
 1.651459698080244E5     9.970376685953688E-1    3.777432109523627E-3    3.037732232250391E-3   -4.227397419906787E-3    3.051009742100841E-3   -4.234627429166802E-3    9.970167305848033E-1    3.767209918828530E-3
 1.664060108743095E5     9.970418770193326E-1    3.751973952599578E-3    3.035683687089724E-3   -4.195863432028733E-3    3.045309645889799E-3   -4.203784540227508E-3    9.970178382151346E-1    3.722724090557218E-3
 1.676756658808590E5     9.970390085787343E-1    3.693348466639005E-3    3.037432108822609E-3   -4.165892620568363E-3    3.040485732483849E-3   -4.171194142484978E-3    9.970289338726166E-1    3.708924220762947E-3
 1.689550081807175E5     9.970429514332564E-1    3.661306603638527E-3    3.030916672596542E-3   -4.138746270569677E-3    3.040817984069882E-3   -4.144195409268592E-3    9.970330487107394E-1    3.664046114039623E-3
 1.702441116866020E5     9.970280741705614E-1    3.635899690562283E-3    3.028778967154067E-3   -4.104693928607766E-3    3.037459488631925E-3   -4.113512705838427E-3    9.970452064330667E-1    3.644081592870321E-3
 1.715430508751738E5     9.970181101443431E-1    3.603010752203969E-3    3.027281591263940E-3   -4.078736194251426E-3    3.035774478092891E-3   -4.088716857164885E-3    9.970116413905555E-1    3.592122463182818E-3
 1.728519007913403E5     9.970555741063177E-1    3.571234266733780E-3    3.023905925300121E-3   -4.053398975424584E-3    3.035226900958292E-3   -4.059131732920749E-3    9.970213960674112E-1    3.575987168246422E-3
 1.741707370525927E5     9.970497041668266E-1    3.535191751440311E-3    3.023100702457582E-3   -4.024335926646214E-3    3.031928293375497E-3   -4.032482153434212E-3    9.970368510187417E-1    3.561960277586958E-3
 1.754996358533718E5     9.970499751586419E-1    3.521877321801758E-3    3.017125670892005E-3   -3.991890454688505E-3    3.026961265257944E-3   -3.999538588366172E-3    9.970070685702063E-1    3.512558926899740E-3
 1.768386739694722E5     9.970536680871761E-1    3.483369354752330E-3    3.015231152697403E-3   -3.966970007779905E-3    3.027143726722453E-3   -3.972516651969877E-3    9.970674477899769E-1    3.504017617458105E-3
 1.781879287624771E5     9.970311896245838E-1    3.457875934893273E-3    3.013504549172283E-3   -3.940673153713999E-3    3.021796876942517E-3   -3.945091239519933E-3    9.970658134318282E-1    3.463519459620533E-3
 1.795474781842276E5     9.970265113231683E-1    3.423528851005673E-3    3.010682719581971E-3   -3.909834880930908E-3    3.018691345939974E-3   -3.918296213869882E-3    9.970367466266258E-1    3.420318513499876E-3
 1.809174007813277E5     9.970716238622567E-1    3.381505517274236E-3    3.008567779227559E-3   -3.884591596028029E-3    3.016893757282841E-3   -3.892301216358839E-3    9.970182181565311E-1    3.389745399835635E-3
 1.822977756996804E5     9.970347661827474E-1    3.358153540488633E-3    3.000462784928718E-3   -3.858568460029439E-3    3.015165419027750E-3   -3.864168284871486E-3    9.970295528870301E-1    3.369806431692420E-3
 1.836886826890609E5     9.970595012559454E-1    3.342048225249670E-3    2.999529082152928E-3   -3.830500927236696E-3    3.009608158508478E-3   -3.836414150394401E-3    9.969853763960029E-1    3.323955280474970E-3
 1.850902021077247E5     9.970636753905708E-1    3.296757365373690E-3    2.998752802127225E-3   -3.803494775257438E-3    3.009454769056667E-3   -3.812992606047203E-3    9.970141529561226E-1    3.297324589165262E-3
 1.865024149270491E5     9.970351057047275E-1    3.265091411786684E-3    2.995909309804843E-3   -3.777033528354540E-3    3.006451959082507E-3   -3.783177802006987E-3    9.970259609414130E-1    3.282945306667854E-3
 1.879254027362132E5     9.970763032056107E-1    3.240960111593329E-3    2.995319574063070E-3   -3.747603365875055E-3    3.003499349682233E-3   -3.754144043838916E-3    9.970361527726196E-1    3.232412923933219E-3
 1.893592477469092E5     9.970918300644613E-1    3.205584852077311E-3    3.014462128788825E-3   -3.722062268817724E-3    2.993134896591438E-3   -3.740635845456970E-3    9.970712966678054E-1    3.178783472194321E-3
 1.908040327980933E5     9.970731986804812E-1    3.188238828287658E-3    2.984512203781023E-3   -3.696000721634105E-3    2.995355795692966E-3   -3.704819215647361E-3    9.970717563101148E-1    3.193232646152455E-3
 1.922598413607715E5     9.971131730489595E-1    3.154030850594114E-3    2.984316658551815E-3   -3.669974166713340E-3    2.994544568580284E-3   -3.679061603766927E-3    9.970821460279421E-1    3.152384512008738E-3
 1.937267575428232E5     9.970654481717625E-1    3.118785437514746E-3    2.980766824826148E-3   -3.645348627149162E-3    2.991091891512257E-3   -3.653679140162641E-3    9.970892570821784E-1    3.125804362721420E-3
 1.952048660938581E5     9.970899208707046E-1    3.095019161080643E-3    2.979360421685714E-3   -3.621266948071921E-3    2.988921735896645E-3   -3.626951408622473E-3    9.970775182550586E-1    3.083210480730909E-3
 1.966942524101142E5     9.970741247171790E-1    3.062484735603398E-3    2.977260490356268E-3   -3.594716286214806E-3    2.985654798747414E-3   -3.601326379127922E-3    9.970968917874943E-1    3.062432146255310E-3
 1.981950025393913E5     9.970647231550946E-1    3.051789180678195E-3    2.971198286117193E-3   -3.568855490121980E-3    2.980111904878524E-3   -3.578371026935777E-3    9.970827627669827E-1    3.031185672947788E-3
