#  HZ   S   RI   R     50.00 
! Rohde & Schwarz Vector Network Analyzer 
! Rohde-Schwarz,ZNLE6-2Port,1323001256200024,1.71.1.10-23.02.1.238
! Created: UTC 4/7/2025, 2:04:57 AM
! freq[Hz]                re:S11                  im:S11                  re:S21                  im:S21                  re:S12                  im:S12                  re:S22                  im:S22
 1.000000000000000E5     9.971690030791360E-1    6.349046393012718E-3    3.043553600948501E-3   -6.483690719302371E-3    3.055979300876630E-3   -6.498842307240195E-3    9.970600988437553E-1    6.198456499163874E-3
 1.007629862646662E5     9.971750640761272E-1    6.283446825590244E-3    3.045085658423955E-3   -6.437162965305114E-3    3.053502543245632E-3   -6.449866865104776E-3    9.970751539000583E-1    6.136759874123157E-3
 1.015317940097331E5     9.971538595104442E-1    6.239295192285456E-3    3.042219528931899E-3   -6.390678064293617E-3    3.051146943259367E-3   -6.404386279446336E-3    9.970517209733101E-1    6.092263916930560E-3
 1.023064676522963E5     9.971460733283446E-1    6.181934803332346E-3    3.043198002156117E-3   -6.347024456584428E-3    3.050321721785169E-3   -6.358434743590332E-3    9.970414014774135E-1    6.019963989352822E-3
 1.030870519483485E5     9.971361180949732E-1    6.119777826540701E-3    3.042048041148081E-3   -6.295544352206671E-3    3.047190065075013E-3   -6.314376434415592E-3    9.970231997276304E-1    5.991987978567098E-3
 1.038735919953636E5     9.971568801470579E-1    6.064891135995262E-3    3.038148743971825E-3   -6.256845256377699E-3    3.046216376151016E-3   -6.266415448178582E-3    9.970182094151538E-1    5.946815664633912E-3
 1.046661332349037E5     9.971157779498678E-1    6.012130509783940E-3    3.040781726694195E-3   -6.207875573555525E-3    3.042559628587093E-3   -6.220757237390383E-3    9.970106759028664E-1    5.894934029480913E-3
 1.054647214552430E5     9.970948082515578E-1    5.963138430358964E-3    3.033744998558487E-3   -6.165484383445587E-3    3.041390306194967E-3   -6.172448436061274E-3    9.970666046481963E-1    5.848118665919339E-3
 1.062694027940149E5     9.970922902212329E-1    5.910479171213563E-3    3.033839828766509E-3   -6.118447988649027E-3    3.045260592591366E-3   -6.129798987165271E-3    9.970663547587598E-1    5.818256263394902E-3
 1.070802237408760E5     9.971427707548013E-1    5.855912993140217E-3    3.029127188700177E-3   -6.075598642364738E-3    3.038044249546069E-3   -6.086714770710866E-3    9.970492624881766E-1    5.754763825947904E-3
 1.078972311401927E5     9.971266686732247E-1    5.817029623466694E-3    3.027974682410936E-3   -6.032891056664615E-3    3.036014042667502E-3   -6.043022411695348E-3    9.970450898467345E-1    5.707822436844845E-3
 1.087204721937475E5     9.971155838503004E-1    5.755763460651589E-3    3.031282445640371E-3   -5.987959881757723E-3    3.037623350650564E-3   -6.001749555400192E-3    9.970482381034339E-1    5.684329329538758E-3
 1.095499944634658E5     9.971436507031649E-1    5.700498145797558E-3    3.027983154617155E-3   -5.944012329836693E-3    3.034183159611759E-3   -5.956108320324892E-3    9.970032287463066E-1    5.607644733830477E-3
 1.103858458741646E5     9.971327604923826E-1    5.669098244157749E-3    3.023303678079778E-3   -5.901764716824373E-3    3.031361067744147E-3   -5.914176570793524E-3    9.970512682232372E-1    5.576958891342030E-3
 1.112280747163201E5     9.971104699382142E-1    5.619789516365354E-3    3.021939700670591E-3   -5.857364094160935E-3    3.029530379212313E-3   -5.871905131308886E-3    9.970599671131902E-1    5.532470658364505E-3
 1.120767296488583E5     9.971246284768951E-1    5.572406793889844E-3    3.017852285414545E-3   -5.817147067965918E-3    3.029361252947210E-3   -5.828899845707933E-3    9.970792117456770E-1    5.490452061147793E-3
 1.129318597019661E5     9.971162519070330E-1    5.518859921881337E-3    3.021280410351328E-3   -5.777567851725097E-3    3.028426715440547E-3   -5.785491200066071E-3    9.970328190679589E-1    5.426019656661927E-3
 1.137935142799240E5     9.971419898614544E-1    5.477754523308872E-3    3.017532517673117E-3   -5.733280056516045E-3    3.026293044736227E-3   -5.744792856090836E-3    9.970702265201333E-1    5.399547607218224E-3
 1.146617431639607E5     9.971181937598776E-1    5.426108834231608E-3    3.014067189304699E-3   -5.693773875965356E-3    3.027478022886340E-3   -5.702321913866736E-3    9.970661081290457E-1    5.354857759303693E-3
 1.155365965151286E5     9.971402624311818E-1    5.400519141828549E-3    3.014238435723124E-3   -5.653119572415780E-3    3.023167162038336E-3   -5.660665390545988E-3    9.970846093208617E-1    5.309593870064703E-3
 1.164181248772018E5     9.971124658100604E-1    5.345873782269624E-3    3.014081093971578E-3   -5.611129646724085E-3    3.022725149512931E-3   -5.621364618714790E-3    9.970472062645647E-1    5.262701744096394E-3
 1.173063791795965E5     9.971483727786150E-1    5.291707806479066E-3    3.010890494348528E-3   -5.572074526542447E-3    3.018444454265808E-3   -5.582953517082873E-3    9.970753743808104E-1    5.226847620474391E-3
 1.182014107403141E5     9.971793275705308E-1    5.267935372214683E-3    3.010860029060667E-3   -5.530006509510243E-3    3.017616952957155E-3   -5.538641835265897E-3    9.970578890282396E-1    5.177200020182195E-3
 1.191032712689044E5     9.971784314070592E-1    5.196802306024884E-3    3.005557099813884E-3   -5.491451405776374E-3    3.017723391781829E-3   -5.502823731545950E-3    9.970862676271813E-1    5.143601741463263E-3
 1.200120128694542E5     9.971702086671603E-1    5.169616843396054E-3    3.005691225819322E-3   -5.447921829565969E-3    3.014655681856311E-3   -5.460544851897749E-3    9.970445903123070E-1    5.101178431577669E-3
 1.209276880435975E5     9.971541368597626E-1    5.142105278029577E-3    3.001862924440738E-3   -5.412580809595709E-3    3.009247597435706E-3   -5.422896042495694E-3    9.970564257311382E-1    5.063907422488466E-3
 1.218503496935483E5     9.971826197638568E-1    5.102266583289909E-3    3.001550523769993E-3   -5.370498073628262E-3    3.009515529343362E-3   -5.384443043878703E-3    9.970481952574718E-1    5.026400638046055E-3
 1.227800511251578E5     9.971950702316897E-1    5.061757281806283E-3    3.003122936295339E-3   -5.336372849425786E-3    3.009470486050835E-3   -5.345260893106434E-3    9.970566339023768E-1    4.964331479669943E-3
 1.237168460509929E5     9.971533902656567E-1    5.011657001553011E-3    2.995929281077908E-3   -5.293932989675934E-3    3.005726288089250E-3   -5.307735870784277E-3    9.970546879391715E-1    4.936579023546450E-3
 1.246607885934402E5     9.971558778637171E-1    4.954503263763484E-3    2.995895112450565E-3   -5.260574525043195E-3    3.004649713299032E-3   -5.265673626826163E-3    9.970300057301167E-1    4.897079496547658E-3
 1.256119332878327E5     9.971937094729109E-1    4.939410608141048E-3    2.992512311733638E-3   -5.217681847567956E-3    2.999052510544392E-3   -5.228067381235654E-3    9.970605319043242E-1    4.846700561874411E-3
 1.265703350856002E5     9.971734658711033E-1    4.880433040428079E-3    2.993736596532624E-3   -5.180194912524602E-3    2.997928362398306E-3   -5.193316539446245E-3    9.971020629888215E-1    4.813294629333126E-3
 1.275360493574453E5     9.971564898253150E-1    4.827272515443865E-3    2.991261155662945E-3   -5.145459627635227E-3    2.997059098764101E-3   -5.155035976343553E-3    9.970957314287161E-1    4.787201901088749E-3
 1.285091318965405E5     9.971339677600179E-1    4.797806572067740E-3    2.984466983679836E-3   -5.111234383683413E-3    2.995241866496216E-3   -5.116839987834923E-3    9.970764113290866E-1    4.741482227041144E-3
 1.294896389217529E5     9.971452444877816E-1    4.742374013539361E-3    2.987785214389835E-3   -5.073478303714991E-3    2.993172053815594E-3   -5.080650015292431E-3    9.970914870527429E-1    4.707064056603933E-3
 1.304776270808914E5     9.971180675131391E-1    4.713257330188593E-3    2.985395950642057E-3   -5.036037592293910E-3    2.991274086768896E-3   -5.044268445154289E-3    9.970888605918894E-1    4.683659828049982E-3
 1.314731534539810E5     9.971280909530365E-1    4.657418039470199E-3    2.984159906794850E-3   -5.000075984601040E-3    2.991463619041669E-3   -5.012182744447623E-3    9.970653248899680E-1    4.631931130905424E-3
 1.324762755565583E5     9.971504417207031E-1    4.601985263580080E-3    2.981096522318731E-3   -4.963084859352569E-3    2.989203400389133E-3   -4.974926907027578E-3    9.970842965822471E-1    4.603715697551350E-3
 1.334870513429962E5     9.971074680086169E-1    4.589021035288480E-3    2.978828017591704E-3   -4.929606142221646E-3    2.986385997001051E-3   -4.937251056173123E-3    9.971047842813510E-1    4.566150262776839E-3
 1.345055392098512E5     9.971227407550414E-1    4.547515651279042E-3    2.979019614763611E-3   -4.894307825920606E-3    2.986440030036877E-3   -4.904718952699658E-3    9.971033150738119E-1    4.517693815689442E-3
 1.355317979992373E5     9.971417869676772E-1    4.522771741140486E-3    2.977573172830750E-3   -4.858752221346135E-3    2.982914877319591E-3   -4.867660666522515E-3    9.970858559491793E-1    4.499710427380771E-3
 1.365658870022265E5     9.971113540082932E-1    4.463901222852185E-3    2.970461136554713E-3   -4.826068934149506E-3    2.980546749065378E-3   -4.832657465980302E-3    9.970799532774407E-1    4.449001801320205E-3
 1.376078659622731E5     9.971588376159876E-1    4.435169007158370E-3    2.969281693369977E-3   -4.791094793560415E-3    2.982389426340624E-3   -4.803057780232536E-3    9.970821226044198E-1    4.406704519600513E-3
 1.386577950786655E5     9.971560653274993E-1    4.413145861728977E-3    2.967544455220211E-3   -4.757862598672601E-3    2.976134627770859E-3   -4.765406990902555E-3    9.970656993504170E-1    4.375320432870394E-3
 1.397157350100044E5     9.971715279425505E-1    4.355770073526795E-3    2.966069386622451E-3   -4.722460393916821E-3    2.975732603368488E-3   -4.731807445883291E-3    9.970966919240061E-1    4.332407181893269E-3
 1.407817468777081E5     9.971963143054455E-1    4.334236639136967E-3    2.968239673930189E-3   -4.691176257526051E-3    2.971501900266884E-3   -4.700663515479135E-3    9.971296283636947E-1    4.302135943295220E-3
 1.418558922695422E5     9.971773022781558E-1    4.291258682549670E-3    2.960473700838381E-3   -4.655317014521311E-3    2.971762482129032E-3   -4.664205531820783E-3    9.971707226514657E-1    4.265372817262502E-3
 1.429382332431784E5     9.971826398758736E-1    4.260840010375833E-3    2.961336434663509E-3   -4.620665798336039E-3    2.967561461139803E-3   -4.632163615641146E-3    9.971504187134245E-1    4.228744336124268E-3
 1.440288323297804E5     9.971949588185455E-1    4.239307495819342E-3    2.954767398137314E-3   -4.588749920136676E-3    2.965079427920444E-3   -4.600166254044075E-3    9.971488706069412E-1    4.200194458458114E-3
 1.451277525376154E5     9.971620589280412E-1    4.183468909069871E-3    2.955455646740003E-3   -4.557026145324173E-3    2.962911393740845E-3   -4.567465439874210E-3    9.971702355059314E-1    4.173468913168865E-3
 1.462350573556962E5     9.971465129566284E-1    4.151590998860881E-3    2.952206570804740E-3   -4.526654267814210E-3    2.964739307884081E-3   -4.533600191927740E-3    9.971464923915142E-1    4.127432818150834E-3
 1.473508107574468E5     9.971648025833557E-1    4.118269603361901E-3    2.952536647995211E-3   -4.492722552443803E-3    2.958874487209878E-3   -4.502154803786080E-3    9.971480571640523E-1    4.088563808362171E-3
 1.484750772044004E5     9.971498377234980E-1    4.069867940268678E-3    2.949675001708514E-3   -4.458456455546819E-3    2.958400766096675E-3   -4.469422450556277E-3    9.971184436512508E-1    4.049092707949605E-3
 1.496079216499225E5     9.971389495366986E-1    4.042446696224423E-3    2.951695267135173E-3   -4.431270200670065E-3    2.955378221368169E-3   -4.437674420322963E-3    9.971386323203787E-1    4.031444597061202E-3
 1.507494095429637E5     9.971490867200389E-1    4.006802123390828E-3    2.945314289554740E-3   -4.398746647860646E-3    2.952185002353047E-3   -4.405055468073688E-3    9.971335872514465E-1    3.988940099306121E-3
 1.518996068318418E5     9.971737263111613E-1    3.976886819067192E-3    2.943068982846604E-3   -4.367528888991878E-3    2.950448067086461E-3   -4.370897796606689E-3    9.971709007723373E-1    3.954671373070132E-3
 1.530585799680507E5     9.971527657672499E-1    3.947952999035656E-3    2.938512210030798E-3   -4.337514951730989E-3    2.950562875870474E-3   -4.345396060237284E-3    9.971538570865126E-1    3.920244519153079E-3
 1.542263959101001E5     9.971608231889671E-1    3.895264904747794E-3    2.938757786823500E-3   -4.305208763773666E-3    2.947976513776198E-3   -4.315292224148905E-3    9.971460423828531E-1    3.904695587799475E-3
 1.554031221273835E5     9.971743035288924E-1    3.875121880830318E-3    2.937068259823063E-3   -4.273435800735755E-3    2.943654942710243E-3   -4.283234192894701E-3    9.971469257764385E-1    3.850506220950174E-3
 1.565888266040779E5     9.971869922309653E-1    3.860586429684199E-3    2.935534918182140E-3   -4.243984576173643E-3    2.940878607952369E-3   -4.251060208579789E-3    9.971665837496760E-1    3.814337523291002E-3
 1.577835778430689E5     9.972111915916333E-1    3.817599116228474E-3    2.930712594231337E-3   -4.216603518798412E-3    2.939963242287053E-3   -4.221281004185904E-3    9.971457564810138E-1    3.788914894451005E-3
 1.589874448699104E5     9.971994056094894E-1    3.811108053987518E-3    2.927897920573890E-3   -4.187535647638636E-3    2.938411994053789E-3   -4.195157598042763E-3    9.971779662220859E-1    3.741671812697490E-3
 1.602004972368116E5     9.972414144470966E-1    3.759005859547655E-3    2.927180630111612E-3   -4.155757502730888E-3    2.933384124133404E-3   -4.163843786591695E-3    9.972307363589513E-1    3.718541692973221E-3
 1.614228050266550E5     9.972312527019233E-1    3.715796994152257E-3    2.925911115210449E-3   -4.126970140251986E-3    2.931954625476655E-3   -4.133728978498476E-3    9.972146901338225E-1    3.675237299366392E-3
 1.626544388570473E5     9.972192725149875E-1    3.677125742240552E-3    2.918861376197079E-3   -4.096619834700201E-3    2.929811476028728E-3   -4.105576557456666E-3    9.972120845565694E-1    3.652050283012661E-3
 1.638954698843964E5     9.972303463013955E-1    3.660905496322591E-3    2.917491486034598E-3   -4.067364138541261E-3    2.930105375570679E-3   -4.075050129926147E-3    9.971766344713436E-1    3.617942273341187E-3
 1.651459698080244E5     9.972269460362563E-1    3.620820447596030E-3    2.918134960518451E-3   -4.039810257708763E-3    2.925384705338019E-3   -4.048118137645548E-3    9.971621307990199E-1    3.583056940948333E-3
 1.664060108743095E5     9.972109831043980E-1    3.593706577269206E-3    2.914483763405585E-3   -4.011783922559966E-3    2.926117191548771E-3   -4.018939115620106E-3    9.971811557157773E-1    3.549060847255539E-3
 1.676756658808590E5     9.972201818163552E-1    3.548021522437731E-3    2.912876240726812E-3   -3.982201181555118E-3    2.921562878287337E-3   -3.990525466710641E-3    9.972010180363214E-1    3.528248162909793E-3
 1.689550081807175E5     9.972103610813909E-1    3.508843162321122E-3    2.911957176281215E-3   -3.952479906634975E-3    2.917996241515634E-3   -3.962749114052809E-3    9.971739918078154E-1    3.478386974631816E-3
 1.702441116866020E5     9.972193847861964E-1    3.491614749217064E-3    2.908327966292537E-3   -3.924558312702190E-3    2.917786292862349E-3   -3.931398630872207E-3    9.972003325218690E-1    3.477262354321438E-3
 1.715430508751738E5     9.972262640052717E-1    3.454856133022393E-3    2.902941139907932E-3   -3.900440071398668E-3    2.917253104600025E-3   -3.904833003747203E-3    9.972130944123392E-1    3.447556817779498E-3
 1.728519007913403E5     9.972539517975317E-1    3.435295650147783E-3    2.902958983904845E-3   -3.871119562073958E-3    2.913390201949480E-3   -3.881616147273365E-3    9.972152803776395E-1    3.404027357698406E-3
 1.741707370525927E5     9.972639377347582E-1    3.404915717290216E-3    2.900047702560199E-3   -3.844833938930218E-3    2.912664689995940E-3   -3.850758643741798E-3    9.972147155908740E-1    3.379639638420664E-3
 1.754996358533718E5     9.972829364168069E-1    3.373268875439561E-3    2.894078934378979E-3   -3.817547951655920E-3    2.908663690821130E-3   -3.823054831740939E-3    9.972170157768021E-1    3.341127710123950E-3
 1.768386739694722E5     9.972592821096927E-1    3.337744515449514E-3    2.897085897821611E-3   -3.788631188587496E-3    2.903139709450203E-3   -3.797719608923617E-3    9.972763609498143E-1    3.323565033381346E-3
 1.781879287624771E5     9.972371618864084E-1    3.297907321558024E-3    2.892310221103335E-3   -3.766286955370076E-3    2.902799283190880E-3   -3.774541722176757E-3    9.972694400550123E-1    3.289438110797932E-3
 1.795474781842276E5     9.972101065810112E-1    3.266599473224652E-3    2.891298487955206E-3   -3.736410376311214E-3    2.895887505119264E-3   -3.743968238887629E-3    9.972531762290074E-1    3.261698758348683E-3
 1.809174007813277E5     9.972425220046842E-1    3.230785984569463E-3    2.888095133019154E-3   -3.711631600577689E-3    2.898146194770895E-3   -3.720453085747401E-3    9.972490075848418E-1    3.246203271717064E-3
 1.822977756996804E5     9.972400464404290E-1    3.208957053316182E-3    2.884008948545065E-3   -3.684805972247938E-3    2.891168992581753E-3   -3.693242371013202E-3    9.972544297337010E-1    3.213994646847453E-3
 1.836886826890609E5     9.972322067371018E-1    3.180798223158931E-3    2.883176959543942E-3   -3.659113051890133E-3    2.888776063173388E-3   -3.668229099625243E-3    9.972474500859281E-1    3.172453331485360E-3
 1.850902021077247E5     9.972728599884597E-1    3.154956883376759E-3    2.881893892681528E-3   -3.631078458376051E-3    2.885045239369139E-3   -3.639073166562439E-3    9.972464171929608E-1    3.147442180677483E-3
 1.865024149270491E5     9.972625650168380E-1    3.132487085881389E-3    2.875391038353816E-3   -3.609057045296449E-3    2.882258238283775E-3   -3.616534364151201E-3    9.972523654213700E-1    3.133921607730796E-3
 1.879254027362132E5     9.972804150070963E-1    3.099030973781911E-3    2.873683075854113E-3   -3.581333366718259E-3    2.882665795522153E-3   -3.591762216822975E-3    9.972275937802948E-1    3.078649382849318E-3
 1.893592477469092E5     9.973107732673200E-1    3.036288691427276E-3    2.881947802283631E-3   -3.573970741078896E-3    2.894400121279501E-3   -3.566696867062297E-3    9.972657032823465E-1    3.073682862024981E-3
 1.908040327980933E5     9.972795254515251E-1    3.045480278422512E-3    2.867318634926618E-3   -3.530394349909257E-3    2.878404745371587E-3   -3.542423328001192E-3    9.972848386383307E-1    3.034591918382137E-3
 1.922598413607715E5     9.972911626224772E-1    3.003925747969475E-3    2.863054073238636E-3   -3.509814584923512E-3    2.874268626892355E-3   -3.511512512516863E-3    9.972558355929674E-1    2.988517201015634E-3
 1.937267575428232E5     9.972964419982304E-1    2.982505578805453E-3    2.863647482051403E-3   -3.480672359967185E-3    2.872414552953242E-3   -3.488802466692123E-3    9.972715559119307E-1    2.968298107559342E-3
 1.952048660938581E5     9.972941681932034E-1    2.961787705712132E-3    2.860497058647405E-3   -3.460755485319683E-3    2.868447018314577E-3   -3.464531721993031E-3    9.972740807310033E-1    2.922026060828427E-3
 1.966942524101142E5     9.972976165941806E-1    2.922170632309944E-3    2.858074356813149E-3   -3.431712333063247E-3    2.863016334882203E-3   -3.438474477756563E-3    9.972533572255001E-1    2.913428413114189E-3
 1.981950025393913E5     9.972955194045870E-1    2.904907618753467E-3    2.852871616074051E-3   -3.408948946692428E-3    2.862624912660453E-3   -3.417195090437518E-3    9.972472181242398E-1    2.883361224158408E-3
