#  HZ   S   RI   R     50.00 
! Rohde & Schwarz Vector Network Analyzer 
! Rohde-Schwarz,ZNLE6-2Port,1323001256200024,1.71.1.10-23.02.1.238
! Created: UTC 4/7/2025, 1:38:45 AM
! freq[Hz]                re:S11                  im:S11                  re:S21                  im:S21                  re:S12                  im:S12                  re:S22                  im:S22
 1.000000000000000E5     9.972179004558315E-1    6.048631862970597E-3    2.932987898843105E-3   -6.164380255760820E-3    2.941395290371153E-3   -6.176281316065064E-3    9.971663571512499E-1    5.889024206970294E-3
 1.007629862646662E5     9.972627177119135E-1    5.978067647969777E-3    2.932540406898507E-3   -6.120520367579151E-3    2.939353419875337E-3   -6.131369788732585E-3    9.971478205013585E-1    5.833020587503740E-3
 1.015317940097331E5     9.972231014562014E-1    5.916585207128074E-3    2.931084376490458E-3   -6.074919845018255E-3    2.935234455250832E-3   -6.089416061245804E-3    9.971551910113940E-1    5.782030056614782E-3
 1.023064676522963E5     9.972450231089133E-1    5.878610710198004E-3    2.928611590819870E-3   -6.033766435531791E-3    2.934422238240413E-3   -6.047145899024491E-3    9.971736849323424E-1    5.733196652058827E-3
 1.030870519483485E5     9.972190258738372E-1    5.806941386401866E-3    2.926944531164042E-3   -5.985912478685929E-3    2.932190810603535E-3   -6.000924603928410E-3    9.971666639069638E-1    5.684137907180359E-3
 1.038735919953636E5     9.972205853843787E-1    5.751021320634097E-3    2.923398902516652E-3   -5.942167853168946E-3    2.934890037820710E-3   -5.957831148446306E-3    9.971704016369796E-1    5.663550764097383E-3
 1.046661332349037E5     9.972129452634787E-1    5.701485987957018E-3    2.922513511604700E-3   -5.903417748086422E-3    2.934543159192983E-3   -5.911305970981315E-3    9.971728157668361E-1    5.615190737221222E-3
 1.054647214552430E5     9.971772671191154E-1    5.637576948848547E-3    2.921483027489586E-3   -5.853114167659199E-3    2.930553166206697E-3   -5.870370387678030E-3    9.971907621908345E-1    5.557971093802155E-3
 1.062694027940149E5     9.971924726693302E-1    5.608026463972826E-3    2.916472385985782E-3   -5.817167737074082E-3    2.927085769897884E-3   -5.828359788287336E-3    9.971976611191952E-1    5.522402337671764E-3
 1.070802237408760E5     9.972042588045891E-1    5.558539965690061E-3    2.918888267242114E-3   -5.775811274887559E-3    2.928656406394520E-3   -5.782746273059745E-3    9.971903189317729E-1    5.476546824839982E-3
 1.078972311401927E5     9.972223630406601E-1    5.518818748771300E-3    2.913921674041135E-3   -5.734522777297510E-3    2.926733144992625E-3   -5.743041569121045E-3    9.971725002051293E-1    5.423125844580919E-3
 1.087204721937475E5     9.971877364456135E-1    5.469219647469929E-3    2.916971030564746E-3   -5.691621911611086E-3    2.920330201951357E-3   -5.698352128749418E-3    9.971887394247179E-1    5.395115592706490E-3
 1.095499944634658E5     9.971927314784305E-1    5.392237894311808E-3    2.912863208435553E-3   -5.652616373561607E-3    2.922697182833989E-3   -5.659705296198168E-3    9.971106097318185E-1    5.332500920103634E-3
 1.103858458741646E5     9.972183743730831E-1    5.370156965344979E-3    2.911921637847263E-3   -5.609222396193969E-3    2.920220019996835E-3   -5.614027359889426E-3    9.971809302312469E-1    5.308907124029283E-3
 1.112280747163201E5     9.971915873104494E-1    5.321729207883943E-3    2.907691654234843E-3   -5.567830589642059E-3    2.918065466258117E-3   -5.579689070116719E-3    9.972008195906475E-1    5.267437851708668E-3
 1.120767296488583E5     9.971937242538613E-1    5.274258857044856E-3    2.903107487103783E-3   -5.527033356082818E-3    2.916089347938249E-3   -5.539470197092305E-3    9.971606015750529E-1    5.209220875252658E-3
 1.129318597019661E5     9.971967078898388E-1    5.228869425156396E-3    2.905959305031493E-3   -5.487781567738016E-3    2.914720063577889E-3   -5.496298122351972E-3    9.971656263463899E-1    5.144135204728407E-3
 1.137935142799240E5     9.972367781157553E-1    5.192116817621678E-3    2.900681768229339E-3   -5.449315461270514E-3    2.910700596598517E-3   -5.456245746133248E-3    9.971678698116759E-1    5.133336888220288E-3
 1.146617431639607E5     9.972199343265722E-1    5.144165772787514E-3    2.899534751502566E-3   -5.409878107882639E-3    2.912191919898855E-3   -5.419550904500477E-3    9.971674085130700E-1    5.092654418637808E-3
 1.155365965151286E5     9.972187103898696E-1    5.122215169562730E-3    2.902112792332386E-3   -5.371339096545407E-3    2.913697410141635E-3   -5.380690085618775E-3    9.971955552245894E-1    5.052460529494018E-3
 1.164181248772018E5     9.972117388492144E-1    5.063640441366220E-3    2.898025723207292E-3   -5.331686544956670E-3    2.911533009756556E-3   -5.337819302994746E-3    9.971851049336080E-1    5.009081177981079E-3
 1.173063791795965E5     9.972058383439872E-1    5.020239970914487E-3    2.896181596229760E-3   -5.294717672120348E-3    2.904523887432079E-3   -5.298731805793335E-3    9.971708016743170E-1    4.967774270223563E-3
 1.182014107403141E5     9.971982859287760E-1    4.994076079443487E-3    2.895735497417121E-3   -5.256084634480636E-3    2.904248238409265E-3   -5.263741930849469E-3    9.971778043393863E-1    4.912625968350377E-3
 1.191032712689044E5     9.972185642401007E-1    4.917955724689183E-3    2.893310454637697E-3   -5.216542307929548E-3    2.902474054786324E-3   -5.224865131875401E-3    9.971938789329915E-1    4.885280605105431E-3
 1.200120128694542E5     9.971884743150456E-1    4.895965206080091E-3    2.892450952787384E-3   -5.183624243326149E-3    2.903303216833100E-3   -5.186908680535710E-3    9.971884926882154E-1    4.838809857450482E-3
 1.209276880435975E5     9.971932030349858E-1    4.865911040799642E-3    2.890312092394478E-3   -5.146394477011997E-3    2.898432718975391E-3   -5.148218909752203E-3    9.971986791500342E-1    4.803228713091735E-3
 1.218503496935483E5     9.972332355406427E-1    4.842948538761802E-3    2.892907430354333E-3   -5.107157999969978E-3    2.897434348196369E-3   -5.116996830779777E-3    9.972104856886300E-1    4.776324709786709E-3
 1.227800511251578E5     9.972497812168700E-1    4.789505782092121E-3    2.888016220785781E-3   -5.070222438981732E-3    2.896703207645257E-3   -5.074694276202151E-3    9.972027698582669E-1    4.718827027307478E-3
 1.237168460509929E5     9.972216552473574E-1    4.739129419602413E-3    2.885196199434718E-3   -5.034583214044343E-3    2.896249977836654E-3   -5.040387163824151E-3    9.972453512590645E-1    4.687570803297587E-3
 1.246607885934402E5     9.971944463845236E-1    4.703486970515979E-3    2.882773869132072E-3   -4.996903219401865E-3    2.891025507419003E-3   -5.000943442791093E-3    9.972067671088611E-1    4.657617124042411E-3
 1.256119332878327E5     9.972117245976477E-1    4.674841493583277E-3    2.878728344966070E-3   -4.958907725758993E-3    2.892603921223681E-3   -4.968588944869561E-3    9.971869337258477E-1    4.596964239249591E-3
 1.265703350856002E5     9.972002516818397E-1    4.616629211307490E-3    2.879179260565463E-3   -4.921400885544481E-3    2.887781073785178E-3   -4.933183327370238E-3    9.972198831249258E-1    4.550361989372829E-3
 1.275360493574453E5     9.971955807261842E-1    4.550338426307092E-3    2.875597824916222E-3   -4.890839990518986E-3    2.889252393340241E-3   -4.893713299712956E-3    9.971998441692862E-1    4.533925850573203E-3
 1.285091318965405E5     9.972025625637401E-1    4.527858181830360E-3    2.874103833995107E-3   -4.850365136561860E-3    2.887131814326376E-3   -4.862955183946805E-3    9.972212891450259E-1    4.497673965363682E-3
 1.294896389217529E5     9.971883674985561E-1    4.485301491785297E-3    2.873353833106966E-3   -4.821541503062458E-3    2.885083972419214E-3   -4.823105585190308E-3    9.972275982508684E-1    4.470922701415345E-3
 1.304776270808914E5     9.971736907784737E-1    4.453292934453321E-3    2.875136881097702E-3   -4.783906801678511E-3    2.880181711202329E-3   -4.790778067582501E-3    9.972318989386074E-1    4.435202290706433E-3
 1.314731534539810E5     9.971752589223514E-1    4.408603447019280E-3    2.867237015729078E-3   -4.750680429700748E-3    2.877994407794798E-3   -4.757090114488553E-3    9.972125415610544E-1    4.377972919226455E-3
 1.324762755565583E5     9.971958643936827E-1    4.373332344696886E-3    2.867896377458600E-3   -4.714679618912292E-3    2.877537903446221E-3   -4.721805476744993E-3    9.972416073132090E-1    4.354245788934852E-3
 1.334870513429962E5     9.971763899316193E-1    4.343607634665740E-3    2.864538801303426E-3   -4.682969200388754E-3    2.877398658556403E-3   -4.689080142356098E-3    9.972235123983081E-1    4.335233779316887E-3
 1.345055392098512E5     9.971979837092376E-1    4.308083613938848E-3    2.863418948836631E-3   -4.647282164123624E-3    2.872339947836880E-3   -4.653538724552932E-3    9.972306054963399E-1    4.284301094953936E-3
 1.355317979992373E5     9.972158227980066E-1    4.273084574038645E-3    2.863826157919503E-3   -4.614308808560164E-3    2.874270094111285E-3   -4.620102074534994E-3    9.972340709364286E-1    4.263198449087163E-3
 1.365658870022265E5     9.972026363149531E-1    4.235206773373125E-3    2.861273335366391E-3   -4.585572005552647E-3    2.869163500518169E-3   -4.590491982642989E-3    9.972298547692438E-1    4.221605716616975E-3
 1.376078659622731E5     9.972320449003402E-1    4.205214857371548E-3    2.860642769585615E-3   -4.548996716539214E-3    2.869040787271594E-3   -4.559509059463751E-3    9.972275807118383E-1    4.178639904783401E-3
 1.386577950786655E5     9.972368114997069E-1    4.168980749789836E-3    2.856186579548315E-3   -4.519382119057859E-3    2.866247400997493E-3   -4.523775916946273E-3    9.972377002813140E-1    4.149247538668589E-3
 1.397157350100044E5     9.972348840419937E-1    4.133075048612039E-3    2.855738859690574E-3   -4.484970119991908E-3    2.862869153000222E-3   -4.489233121954113E-3    9.972508124692439E-1    4.112467100380767E-3
 1.407817468777081E5     9.972642897868742E-1    4.090810322887550E-3    2.852287483031007E-3   -4.453196344760917E-3    2.862111902565706E-3   -4.459938667452962E-3    9.972483857081000E-1    4.072429415795159E-3
 1.418558922695422E5     9.972477981496497E-1    4.072431501488774E-3    2.851920103375925E-3   -4.421586416288552E-3    2.861034062039713E-3   -4.428570095067030E-3    9.972757007066737E-1    4.040920317381096E-3
 1.429382332431784E5     9.972316543548172E-1    4.030160870300995E-3    2.846167727424089E-3   -4.388474014498572E-3    2.859311228234095E-3   -4.394101582390264E-3    9.972631162214489E-1    4.008273521418186E-3
 1.440288323297804E5     9.972155298454997E-1    4.020353882604639E-3    2.844557929958440E-3   -4.361711000034778E-3    2.855356502972273E-3   -4.363471223636256E-3    9.972534740051440E-1    3.975659560745051E-3
 1.451277525376154E5     9.971803669224477E-1    3.953803341240315E-3    2.843044749949129E-3   -4.325983549152102E-3    2.853271388483972E-3   -4.336018241729064E-3    9.972797338243825E-1    3.944033957237526E-3
 1.462350573556962E5     9.971911533160559E-1    3.930092482895182E-3    2.841519499954071E-3   -4.296047295943336E-3    2.849595698839006E-3   -4.302109254565332E-3    9.972701578884641E-1    3.906073049618727E-3
 1.473508107574468E5     9.972226070690222E-1    3.897227725523486E-3    2.838098157195470E-3   -4.266059661031529E-3    2.849017669832683E-3   -4.268833251255487E-3    9.972644411324888E-1    3.878462356400965E-3
 1.484750772044004E5     9.972257621386010E-1    3.843319252560618E-3    2.838262935984446E-3   -4.234558456824277E-3    2.848315605421581E-3   -4.242390932227595E-3    9.972626942374678E-1    3.850803560816817E-3
 1.496079216499225E5     9.972332600317743E-1    3.822995323281207E-3    2.834902289949872E-3   -4.201963387507690E-3    2.843812700942881E-3   -4.210224903797122E-3    9.972489495340079E-1    3.812203186761589E-3
 1.507494095429637E5     9.972380630529324E-1    3.788651466402704E-3    2.834583599858119E-3   -4.175716414833341E-3    2.844897487902715E-3   -4.184933503287289E-3    9.972456496426325E-1    3.772668827354913E-3
 1.518996068318418E5     9.972557541693011E-1    3.763223623976139E-3    2.831416232083855E-3   -4.147647196074807E-3    2.837544645589385E-3   -4.153392262514886E-3    9.972602182110215E-1    3.731961805154903E-3
 1.530585799680507E5     9.972392796902149E-1    3.723525085708894E-3    2.829123733699675E-3   -4.119172985135490E-3    2.839757075572259E-3   -4.123394783196916E-3    9.972354023791452E-1    3.703875412558229E-3
 1.542263959101001E5     9.972111645184758E-1    3.667539467610662E-3    2.827915730238750E-3   -4.087171829048808E-3    2.836439036451988E-3   -4.095531454830461E-3    9.972654519168359E-1    3.687257119332139E-3
 1.554031221273835E5     9.972493003347923E-1    3.658784731636161E-3    2.825701044707272E-3   -4.061369761185443E-3    2.831680752040441E-3   -4.065685335791129E-3    9.972290311230592E-1    3.641171862787423E-3
 1.565888266040779E5     9.972463112451095E-1    3.632937673829222E-3    2.819612151179038E-3   -4.026643176238734E-3    2.833403364499481E-3   -4.034973456208141E-3    9.972503445493277E-1    3.618603454398624E-3
 1.577835778430689E5     9.972857550090576E-1    3.589539628359174E-3    2.819319263546780E-3   -3.998543969956625E-3    2.828760991536464E-3   -4.006343401244467E-3    9.972325615860466E-1    3.580052403563448E-3
 1.589874448699104E5     9.972619122938080E-1    3.578582865399595E-3    2.820021157845745E-3   -3.969524172207148E-3    2.830149944735190E-3   -3.980434261239439E-3    9.972708700937811E-1    3.531537730422809E-3
 1.602004972368116E5     9.972734940238561E-1    3.546140717692001E-3    2.813923938998339E-3   -3.947503611200486E-3    2.826144916192328E-3   -3.948715232467385E-3    9.972923202909530E-1    3.490642660943699E-3
 1.614228050266550E5     9.972474112612654E-1    3.504903041889499E-3    2.811340418871662E-3   -3.918548337573639E-3    2.822671124361795E-3   -3.923488096613113E-3    9.973089169648071E-1    3.479146710938303E-3
 1.626544388570473E5     9.972606959506359E-1    3.467228602309375E-3    2.810046803582256E-3   -3.885582524848357E-3    2.820420290634661E-3   -3.895090986949013E-3    9.972883015179200E-1    3.433650588106721E-3
 1.638954698843964E5     9.972846983096617E-1    3.450289439195699E-3    2.811653301545391E-3   -3.860466577114230E-3    2.818218042869882E-3   -3.868789789602135E-3    9.973163395454973E-1    3.403623021912252E-3
 1.651459698080244E5     9.972612622121715E-1    3.411914482714386E-3    2.805540203354195E-3   -3.830381333321448E-3    2.817982947686581E-3   -3.839233357481571E-3    9.973033610257139E-1    3.388117948681209E-3
 1.664060108743095E5     9.972864147881226E-1    3.372144177911722E-3    2.803111205914352E-3   -3.805718776779825E-3    2.811730327278805E-3   -3.812338315688652E-3    9.973249202093598E-1    3.348046490186121E-3
 1.676756658808590E5     9.972989042430926E-1    3.336372287196296E-3    2.802983838190436E-3   -3.778299997872039E-3    2.809506344591831E-3   -3.787747897141107E-3    9.973120857341491E-1    3.331952880049169E-3
 1.689550081807175E5     9.972859534271913E-1    3.299365139674798E-3    2.796732431668211E-3   -3.750805398872045E-3    2.808801145408614E-3   -3.755398001103459E-3    9.973038909072850E-1    3.295320257168773E-3
 1.702441116866020E5     9.972872966383399E-1    3.287539506749457E-3    2.797604031963380E-3   -3.724405448045649E-3    2.805798713779653E-3   -3.732372513237558E-3    9.973350671443035E-1    3.287639178982217E-3
 1.715430508751738E5     9.972750194440956E-1    3.253333755480112E-3    2.796112788837245E-3   -3.700961448514620E-3    2.802779179159771E-3   -3.702957139935780E-3    9.973235164543661E-1    3.244388364648303E-3
 1.728519007913403E5     9.972759968964611E-1    3.229254123488373E-3    2.792863505334774E-3   -3.671486692029604E-3    2.800753368507686E-3   -3.678654584411164E-3    9.973410432806058E-1    3.215438413855542E-3
 1.741707370525927E5     9.972836578250180E-1    3.198504736094659E-3    2.789476511434496E-3   -3.646114792434606E-3    2.798660942148558E-3   -3.650434050398141E-3    9.973352597946049E-1    3.192571594569172E-3
 1.754996358533718E5     9.972809413786822E-1    3.151914647576811E-3    2.786172101922469E-3   -3.620498028237181E-3    2.797382792367205E-3   -3.627428451362183E-3    9.972869934471581E-1    3.143488806284044E-3
 1.768386739694722E5     9.972561303602621E-1    3.126243070834935E-3    2.782549516356931E-3   -3.594753174898822E-3    2.796320401566383E-3   -3.599185038244777E-3    9.973545595020203E-1    3.146768901119195E-3
 1.781879287624771E5     9.972530121855668E-1    3.095499626524425E-3    2.783516346281691E-3   -3.567403447750506E-3    2.790507128530581E-3   -3.575537481715620E-3    9.973652748601181E-1    3.114712406034355E-3
 1.795474781842276E5     9.972458175952343E-1    3.076227995529995E-3    2.780743001048377E-3   -3.543465280325052E-3    2.788281115003625E-3   -3.550466496000166E-3    9.973123399847159E-1    3.078025276145897E-3
 1.809174007813277E5     9.972632591229774E-1    3.025207365051787E-3    2.775004429428027E-3   -3.519646624365961E-3    2.786699364539715E-3   -3.526559358998251E-3    9.973226192449925E-1    3.053573452723689E-3
 1.822977756996804E5     9.972845474307982E-1    3.002939861625493E-3    2.775838391300402E-3   -3.496549132143537E-3    2.781824507644942E-3   -3.500255892754909E-3    9.973181266697673E-1    3.024318423698940E-3
 1.836886826890609E5     9.972975869432384E-1    2.983583617420290E-3    2.772447863252430E-3   -3.469227784772964E-3    2.783601763974809E-3   -3.477596361546853E-3    9.973059771383367E-1    2.992857370324967E-3
 1.850902021077247E5     9.972829026044774E-1    2.956711411849793E-3    2.769591673980822E-3   -3.445113491760591E-3    2.777339558948767E-3   -3.448604321874018E-3    9.973198037625224E-1    2.972514632697732E-3
 1.865024149270491E5     9.972995734250080E-1    2.925439255768010E-3    2.766503608548391E-3   -3.419892448012570E-3    2.775320785220443E-3   -3.424456274394981E-3    9.973468363709638E-1    2.938091961514718E-3
 1.879254027362132E5     9.972828216968898E-1    2.896853337286817E-3    2.761871277932476E-3   -3.397207069725666E-3    2.770322050398499E-3   -3.399266441628944E-3    9.973529478566454E-1    2.902240434575141E-3
 1.893592477469092E5     9.972906504754300E-1    2.840730534569108E-3    2.767539882657455E-3   -3.356887474836165E-3    2.786590878754325E-3   -3.369991297804301E-3    9.973672410812334E-1    2.904341747498056E-3
 1.908040327980933E5     9.972744768581856E-1    2.851057557784790E-3    2.757344460656322E-3   -3.347493432231644E-3    2.770506196994117E-3   -3.353735768836212E-3    9.973477981890780E-1    2.841776015748984E-3
 1.922598413607715E5     9.972624523534290E-1    2.795274378690234E-3    2.753873730539216E-3   -3.325705445014075E-3    2.765182809337430E-3   -3.328633302462191E-3    9.973643698589627E-1    2.818960175802731E-3
 1.937267575428232E5     9.972956952334379E-1    2.779005731003153E-3    2.750665634296393E-3   -3.302623704403458E-3    2.759812069349942E-3   -3.307856910903758E-3    9.973592129522378E-1    2.793907500799705E-3
 1.952048660938581E5     9.972943221687708E-1    2.753984150436763E-3    2.749756838860235E-3   -3.274668419820770E-3    2.758652256315558E-3   -3.285976283235641E-3    9.973394053220274E-1    2.752825895546191E-3
 1.966942524101142E5     9.972847872882374E-1    2.722186501886695E-3    2.747374381246343E-3   -3.250351393370187E-3    2.755837016043777E-3   -3.260495745084777E-3    9.973227511826372E-1    2.727440418022447E-3
 1.981950025393913E5     9.972418847200187E-1    2.709844684217905E-3    2.743253252255115E-3   -3.229020975400156E-3    2.757431902339297E-3   -3.236930479710332E-3    9.973446987130752E-1    2.701569538608914E-3
